! Device:      ADRF5025					
! Description: Silicon SPDT Switch, Reflective			
! Frequency:   9kHz -  44.00 GHz						
! Ports:       										
!        RFC = Port 1
!        RF1 = Port 2
!        RF2 = Port 3
!						
! VDD   =  +3.30 Volts
! VSS   =  -3.30 Volts
! CTRL  =  +0.00 Volts
!				
	
! Data:  Data was collected using an calibrated 4 port network analyzer 						
!	      using G-S-G Probes on Probe Matrix Board. 
!             The reference plane is the package pins of ADRF5025 switch.
! Notes: Analog Devices supplies this data as a sample of measured data						
!             for this product.  Your particular data for this product may vary.						
!             Data was taken at -40 degrees C.						
!             Analog Devices reserves the right to change this data at anytime.	
!
# GHz S  dB   R 50
0.26 -29.951 -8.313 -74.305 59.248 -0.452 -2.576  
-73.843 58.597 -0.823 177.933 -82.304 35.336   
-0.464 -2.533 -80.796 30.768 -25.490 -5.149   
0.51 -29.924 -15.556 -69.516 73.375 -0.478 -4.826  
-68.820 66.136 -0.898 176.237 -79.554 47.057   
-0.492 -4.835 -80.948 40.697 -24.932 -12.311   
0.76 -30.057 -21.954 -65.662 72.141 -0.486 -7.128  
-66.109 76.538 -0.904 174.529 -78.193 61.695   
-0.499 -7.120 -77.720 46.489 -25.023 -17.346   
1.01 -30.160 -27.817 -63.561 74.620 -0.498 -9.340  
-63.325 76.853 -0.895 172.571 -74.576 62.405   
-0.502 -9.317 -74.926 63.356 -25.009 -25.201   
1.26 -30.285 -32.955 -61.699 75.494 -0.498 -11.600  
-61.670 75.917 -0.911 170.750 -73.654 66.539   
-0.509 -11.577 -73.273 66.919 -25.008 -31.170   
1.51 -30.367 -38.463 -60.026 74.940 -0.500 -13.862  
-60.024 74.964 -0.915 168.980 -71.679 70.454   
-0.509 -13.827 -71.543 62.359 -24.994 -36.342   
1.76 -30.330 -43.399 -58.726 74.374 -0.493 -16.122  
-58.726 74.099 -0.909 167.141 -70.648 68.984   
-0.499 -16.164 -70.700 68.387 -24.894 -41.790   
2.01 -30.381 -48.197 -57.650 73.062 -0.517 -18.353  
-57.614 73.081 -0.915 165.254 -69.741 67.746   
-0.532 -18.317 -69.198 67.132 -24.770 -46.550   
2.26 -30.448 -52.428 -56.584 71.327 -0.524 -20.684  
-56.691 71.392 -0.915 163.382 -68.539 67.749   
-0.533 -20.715 -68.431 69.282 -24.776 -51.688   
2.51 -30.592 -56.148 -55.699 69.894 -0.516 -22.927  
-55.675 70.616 -0.916 161.540 -67.777 65.280   
-0.526 -22.993 -67.321 68.322 -24.536 -55.896   
2.76 -30.865 -59.196 -54.919 68.064 -0.528 -25.247  
-54.867 68.621 -0.918 159.623 -67.039 66.151   
-0.545 -25.213 -66.597 66.284 -24.701 -60.027   
3.01 -31.109 -62.783 -54.210 66.562 -0.548 -27.434  
-54.246 66.695 -0.926 157.719 -65.799 66.803   
-0.540 -27.373 -66.221 66.115 -24.647 -63.121   
3.26 -31.470 -66.015 -53.556 65.878 -0.547 -29.643  
-53.531 65.633 -0.921 155.838 -65.546 65.969   
-0.554 -29.584 -65.521 65.334 -24.596 -66.060   
3.51 -31.808 -69.015 -52.998 63.522 -0.536 -31.971  
-53.005 63.769 -0.927 153.914 -65.020 64.021   
-0.545 -31.946 -64.811 64.081 -24.570 -68.821   
3.76 -32.208 -73.137 -52.392 62.162 -0.550 -34.153  
-52.435 62.279 -0.925 151.994 -64.534 63.016   
-0.563 -34.142 -64.253 63.016 -24.480 -74.939   
4.01 -32.419 -78.197 -52.023 60.473 -0.526 -36.529  
-51.973 60.361 -0.927 150.113 -63.941 64.167   
-0.560 -36.597 -63.951 64.697 -24.523 -78.188   
4.26 -32.698 -83.584 -51.434 59.400 -0.552 -38.710  
-51.451 59.041 -0.930 148.247 -63.378 62.606   
-0.562 -38.729 -63.493 63.515 -24.825 -82.838   
4.51 -32.793 -90.230 -51.048 57.470 -0.551 -40.862  
-51.019 57.714 -0.930 146.430 -62.810 62.662   
-0.552 -40.974 -62.558 62.827 -24.433 -86.437   
4.76 -32.698 -96.966 -50.612 56.321 -0.561 -43.305  
-50.651 56.241 -0.932 144.585 -62.478 61.208   
-0.569 -43.194 -62.444 61.304 -24.798 -88.966   
5.01 -32.378 -103.232 -50.122 54.773 -0.574 -45.445  
-50.201 55.294 -0.934 142.802 -61.658 59.724   
-0.566 -45.342 -61.886 61.377 -24.607 -92.914   
5.26 -31.993 -109.945 -49.829 53.548 -0.572 -47.621  
-49.762 53.371 -0.943 140.980 -61.463 57.390   
-0.554 -47.641 -61.434 58.543 -23.986 -99.293   
5.51 -31.502 -115.986 -49.403 51.773 -0.573 -49.888  
-49.360 51.539 -0.944 139.164 -61.180 56.366   
-0.561 -49.917 -61.227 57.233 -24.203 -103.050   
5.76 -30.856 -120.879 -49.044 49.677 -0.590 -52.179  
-49.107 49.918 -0.949 137.412 -60.950 53.568   
-0.566 -52.043 -61.031 56.145 -24.025 -108.261   
6.01 -30.452 -126.470 -48.788 48.312 -0.572 -54.470  
-48.794 48.192 -0.954 135.573 -60.748 53.054   
-0.588 -54.391 -60.597 52.178 -23.606 -111.361   
6.26 -30.005 -130.512 -48.526 46.275 -0.600 -56.753  
-48.526 46.544 -0.957 133.754 -60.765 53.456   
-0.589 -56.523 -60.635 52.344 -23.455 -117.977   
6.51 -29.602 -135.283 -48.253 44.688 -0.584 -58.942  
-48.320 44.831 -0.965 131.898 -60.397 54.340   
-0.597 -58.926 -60.410 54.557 -23.605 -120.271   
6.76 -29.294 -139.424 -48.002 43.771 -0.580 -61.299  
-48.065 43.649 -0.974 130.067 -59.726 53.563   
-0.612 -61.180 -59.758 53.985 -23.287 -124.475   
7.01 -28.970 -142.963 -47.688 42.042 -0.610 -63.431  
-47.664 41.945 -0.982 128.189 -59.526 53.077   
-0.593 -63.386 -59.375 53.238 -23.530 -128.965   
7.26 -28.708 -146.530 -47.465 39.892 -0.597 -65.734  
-47.463 39.637 -0.991 126.340 -58.653 51.774   
-0.607 -65.663 -58.675 51.542 -23.293 -129.715   
7.51 -28.405 -149.810 -47.306 38.078 -0.621 -68.067  
-47.298 38.596 -1.000 124.482 -58.755 45.652   
-0.606 -67.805 -58.602 47.277 -22.909 -134.146   
7.76 -27.925 -153.022 -47.084 36.533 -0.622 -70.169  
-47.115 36.516 -1.010 122.646 -58.761 45.345   
-0.596 -70.130 -58.722 45.637 -23.149 -138.135   
8.01 -27.596 -156.768 -46.880 35.035 -0.614 -72.461  
-46.889 34.825 -1.018 120.807 -58.601 44.947   
-0.618 -72.416 -58.531 43.708 -22.918 -140.822   
8.26 -27.145 -159.395 -46.737 33.501 -0.639 -74.705  
-46.681 33.447 -1.030 118.975 -58.343 43.549   
-0.592 -74.671 -58.227 42.704 -22.810 -142.860   
8.51 -26.919 -162.443 -46.536 31.433 -0.631 -76.902  
-46.511 31.479 -1.039 117.089 -58.426 42.666   
-0.601 -76.895 -58.271 41.796 -22.955 -147.377   
8.76 -26.719 -165.500 -46.437 29.583 -0.635 -79.176  
-46.458 29.526 -1.048 115.217 -58.319 40.867   
-0.609 -79.205 -58.403 40.856 -22.713 -148.758   
9.01 -26.564 -168.644 -46.360 27.956 -0.632 -81.336  
-46.300 27.649 -1.063 113.301 -58.665 39.249   
-0.609 -81.552 -58.397 39.369 -22.642 -152.123   
9.26 -26.437 -171.520 -46.231 25.946 -0.622 -83.577  
-46.217 25.919 -1.074 111.428 -58.333 40.285   
-0.621 -83.824 -58.501 39.884 -22.796 -154.674   
9.51 -26.325 -173.881 -46.305 23.939 -0.636 -85.952  
-46.286 24.033 -1.085 109.510 -58.675 42.346   
-0.617 -85.923 -58.720 41.903 -22.684 -156.177   
9.76 -26.278 -176.994 -46.353 23.049 -0.631 -88.084  
-46.297 22.587 -1.093 107.603 -58.284 43.482   
-0.631 -88.320 -58.374 43.768 -22.692 -156.153   
10.01 -26.121 -179.315 -46.144 23.110 -0.630 -90.402  
-46.127 22.795 -1.100 105.705 -57.590 44.151   
-0.637 -90.489 -57.821 44.487 -22.968 -161.004   
10.26 -25.857 178.104 -46.011 21.998 -0.645 -92.609  
-46.052 21.863 -1.112 103.805 -57.422 45.430   
-0.632 -92.874 -57.554 45.592 -23.149 -162.610   
10.51 -25.666 175.977 -45.928 19.993 -0.632 -94.905  
-45.921 20.346 -1.118 101.985 -57.170 41.225   
-0.643 -95.078 -57.119 43.145 -22.998 -163.106   
10.76 -25.400 173.554 -45.776 19.589 -0.661 -97.275  
-45.760 19.602 -1.128 100.185 -56.894 43.689   
-0.625 -97.309 -56.844 43.480 -22.973 -169.639   
11.01 -25.012 170.953 -45.716 17.741 -0.654 -99.329  
-45.719 17.620 -1.141 98.286 -56.665 43.106   
-0.638 -99.765 -56.697 43.408 -23.149 -170.700   
11.26 -24.593 170.089 -45.695 17.334 -0.649 -101.740  
-45.684 17.509 -1.143 96.546 -56.414 44.115   
-0.643 -101.844 -56.334 43.538 -22.659 -172.454   
11.51 -24.173 168.525 -45.518 16.973 -0.675 -103.931  
-45.530 16.424 -1.155 94.745 -55.817 43.382   
-0.634 -104.276 -55.824 43.258 -22.544 -178.681   
11.76 -23.895 166.727 -45.369 15.410 -0.653 -106.180  
-45.414 15.235 -1.163 92.950 -55.298 42.180   
-0.661 -106.485 -55.328 42.344 -22.624 -178.843   
12.01 -23.465 166.066 -45.319 14.394 -0.664 -108.562  
-45.295 14.304 -1.174 91.177 -54.938 40.679   
-0.644 -108.690 -54.930 41.063 -22.144 178.967   
12.26 -23.211 163.532 -45.167 13.813 -0.673 -110.631  
-45.176 13.524 -1.184 89.372 -54.475 40.412   
-0.665 -111.118 -54.540 40.322 -22.125 173.655   
12.51 -23.010 162.781 -44.947 12.506 -0.656 -112.998  
-44.962 12.137 -1.198 87.583 -54.061 37.871   
-0.666 -113.285 -54.217 37.519 -22.284 171.123   
12.76 -22.805 161.666 -44.857 11.586 -0.664 -115.300  
-44.856 11.266 -1.214 85.732 -53.665 35.627   
-0.664 -115.522 -53.684 36.040 -22.181 171.023   
13.01 -22.673 160.013 -44.684 10.909 -0.665 -117.448  
-44.712 10.429 -1.230 83.863 -53.540 35.131   
-0.680 -117.883 -53.631 34.875 -22.194 166.585   
13.26 -22.440 159.079 -44.350 7.732 -0.671 -119.838  
-44.361 7.474 -1.238 81.959 -53.579 32.435   
-0.663 -120.068 -53.609 31.801 -22.253 164.315   
13.51 -22.342 156.998 -44.386 7.005 -0.680 -121.957  
-44.424 6.589 -1.257 80.055 -52.698 33.088   
-0.684 -122.411 -52.627 32.455 -21.961 163.474   
13.76 -22.145 156.367 -44.323 4.886 -0.663 -124.270  
-44.341 4.789 -1.265 78.156 -52.629 29.839   
-0.688 -124.591 -52.603 29.224 -21.912 159.344   
14.01 -21.938 154.253 -44.279 4.278 -0.686 -126.618  
-44.280 3.972 -1.276 76.207 -52.118 29.574   
-0.680 -126.968 -52.118 29.144 -21.994 157.991   
14.26 -21.847 152.194 -44.019 3.418 -0.679 -128.815  
-44.043 3.491 -1.290 74.341 -51.356 26.484   
-0.698 -129.164 -51.363 26.420 -21.781 156.109   
14.51 -21.603 150.649 -43.863 1.824 -0.674 -131.213  
-43.900 1.645 -1.302 72.426 -51.097 23.723   
-0.690 -131.381 -51.075 23.646 -21.711 152.691   
14.76 -21.509 148.524 -43.612 0.345 -0.687 -133.380  
-43.670 0.192 -1.315 70.508 -50.582 19.650   
-0.705 -133.732 -50.578 19.400 -21.724 152.007   
15.01 -21.347 146.881 -43.462 -2.153 -0.680 -135.650  
-43.492 -2.268 -1.329 68.583 -50.542 14.947   
-0.716 -135.960 -50.559 15.082 -21.449 149.838   
15.26 -21.124 145.113 -43.311 -4.225 -0.693 -138.057  
-43.321 -4.293 -1.336 66.689 -50.250 11.948   
-0.698 -138.328 -50.266 11.749 -21.302 147.383   
15.51 -21.021 142.540 -43.237 -5.860 -0.689 -140.165  
-43.267 -5.973 -1.349 64.757 -50.062 9.582   
-0.731 -140.550 -50.090 9.189 -21.257 146.526   
15.76 -20.756 140.992 -43.066 -7.960 -0.677 -142.565  
-43.068 -7.870 -1.359 62.861 -49.857 6.923   
-0.714 -142.800 -49.972 6.236 -21.004 144.664   
16.01 -20.601 138.427 -42.942 -10.263 -0.706 -144.807  
-42.961 -10.383 -1.370 60.967 -49.613 3.609   
-0.728 -145.149 -49.611 3.427 -20.876 142.179   
16.26 -20.453 137.205 -42.774 -12.523 -0.681 -147.030  
-42.823 -12.498 -1.387 59.085 -49.327 0.298   
-0.730 -147.286 -49.367 -0.320 -20.790 140.182   
16.51 -20.220 134.869 -42.769 -14.930 -0.699 -149.455  
-42.798 -14.857 -1.400 57.246 -49.146 -2.438   
-0.728 -149.652 -49.176 -2.881 -20.600 137.694   
16.76 -20.063 133.077 -42.599 -17.362 -0.700 -151.672  
-42.665 -17.492 -1.405 55.367 -48.772 -7.281   
-0.738 -151.937 -48.746 -7.416 -20.462 135.251   
17.01 -19.876 131.399 -42.695 -19.429 -0.693 -154.000  
-42.716 -19.103 -1.413 53.538 -48.693 -10.523   
-0.735 -154.125 -48.726 -10.559 -20.283 132.727   
17.26 -19.690 129.212 -42.525 -21.423 -0.717 -156.322  
-42.542 -21.409 -1.419 51.664 -48.415 -14.441   
-0.745 -156.557 -48.405 -14.655 -20.102 129.793   
17.51 -19.555 127.890 -42.426 -24.109 -0.701 -158.515  
-42.432 -23.965 -1.437 49.740 -48.159 -19.372   
-0.752 -158.703 -48.164 -19.824 -19.964 127.050   
17.76 -19.285 125.781 -42.379 -26.805 -0.713 -160.976  
-42.368 -26.927 -1.440 47.785 -48.146 -24.970   
-0.744 -161.143 -48.173 -24.489 -19.626 123.923   
18.01 -19.175 123.801 -42.390 -29.440 -0.735 -163.181  
-42.415 -29.559 -1.450 45.966 -48.176 -28.459   
-0.770 -163.438 -48.152 -29.132 -19.597 120.285   
18.26 -19.002 123.120 -42.338 -31.799 -0.707 -165.473  
-42.374 -31.696 -1.469 44.089 -47.903 -32.710   
-0.756 -165.600 -47.945 -32.636 -19.444 118.588   
18.51 -18.843 121.223 -42.282 -34.501 -0.741 -167.911  
-42.351 -34.566 -1.484 42.108 -47.813 -38.366   
-0.768 -168.099 -47.815 -38.424 -19.230 114.892   
18.76 -18.783 119.733 -42.212 -37.239 -0.740 -170.040  
-42.225 -37.244 -1.499 40.147 -47.685 -43.544   
-0.780 -170.253 -47.805 -44.010 -19.225 111.591   
19.01 -18.592 117.443 -42.348 -40.798 -0.728 -172.480  
-42.373 -40.447 -1.509 38.141 -48.148 -49.151   
-0.766 -172.570 -48.131 -49.622 -18.976 111.691   
19.26 -18.633 115.612 -42.407 -42.674 -0.762 -174.678  
-42.431 -42.562 -1.528 36.196 -48.161 -52.279   
-0.796 -174.872 -48.154 -52.655 -18.774 107.758   
19.51 -18.602 114.529 -42.315 -45.174 -0.743 -176.850  
-42.341 -45.226 -1.541 34.119 -48.136 -56.569   
-0.782 -177.039 -48.178 -56.770 -18.805 105.844   
19.76 -18.529 111.380 -42.480 -48.147 -0.757 -179.445  
-42.455 -48.280 -1.553 32.169 -48.112 -62.987   
-0.788 -179.588 -48.131 -63.324 -18.537 105.032   
20.01 -18.569 109.413 -42.611 -50.518 -0.781 178.493  
-42.628 -50.409 -1.571 30.091 -48.575 -68.748   
-0.807 178.315 -48.576 -68.930 -18.176 102.421   
20.26 -18.419 106.977 -42.703 -52.692 -0.767 176.007  
-42.718 -52.654 -1.582 27.978 -49.047 -73.170   
-0.798 175.865 -49.069 -72.890 -18.144 99.363   
20.51 -18.445 104.543 -42.783 -55.839 -0.797 173.576  
-42.785 -56.175 -1.596 25.983 -49.445 -78.368   
-0.828 173.464 -49.407 -77.543 -17.997 98.124   
20.76 -18.462 103.378 -43.005 -57.262 -0.793 171.536  
-42.987 -57.107 -1.616 24.014 -50.132 -77.098   
-0.819 171.412 -50.179 -76.948 -17.715 96.599   
21.01 -18.455 100.661 -42.777 -58.073 -0.795 169.140  
-42.794 -58.151 -1.628 22.124 -49.463 -75.261   
-0.832 168.985 -49.459 -74.712 -17.850 92.954   
21.26 -18.576 98.507 -42.865 -60.854 -0.828 166.952  
-42.892 -60.739 -1.632 20.105 -49.123 -81.480   
-0.853 166.822 -49.041 -81.517 -17.800 92.666   
21.51 -18.511 96.588 -42.915 -63.292 -0.806 164.661  
-42.899 -63.298 -1.641 18.114 -48.922 -87.780   
-0.837 164.466 -48.933 -87.937 -17.387 90.379   
21.76 -18.666 94.222 -42.784 -64.969 -0.829 162.357  
-42.762 -65.004 -1.653 16.051 -49.094 -92.784   
-0.858 162.172 -49.103 -92.826 -17.607 87.203   
22.01 -18.864 93.064 -42.796 -67.250 -0.830 160.302  
-42.814 -67.328 -1.659 13.955 -49.143 -98.947   
-0.846 160.046 -49.167 -99.448 -17.853 87.050   
22.26 -18.939 90.960 -42.589 -70.535 -0.808 157.772  
-42.571 -70.691 -1.679 11.922 -49.500 -105.648   
-0.851 157.525 -49.531 -105.914 -17.505 85.185   
22.51 -19.244 88.771 -42.828 -75.084 -0.840 155.563  
-42.823 -75.142 -1.686 9.835 -50.209 -108.319   
-0.869 155.365 -50.281 -108.731 -17.888 82.431   
22.76 -19.414 87.897 -42.899 -76.646 -0.802 153.430  
-42.921 -76.728 -1.703 7.733 -50.058 -108.794   
-0.832 153.073 -50.171 -109.245 -17.945 82.922   
23.01 -19.556 84.517 -43.064 -79.873 -0.816 150.700  
-43.049 -80.170 -1.712 5.624 -49.870 -115.080   
-0.882 150.567 -49.920 -114.954 -17.619 80.141   
23.26 -19.892 83.210 -43.232 -81.271 -0.831 148.709  
-43.284 -81.593 -1.716 3.575 -50.012 -119.785   
-0.865 148.415 -50.079 -120.062 -18.079 76.312   
23.51 -19.883 81.057 -42.985 -83.447 -0.801 146.311  
-43.022 -83.900 -1.734 1.516 -50.637 -118.738   
-0.873 145.960 -50.769 -118.508 -17.932 75.142   
23.76 -20.177 78.347 -43.298 -87.516 -0.836 143.853  
-43.353 -87.795 -1.736 -0.454 -49.554 -122.735   
-0.915 143.733 -49.584 -122.375 -17.721 73.226   
24.01 -20.256 76.849 -43.310 -88.277 -0.859 141.788  
-43.349 -88.699 -1.749 -2.436 -49.329 -128.966   
-0.907 141.576 -49.345 -129.087 -17.736 67.023   
24.26 -20.418 74.084 -43.240 -90.293 -0.862 139.429  
-43.244 -90.503 -1.753 -4.415 -49.554 -136.337   
-0.924 139.374 -49.501 -136.462 -17.789 65.922   
24.51 -20.599 72.051 -43.311 -94.106 -0.896 137.092  
-43.354 -94.028 -1.764 -6.452 -49.456 -141.276   
-0.939 137.203 -49.462 -141.346 -17.374 64.526   
24.76 -20.626 70.262 -43.471 -93.726 -0.894 134.888  
-43.546 -93.908 -1.780 -8.492 -49.139 -147.430   
-0.941 134.913 -49.174 -147.613 -17.347 59.629   
25.01 -20.855 68.307 -42.816 -95.737 -0.907 132.418  
-42.850 -95.738 -1.796 -10.540 -49.475 -155.125   
-0.976 132.773 -49.448 -155.217 -17.319 59.809   
25.26 -20.924 65.529 -43.044 -100.550 -0.917 130.267  
-43.066 -100.742 -1.825 -12.627 -51.272 -160.122   
-0.965 130.484 -51.172 -159.820 -17.181 58.232   
25.51 -21.090 62.847 -42.645 -102.802 -0.928 128.089  
-42.717 -102.820 -1.839 -14.606 -50.653 -150.939   
-0.960 128.229 -50.562 -151.119 -17.309 53.131   
25.76 -21.370 60.192 -43.061 -108.140 -0.910 125.857  
-43.087 -108.345 -1.866 -16.813 -49.205 -155.771   
-0.962 125.953 -49.186 -154.601 -17.432 54.292   
26.01 -21.575 57.556 -42.884 -108.156 -0.916 123.602  
-42.933 -108.484 -1.878 -19.060 -49.066 -166.768   
-0.958 123.591 -49.024 -166.850 -17.210 53.935   
26.26 -21.801 53.839 -42.462 -111.216 -0.913 121.287  
-42.484 -111.183 -1.864 -21.187 -49.078 -172.029   
-0.960 121.374 -48.983 -172.102 -17.275 49.381   
26.51 -22.143 50.105 -42.356 -120.455 -0.912 119.085  
-42.364 -119.892 -1.862 -23.415 -49.337 -172.897   
-0.950 119.023 -49.192 -173.572 -17.263 50.536   
26.76 -22.565 46.339 -43.023 -122.128 -0.895 116.750  
-43.184 -122.916 -1.856 -25.799 -47.987 -177.713   
-0.956 116.634 -47.976 -179.110 -17.028 49.815   
27.01 -23.031 42.274 -43.670 -124.580 -0.927 114.206  
-43.616 -125.325 -1.868 -28.099 -48.117 171.753   
-0.978 114.605 -47.939 172.107 -16.993 45.012   
27.26 -23.445 36.410 -43.643 -118.370 -0.919 111.985  
-43.473 -119.360 -1.876 -30.172 -47.548 163.483   
-0.971 112.128 -47.638 163.109 -16.839 46.917   
27.51 -23.824 29.825 -42.451 -123.909 -0.883 109.545  
-42.643 -124.762 -1.872 -32.316 -49.276 151.309   
-1.012 109.853 -49.032 151.294 -16.731 46.443   
27.76 -24.421 24.862 -43.434 -129.924 -0.924 107.149  
-43.558 -129.181 -1.858 -34.381 -49.466 164.661   
-1.004 107.800 -49.289 165.646 -16.775 40.888   
28.01 -24.768 19.237 -42.717 -126.310 -0.923 104.920  
-42.758 -125.843 -1.852 -36.456 -47.894 156.557   
-1.007 105.367 -47.826 157.118 -16.771 40.968   
28.26 -25.179 14.320 -42.641 -130.258 -0.917 102.680  
-42.632 -130.296 -1.853 -38.749 -47.850 150.744   
-0.992 103.032 -47.898 153.514 -17.180 40.806   
28.51 -25.745 10.037 -42.177 -133.547 -0.971 100.301  
-42.212 -133.617 -1.841 -40.763 -47.729 145.507   
-0.971 100.871 -47.587 145.602 -17.212 35.177   
28.76 -26.086 3.544 -41.930 -136.468 -0.954 98.046  
-42.057 -136.799 -1.824 -42.610 -47.420 136.582   
-0.975 98.448 -47.550 136.722 -17.369 34.727   
29.01 -26.506 -2.964 -41.808 -141.986 -0.961 95.549  
-41.747 -141.655 -1.845 -45.053 -48.295 127.574   
-0.958 96.181 -48.272 130.258 -17.351 34.608   
29.26 -27.006 -11.291 -41.981 -147.440 -1.015 93.348  
-41.842 -146.844 -1.838 -47.278 -49.178 129.475   
-0.934 93.761 -49.001 129.901 -17.336 30.025   
29.51 -27.550 -21.293 -41.789 -150.132 -0.976 90.892  
-41.635 -150.236 -1.840 -49.280 -48.399 127.237   
-0.962 91.453 -48.235 127.227 -17.443 31.151   
29.76 -28.038 -28.909 -42.434 -154.111 -0.982 88.633  
-42.415 -154.341 -1.859 -51.614 -47.993 125.740   
-0.956 89.146 -48.120 124.977 -18.049 33.306   
30.01 -28.157 -35.769 -42.501 -152.884 -0.983 86.240  
-42.602 -151.773 -1.852 -53.731 -47.522 118.191   
-0.942 86.955 -47.519 118.120 -17.806 28.225   
30.26 -28.437 -42.448 -42.039 -153.371 -0.967 83.896  
-42.252 -153.787 -1.881 -55.982 -48.534 113.334   
-0.935 84.466 -48.166 112.624 -18.512 27.312   
30.51 -28.636 -48.824 -41.886 -154.421 -0.989 81.750  
-41.947 -153.906 -1.893 -58.134 -48.968 107.530   
-0.916 81.912 -48.848 107.206 -19.201 29.164   
30.76 -28.685 -53.834 -41.475 -157.958 -1.004 79.281  
-41.396 -157.965 -1.896 -60.027 -48.787 102.555   
-0.910 79.625 -49.088 102.699 -18.994 21.117   
