! Device:      ADRF5025					
! Description: Silicon SPDT Switch, Reflective			
! Frequency:   9kHz -  44.00 GHz						
! Ports:       										
!        RFC = Port 1
!        RF1 = Port 2
!        RF2 = Port 3
!						
! VDD   =  +3.30 Volts
! VSS   =  -3.30 Volts
! CTRL  =  +3.30 Volts
!				
	
! Data:  Data was collected using an calibrated 4 port network analyzer 						
!	      using G-S-G Probes on Probe Matrix Board. 
!             The reference plane is the package pins of ADRF5025 switch.
! Notes: Analog Devices supplies this data as a sample of measured data						
!             for this product.  Your particular data for this product may vary.						
!             Data was taken at -40 degrees C.						
!             Analog Devices reserves the right to change this data at anytime.	
!
# GHz S  dB   R 50
0.26 -25.327 -3.098 -0.435 -2.585 -73.658 63.104  
-0.443 -2.618 -30.769 -15.000 -84.985 36.350   
-74.065 62.988 -80.492 40.419 -0.869 178.058   
0.51 -24.639 -9.311 -0.448 -4.901 -68.575 71.777  
-0.458 -4.980 -30.458 -27.518 -80.628 43.327   
-68.443 71.164 -80.539 47.027 -0.936 176.420   
0.76 -24.874 -15.758 -0.468 -7.340 -65.611 72.890  
-0.500 -7.345 -30.161 -37.674 -78.892 58.507   
-65.329 75.377 -76.408 52.890 -0.946 174.502   
1.01 -24.977 -20.873 -0.484 -9.465 -63.344 75.196  
-0.504 -9.438 -29.671 -47.716 -74.862 64.429   
-63.309 76.189 -74.653 71.750 -0.936 172.764   
1.26 -24.924 -25.601 -0.483 -11.682 -61.267 76.156  
-0.495 -11.769 -29.181 -55.864 -73.508 68.240   
-61.318 74.641 -72.936 64.459 -0.939 170.937   
1.51 -25.163 -30.817 -0.495 -14.089 -59.762 74.935  
-0.503 -14.007 -28.664 -62.719 -72.162 67.646   
-59.792 75.367 -71.526 66.370 -0.954 169.236   
1.76 -25.304 -35.050 -0.501 -16.353 -58.323 74.006  
-0.495 -16.299 -28.126 -69.176 -70.807 70.911   
-58.458 74.764 -70.385 66.790 -0.962 167.474   
2.01 -25.324 -37.728 -0.514 -18.577 -57.419 72.775  
-0.488 -18.563 -27.697 -75.247 -69.374 68.599   
-57.250 72.938 -68.802 67.829 -0.964 165.675   
2.26 -25.359 -42.288 -0.509 -20.996 -56.268 71.217  
-0.495 -20.992 -27.278 -80.777 -68.269 66.732   
-56.318 71.194 -68.169 67.760 -0.973 163.947   
2.51 -25.303 -46.700 -0.512 -23.133 -55.485 69.457  
-0.523 -23.169 -26.954 -85.293 -67.473 68.563   
-55.483 69.615 -67.565 64.964 -0.980 162.125   
2.76 -25.502 -49.997 -0.509 -25.523 -54.661 68.259  
-0.514 -25.473 -26.628 -89.601 -67.202 65.383   
-54.634 68.360 -66.706 67.517 -0.980 160.262   
3.01 -25.606 -53.000 -0.529 -27.746 -53.895 66.938  
-0.546 -27.797 -26.417 -93.495 -66.110 66.904   
-53.963 66.860 -65.883 67.772 -0.983 158.435   
3.26 -25.878 -57.268 -0.536 -30.016 -53.312 65.168  
-0.535 -29.986 -26.133 -97.149 -65.310 64.919   
-53.299 65.250 -65.421 67.179 -0.991 156.624   
3.51 -25.903 -59.531 -0.551 -32.234 -52.712 63.780  
-0.563 -32.241 -25.923 -101.249 -64.976 65.551   
-52.665 63.391 -64.922 65.653 -0.994 154.727   
3.76 -26.296 -63.031 -0.526 -34.410 -52.163 62.288  
-0.530 -34.493 -25.682 -104.912 -64.307 63.458   
-52.113 62.086 -64.117 65.093 -0.997 152.864   
4.01 -26.408 -66.956 -0.535 -36.748 -51.670 60.207  
-0.538 -36.816 -25.396 -108.679 -63.514 64.333   
-51.652 60.401 -63.566 65.035 -1.000 151.005   
4.26 -26.290 -71.100 -0.521 -39.134 -51.162 58.914  
-0.550 -39.190 -25.060 -112.555 -63.435 63.131   
-51.198 58.868 -63.443 63.183 -1.004 149.179   
4.51 -26.515 -79.547 -0.545 -41.290 -50.801 57.898  
-0.556 -41.192 -24.702 -116.113 -62.858 63.236   
-50.802 57.831 -62.937 63.153 -1.002 147.361   
4.76 -26.620 -83.784 -0.555 -43.827 -50.358 56.285  
-0.546 -43.729 -24.253 -120.126 -62.470 61.880   
-50.364 56.471 -62.265 62.710 -1.002 145.556   
5.01 -26.644 -89.842 -0.571 -46.109 -49.960 54.782  
-0.564 -46.028 -23.840 -123.337 -61.807 61.659   
-49.884 55.041 -61.682 60.599 -1.001 143.765   
5.26 -26.244 -95.550 -0.570 -48.103 -49.483 53.291  
-0.576 -48.076 -23.472 -126.817 -61.379 57.370   
-49.533 53.167 -61.448 57.007 -1.006 141.986   
5.51 -26.018 -101.207 -0.570 -50.576 -49.157 51.371  
-0.576 -50.498 -23.032 -129.929 -60.967 57.084   
-49.109 51.796 -61.134 56.727 -1.009 140.228   
5.76 -25.887 -108.522 -0.561 -52.825 -48.818 49.507  
-0.552 -52.715 -22.608 -132.920 -60.933 55.913   
-48.842 49.414 -60.707 56.945 -1.015 138.481   
6.01 -26.396 -110.254 -0.588 -55.053 -48.532 48.106  
-0.563 -55.266 -22.343 -135.812 -60.517 53.832   
-48.511 47.917 -60.639 54.120 -1.019 136.714   
6.26 -25.338 -113.094 -0.572 -57.234 -48.278 46.014  
-0.582 -57.293 -22.072 -138.713 -60.597 54.699   
-48.308 46.023 -60.633 55.208 -1.020 134.924   
6.51 -25.270 -121.929 -0.582 -59.665 -48.071 44.463  
-0.576 -59.694 -21.856 -141.765 -60.380 54.406   
-48.040 44.698 -60.152 53.998 -1.024 133.124   
6.76 -25.041 -123.836 -0.593 -61.829 -47.738 43.469  
-0.602 -61.876 -21.695 -144.387 -59.628 54.936   
-47.755 43.502 -59.694 53.684 -1.033 131.302   
7.01 -24.914 -129.130 -0.579 -64.147 -47.444 41.579  
-0.584 -64.151 -21.524 -146.996 -59.206 53.857   
-47.467 42.117 -59.377 53.838 -1.039 129.510   
7.26 -24.806 -133.138 -0.608 -66.486 -47.267 39.644  
-0.614 -66.490 -21.393 -149.377 -58.922 51.576   
-47.247 39.872 -58.747 52.145 -1.047 127.687   
7.51 -24.677 -138.904 -0.618 -68.632 -47.048 37.894  
-0.610 -68.662 -21.262 -151.900 -58.442 46.590   
-47.027 37.883 -58.459 47.126 -1.051 125.895   
7.76 -24.585 -143.679 -0.603 -70.948 -46.896 36.616  
-0.590 -71.075 -21.110 -154.288 -58.598 45.223   
-46.858 36.521 -58.739 45.326 -1.060 124.093   
8.01 -24.371 -147.950 -0.615 -73.218 -46.666 34.907  
-0.600 -73.318 -20.992 -156.575 -58.514 45.856   
-46.701 34.721 -58.572 45.148 -1.068 122.329   
8.26 -23.848 -149.961 -0.627 -75.534 -46.531 33.228  
-0.624 -75.498 -20.890 -158.799 -58.385 44.344   
-46.511 33.203 -58.260 44.041 -1.071 120.561   
8.51 -23.884 -154.942 -0.610 -77.767 -46.385 31.439  
-0.599 -77.826 -20.833 -161.021 -58.503 41.842   
-46.348 31.118 -58.432 43.240 -1.080 118.765   
8.76 -23.941 -159.399 -0.629 -80.063 -46.221 29.727  
-0.615 -80.183 -20.820 -163.047 -58.376 42.696   
-46.240 29.673 -58.303 41.462 -1.089 116.959   
9.01 -23.736 -162.472 -0.636 -82.269 -46.127 27.817  
-0.623 -82.381 -20.843 -164.945 -58.437 41.671   
-46.096 27.698 -58.496 41.560 -1.099 115.092   
9.26 -24.071 -162.931 -0.628 -84.526 -46.036 26.185  
-0.642 -84.700 -20.805 -166.946 -58.532 40.733   
-46.033 25.800 -58.553 42.196 -1.113 113.235   
9.51 -23.918 -165.752 -0.646 -86.830 -46.094 23.885  
-0.658 -86.956 -20.842 -169.038 -58.695 44.552   
-46.122 23.824 -58.756 42.903 -1.119 111.369   
9.76 -23.437 -172.767 -0.654 -89.235 -46.103 23.322  
-0.640 -89.377 -20.848 -170.694 -58.492 45.868   
-46.098 23.233 -58.478 46.129 -1.129 109.452   
10.01 -23.704 -176.632 -0.640 -91.371 -45.930 22.883  
-0.636 -91.616 -20.815 -172.969 -57.660 44.337   
-45.986 22.627 -57.583 46.159 -1.137 107.496   
10.26 -23.330 -176.063 -0.637 -93.735 -45.860 22.281  
-0.645 -93.826 -20.787 -175.026 -57.295 45.958   
-45.869 22.071 -57.225 47.427 -1.145 105.575   
10.51 -22.788 178.866 -0.647 -96.158 -45.705 20.669  
-0.638 -96.274 -20.717 -176.896 -57.162 45.083   
-45.695 20.298 -57.037 44.108 -1.152 103.673   
10.76 -22.687 174.363 -0.652 -98.185 -45.647 19.499  
-0.644 -98.383 -20.571 -178.528 -56.916 45.125   
-45.635 19.354 -56.836 45.473 -1.155 101.814   
11.01 -22.344 172.849 -0.640 -100.549 -45.587 18.309  
-0.633 -100.727 -20.542 179.407 -56.770 45.465   
-45.554 17.888 -56.775 46.136 -1.163 99.928   
11.26 -22.087 167.739 -0.659 -102.960 -45.575 17.674  
-0.650 -103.264 -20.328 177.659 -56.336 45.995   
-45.551 17.521 -56.423 46.992 -1.170 98.095   
11.51 -21.981 167.276 -0.672 -105.044 -45.410 17.240  
-0.675 -105.253 -20.210 175.645 -55.891 46.257   
-45.378 17.021 -55.853 46.459 -1.173 96.251   
11.76 -21.481 163.817 -0.651 -107.482 -45.212 15.806  
-0.644 -107.689 -20.109 173.760 -55.255 45.478   
-45.195 15.470 -55.261 44.705 -1.178 94.412   
12.01 -21.667 160.482 -0.680 -109.901 -45.124 15.059  
-0.693 -110.110 -19.913 172.544 -54.708 44.325   
-45.134 14.665 -54.746 44.324 -1.186 92.632   
12.26 -21.249 160.504 -0.683 -111.950 -44.991 14.099  
-0.688 -112.104 -19.916 170.467 -54.416 42.943   
-44.975 13.681 -54.450 42.660 -1.190 90.827   
12.51 -21.051 153.676 -0.668 -114.241 -44.813 12.312  
-0.673 -114.659 -19.873 169.381 -54.016 39.873   
-44.864 11.802 -53.943 39.196 -1.190 88.951   
12.76 -21.199 154.443 -0.667 -116.722 -44.789 11.525  
-0.687 -116.880 -19.836 168.266 -53.446 37.784   
-44.804 11.414 -53.524 37.542 -1.200 87.076   
13.01 -21.000 151.106 -0.676 -118.828 -44.589 10.804  
-0.696 -119.120 -19.884 167.117 -53.407 37.593   
-44.571 10.545 -53.425 36.580 -1.208 85.224   
13.26 -21.186 147.542 -0.670 -121.128 -44.339 7.881  
-0.698 -121.443 -19.922 165.647 -53.569 33.907   
-44.375 7.591 -53.580 33.898 -1.220 83.366   
13.51 -21.050 147.149 -0.678 -123.608 -44.446 7.235  
-0.692 -123.758 -19.952 164.883 -52.775 34.948   
-44.423 6.959 -52.738 34.663 -1.228 81.505   
13.76 -20.907 144.360 -0.696 -125.760 -44.336 6.217  
-0.712 -126.009 -19.992 163.241 -52.678 33.896   
-44.355 5.687 -52.670 33.521 -1.238 79.645   
14.01 -21.305 141.530 -0.680 -128.055 -44.217 5.506  
-0.722 -128.212 -20.058 162.282 -51.881 33.205   
-44.261 5.229 -51.887 33.595 -1.243 77.821   
14.26 -20.917 141.177 -0.680 -130.439 -43.981 4.388  
-0.691 -130.559 -20.041 161.308 -51.156 29.413   
-44.021 4.302 -51.217 28.879 -1.249 75.990   
14.51 -20.906 137.663 -0.707 -132.637 -43.897 2.846  
-0.728 -132.851 -20.069 160.115 -50.988 27.099   
-43.900 2.475 -51.047 27.298 -1.260 74.166   
14.76 -21.162 136.082 -0.687 -134.868 -43.688 1.889  
-0.714 -134.959 -20.015 159.291 -50.534 23.660   
-43.751 1.737 -50.530 23.344 -1.264 72.347   
15.01 -20.957 133.671 -0.688 -137.312 -43.392 -0.608  
-0.706 -137.496 -19.971 158.295 -50.288 17.784   
-43.424 -0.812 -50.290 17.789 -1.272 70.496   
15.26 -21.009 131.052 -0.713 -139.598 -43.449 -2.425  
-0.740 -139.746 -19.947 156.377 -50.460 15.842   
-43.481 -2.569 -50.453 16.424 -1.284 68.671   
15.51 -21.073 130.210 -0.701 -141.817 -43.316 -2.992  
-0.721 -141.852 -19.884 155.206 -49.926 14.908   
-43.311 -3.357 -49.944 14.776 -1.297 66.844   
15.76 -20.911 127.433 -0.691 -144.213 -42.992 -5.386  
-0.720 -144.369 -19.785 153.975 -49.538 10.360   
-43.025 -5.738 -49.589 10.176 -1.304 65.006   
16.01 -20.855 124.977 -0.724 -146.518 -42.964 -7.559  
-0.757 -146.592 -19.723 152.340 -49.558 8.027   
-42.991 -7.960 -49.582 8.029 -1.312 63.171   
16.26 -20.727 123.812 -0.709 -148.751 -42.740 -10.078  
-0.733 -148.863 -19.562 150.802 -49.078 4.551   
-42.773 -10.363 -49.050 4.162 -1.320 61.268   
16.51 -20.622 120.960 -0.713 -151.239 -42.734 -12.583  
-0.748 -151.314 -19.437 148.953 -48.920 0.515   
-42.782 -12.830 -48.920 0.375 -1.328 59.392   
16.76 -20.575 119.102 -0.730 -153.528 -42.692 -14.491  
-0.753 -153.434 -19.365 147.139 -48.711 -2.284   
-42.714 -14.550 -48.707 -2.429 -1.329 57.519   
17.01 -20.454 116.752 -0.735 -155.671 -42.661 -16.383  
-0.752 -155.772 -19.211 145.182 -48.454 -5.708   
-42.703 -16.767 -48.479 -6.123 -1.338 55.664   
17.26 -20.445 114.613 -0.717 -158.079 -42.503 -18.384  
-0.740 -158.101 -19.111 143.323 -48.161 -10.724   
-42.541 -18.577 -48.116 -11.109 -1.340 53.787   
17.51 -20.416 112.288 -0.740 -160.484 -42.416 -20.468  
-0.758 -160.468 -19.065 142.030 -48.082 -15.086   
-42.447 -20.934 -48.075 -15.253 -1.337 51.948   
17.76 -20.465 110.765 -0.748 -162.686 -42.292 -23.564  
-0.759 -162.742 -19.090 139.740 -47.859 -19.727   
-42.325 -23.788 -47.854 -19.900 -1.337 50.186   
18.01 -20.358 109.030 -0.728 -165.136 -42.372 -26.458  
-0.734 -165.120 -18.942 137.497 -47.980 -24.650   
-42.376 -26.911 -47.935 -24.621 -1.339 48.297   
18.26 -20.474 106.927 -0.758 -167.459 -42.352 -28.344  
-0.766 -167.592 -18.911 135.760 -47.846 -28.458   
-42.437 -28.700 -47.873 -28.597 -1.343 46.433   
18.51 -20.585 106.279 -0.763 -169.623 -42.312 -30.830  
-0.784 -169.709 -18.991 134.703 -47.699 -34.026   
-42.388 -31.042 -47.707 -34.139 -1.344 44.606   
18.76 -20.572 104.238 -0.739 -171.998 -42.317 -33.375  
-0.740 -171.963 -19.045 133.730 -47.782 -38.678   
-42.365 -33.431 -47.880 -38.923 -1.345 42.756   
19.01 -20.849 101.863 -0.770 -174.488 -42.333 -35.857  
-0.782 -174.563 -19.068 131.523 -47.894 -42.999   
-42.403 -35.990 -47.920 -43.101 -1.356 41.042   
19.26 -20.971 101.410 -0.776 -176.551 -42.475 -38.466  
-0.793 -176.441 -19.052 130.528 -47.930 -47.950   
-42.497 -38.688 -47.959 -48.206 -1.366 39.176   
19.51 -21.273 99.008 -0.764 -178.863 -42.505 -40.026  
-0.759 -178.952 -19.243 128.554 -48.077 -51.630   
-42.538 -40.551 -48.114 -52.258 -1.384 37.434   
19.76 -21.634 98.722 -0.775 178.668 -42.532 -42.835  
-0.791 178.629 -19.262 127.043 -48.183 -57.281   
-42.578 -42.759 -48.259 -57.226 -1.393 35.691   
20.01 -21.596 95.093 -0.803 176.538 -42.560 -44.391  
-0.788 176.556 -19.348 125.748 -48.260 -62.292   
-42.596 -44.255 -48.285 -62.301 -1.394 33.989   
20.26 -22.086 93.449 -0.778 174.260 -42.589 -47.266  
-0.767 174.053 -19.513 123.621 -48.527 -69.003   
-42.611 -47.257 -48.619 -69.347 -1.398 32.218   
20.51 -22.237 94.999 -0.789 171.712 -42.619 -49.719  
-0.798 171.650 -19.569 120.787 -49.087 -72.659   
-42.669 -49.660 -49.101 -72.538 -1.400 30.414   
20.76 -22.283 91.697 -0.807 169.537 -42.666 -52.263  
-0.789 169.376 -19.681 118.878 -49.719 -76.476   
-42.737 -52.633 -49.756 -76.196 -1.420 28.714   
21.01 -22.728 92.672 -0.781 167.350 -42.914 -55.171  
-0.788 167.165 -19.735 117.194 -50.184 -74.445   
-42.943 -55.169 -50.228 -74.290 -1.428 26.927   
21.26 -22.486 92.842 -0.778 164.866 -43.357 -54.572  
-0.772 164.838 -19.847 115.536 -50.134 -74.785   
-43.351 -54.869 -50.105 -74.884 -1.435 25.186   
21.51 -23.093 89.222 -0.808 162.612 -43.166 -55.097  
-0.809 162.396 -19.933 112.885 -49.675 -78.840   
-43.169 -55.578 -49.629 -78.941 -1.452 23.421   
21.76 -23.487 91.065 -0.794 160.433 -43.019 -56.838  
-0.803 160.313 -20.151 111.109 -49.602 -83.834   
-43.093 -56.769 -49.685 -83.931 -1.465 21.583   
22.01 -23.304 88.866 -0.789 157.934 -42.873 -57.365  
-0.777 157.821 -20.323 109.029 -49.759 -88.062   
-42.871 -57.608 -49.785 -88.584 -1.474 19.657   
22.26 -24.814 86.459 -0.819 155.636 -42.478 -60.399  
-0.831 155.316 -20.588 106.821 -49.691 -93.331   
-42.540 -60.779 -49.764 -93.451 -1.485 17.739   
22.51 -24.882 89.406 -0.810 153.431 -42.568 -66.028  
-0.811 153.270 -20.877 105.625 -49.552 -99.689   
-42.593 -66.090 -49.636 -99.485 -1.487 15.808   
22.76 -25.162 83.943 -0.816 151.064 -42.898 -67.451  
-0.799 150.701 -21.103 103.856 -50.513 -106.547   
-42.929 -68.223 -50.487 -106.461 -1.496 13.766   
23.01 -26.092 86.097 -0.821 148.714 -42.719 -70.054  
-0.826 148.327 -21.529 102.353 -51.123 -109.224   
-42.801 -70.376 -51.083 -108.912 -1.509 11.819   
23.26 -26.559 88.513 -0.817 146.503 -43.048 -72.184  
-0.824 146.213 -21.676 100.309 -51.712 -107.674   
-43.104 -72.469 -51.777 -107.973 -1.514 9.725   
23.51 -27.183 84.782 -0.819 144.121 -42.991 -73.397  
-0.832 143.760 -21.852 98.079 -51.112 -104.272   
-43.059 -73.862 -51.225 -103.754 -1.522 7.831   
23.76 -27.748 91.737 -0.820 141.659 -43.062 -75.806  
-0.849 141.449 -22.160 95.480 -50.031 -111.280   
-43.140 -75.800 -50.043 -111.548 -1.519 5.893   
24.01 -27.567 91.275 -0.855 139.506 -43.197 -76.000  
-0.870 139.306 -22.272 93.986 -50.272 -117.422   
-43.231 -75.991 -50.252 -117.134 -1.527 4.008   
24.26 -30.411 87.212 -0.840 137.219 -42.659 -77.748  
-0.883 136.867 -22.442 91.807 -50.452 -119.923   
-42.729 -78.038 -50.429 -120.035 -1.536 2.216   
24.51 -30.177 98.675 -0.843 134.687 -42.778 -80.899  
-0.885 134.527 -22.586 89.995 -49.579 -124.443   
-42.839 -80.733 -49.672 -123.798 -1.537 0.478   
24.76 -30.054 95.368 -0.874 132.443 -42.576 -81.095  
-0.906 132.210 -22.772 87.805 -49.091 -132.070   
-42.627 -80.831 -49.122 -131.740 -1.543 -1.220   
25.01 -31.712 106.135 -0.853 130.148 -42.056 -84.611  
-0.902 129.944 -23.228 86.393 -49.126 -141.214   
-42.153 -84.211 -49.141 -140.854 -1.532 -2.829   
25.26 -30.697 104.263 -0.862 127.792 -41.902 -90.113  
-0.890 127.602 -23.480 85.456 -49.585 -146.934   
-41.947 -89.897 -49.541 -146.600 -1.531 -4.611   
25.51 -31.263 111.076 -0.889 125.583 -42.092 -95.455  
-0.918 125.413 -23.804 85.007 -50.602 -149.253   
-42.117 -95.420 -50.548 -148.550 -1.539 -6.320   
25.76 -30.001 122.326 -0.861 123.294 -42.250 -98.547  
-0.886 123.162 -24.236 86.780 -49.348 -146.485   
-42.324 -98.145 -49.207 -146.063 -1.532 -8.093   
26.01 -30.684 115.367 -0.864 120.995 -42.694 -100.038  
-0.887 120.711 -24.829 86.318 -48.266 -162.161   
-42.760 -100.323 -48.342 -161.724 -1.551 -9.782   
26.26 -31.792 123.031 -0.875 118.722 -42.266 -101.937  
-0.906 118.444 -25.373 84.916 -49.826 -173.537   
-42.329 -101.878 -49.933 -172.814 -1.557 -11.654   
26.51 -29.041 133.276 -0.847 116.334 -42.266 -107.726  
-0.868 116.211 -25.945 84.271 -51.065 -170.796   
-42.320 -107.210 -51.124 -170.707 -1.570 -13.386   
26.76 -31.272 145.294 -0.834 114.015 -42.904 -110.513  
-0.880 113.721 -26.984 83.369 -49.874 -167.626   
-42.982 -111.110 -50.058 -167.465 -1.571 -15.225   
27.01 -31.373 153.797 -0.860 111.601 -43.393 -112.201  
-0.914 111.430 -27.956 81.747 -49.090 -178.980   
-43.551 -111.587 -48.896 -179.734 -1.585 -16.990   
27.26 -30.010 150.828 -0.839 109.305 -43.292 -106.389  
-0.893 109.135 -28.959 79.697 -49.035 168.135   
-43.548 -105.767 -49.074 168.671 -1.603 -18.794   
27.51 -31.573 159.758 -0.819 107.165 -41.966 -111.064  
-0.895 106.832 -30.303 79.258 -51.268 159.726   
-42.101 -111.569 -51.576 161.965 -1.610 -20.625   
27.76 -29.767 170.790 -0.827 104.650 -43.192 -115.626  
-0.905 104.567 -31.037 79.022 -50.708 -173.633   
-43.273 -114.930 -50.434 -173.589 -1.595 -22.335   
28.01 -29.082 159.835 -0.824 102.307 -42.368 -114.249  
-0.885 102.142 -32.167 75.511 -48.080 166.327   
-42.412 -113.824 -48.277 166.790 -1.603 -24.214   
28.26 -27.399 159.632 -0.830 99.998 -42.438 -117.473  
-0.874 99.882 -33.517 79.298 -49.176 159.713   
-42.510 -117.403 -49.271 159.621 -1.625 -26.194   
28.51 -25.028 163.983 -0.859 97.315 -41.989 -118.435  
-0.893 97.589 -35.379 73.652 -48.447 154.541   
-42.143 -119.440 -48.673 155.946 -1.647 -28.095   
28.76 -24.719 158.520 -0.855 94.981 -41.663 -122.586  
-0.877 95.239 -36.612 71.918 -49.095 142.840   
-41.630 -122.592 -49.072 142.395 -1.664 -30.000   
29.01 -23.761 156.759 -0.852 92.447 -41.914 -127.587  
-0.866 92.815 -37.904 93.798 -50.583 143.655   
-41.704 -126.216 -50.551 142.854 -1.693 -32.007   
29.26 -22.443 157.559 -0.884 89.680 -41.721 -128.786  
-0.869 90.330 -40.299 110.936 -49.875 145.018   
-41.591 -127.071 -49.520 143.935 -1.703 -33.960   
29.51 -22.984 157.146 -0.859 87.514 -41.164 -132.870  
-0.867 87.925 -40.305 113.499 -48.873 138.101   
-41.226 -131.848 -48.711 139.819 -1.715 -36.068   
29.76 -23.450 153.744 -0.873 85.548 -41.368 -136.621  
-0.879 85.678 -38.412 130.902 -49.190 137.957   
-41.487 -136.012 -49.270 139.080 -1.706 -38.105   
30.01 -22.723 142.855 -0.898 82.910 -41.479 -138.832  
-0.866 83.091 -38.538 143.531 -48.199 130.366   
-41.456 -138.012 -47.889 131.011 -1.705 -40.180   
30.26 -23.774 147.730 -0.898 80.753 -41.507 -140.161  
-0.895 80.811 -36.393 148.079 -48.785 122.193   
-41.553 -139.153 -48.742 121.860 -1.702 -42.469   
30.51 -23.697 141.343 -0.922 78.594 -41.283 -142.441  
-0.911 78.519 -35.400 150.711 -48.886 116.487   
-41.287 -140.422 -48.842 118.574 -1.696 -44.652   
30.76 -23.227 131.359 -0.948 76.090 -40.907 -144.007  
-0.910 75.955 -34.862 150.647 -49.406 106.771   
