!Analog Devices Inc..
!22.5deg MMIC 4-BIT DIGITAL PHASE SHIFTER, 8 - 12 GHz
! 
!Filename: HMC543ALC4B_sparm_25C_1_0.s2p
! 	   :25C = 25degC
! 	   :_1_ = Sn1
! 	   :_0  = 0 state 
!Device type: 
!2 Port Calibration to sma connectors
!Phase Shifter:   0.000
!
!	High Control	Low Control	
!	 Volts		 Volts			
!	0.00		 -3.00			
!
!Freq	S11	S11	S21	S21	S12	S12	S22	S22		
! GHz	Mag dB	Degrees	Mag dB	Degrees	Mag dB	Degrees	Mag dB	Degrees
# GHZ S DB R 50.0		
5	-9.91	-19.89	-6.69	118.63	-6.68	118.53	-15.08	11.3
5.05	-10.17	-25.19	-6.64	111.79	-6.64	111.68	-14.9	2.05
5.1	-10.11	-29.97	-6.61	105.04	-6.61	104.92	-14.61	-6.77
5.15	-10.39	-34.41	-6.57	98.27	-6.56	98.14	-14.44	-15.71
5.2	-10.38	-39.96	-6.55	91.54	-6.54	91.42	-14.22	-24.05
5.25	-10.59	-43.55	-6.5	84.8	-6.5	84.68	-14.02	-32.64
5.3	-10.71	-49.54	-6.48	78.05	-6.47	77.91	-13.87	-40.67
5.35	-10.77	-52.78	-6.45	71.46	-6.44	71.32	-13.68	-48.89
5.4	-11.05	-58.6	-6.42	64.71	-6.42	64.56	-13.61	-56.71
5.45	-11	-62.54	-6.39	58.13	-6.39	57.99	-13.46	-64.55
5.5	-11.36	-67.36	-6.36	51.41	-6.36	51.27	-13.44	-72.25
5.55	-11.3	-72.33	-6.35	44.78	-6.34	44.65	-13.35	-79.89
5.6	-11.62	-75.93	-6.31	38.17	-6.31	38.04	-13.33	-87.59
5.65	-11.65	-82.06	-6.3	31.53	-6.29	31.4	-13.32	-95.17
5.7	-11.84	-84.98	-6.27	24.98	-6.27	24.84	-13.31	-102.99
5.75	-12.05	-91.41	-6.25	18.33	-6.25	18.19	-13.36	-110.67
5.8	-12.05	-94.46	-6.24	11.8	-6.24	11.67	-13.34	-118.54
5.85	-12.43	-100.24	-6.22	5.17	-6.22	5.04	-13.41	-126.33
5.9	-12.31	-104.2	-6.22	-1.29	-6.22	-1.41	-13.36	-134.23
5.95	-12.76	-108.53	-6.2	-7.83	-6.2	-7.95	-13.44	-142.24
6	-12.62	-114	-6.2	-14.31	-6.2	-14.42	-13.4	-150.02
6.05	-12.95	-116.94	-6.18	-20.79	-6.19	-20.9	-13.46	-157.96
6.1	-12.96	-123.57	-6.19	-27.27	-6.19	-27.37	-13.44	-165.49
6.15	-13.05	-125.91	-6.18	-33.69	-6.18	-33.78	-13.45	-173.21
6.2	-13.29	-132.65	-6.18	-40.17	-6.18	-40.28	-13.47	179.31
6.25	-13.14	-135.62	-6.18	-46.52	-6.18	-46.62	-13.45	171.98
6.3	-13.55	-141.27	-6.18	-52.97	-6.18	-53.08	-13.52	164.51
6.35	-13.29	-145.82	-6.19	-59.31	-6.19	-59.41	-13.5	157.52
6.4	-13.69	-149.84	-6.19	-65.71	-6.2	-65.8	-13.6	150.07
6.45	-13.49	-156.02	-6.21	-72.04	-6.21	-72.12	-13.58	143.31
6.5	-13.74	-158.94	-6.22	-78.38	-6.22	-78.46	-13.69	135.96
6.55	-13.74	-166	-6.23	-84.7	-6.23	-84.78	-13.71	129.15
6.6	-13.74	-168.71	-6.24	-91.01	-6.24	-91.09	-13.84	121.93
6.65	-13.98	-175.72	-6.26	-97.45	-6.26	-97.53	-13.96	115.24
6.7	-13.78	-179.31	-6.29	-103.79	-6.29	-103.87	-14.12	108.85
6.75	-14.19	174.93	-6.33	-110.24	-6.33	-110.31	-14.34	102.88
6.8	-13.96	169.76	-6.39	-116.59	-6.39	-116.65	-14.49	98.22
6.85	-14.43	165.8	-6.47	-122.97	-6.47	-123.03	-14.68	93.88
6.9	-14.4	159.52	-6.58	-129.27	-6.58	-129.33	-14.68	91.53
6.95	-14.84	158.01	-6.73	-135.43	-6.72	-135.48	-14.51	89.61
7	-15.09	154.27	-6.93	-141.17	-6.93	-141.23	-13.86	87.56
7.05	-14.62	156.81	-7.14	-146.13	-7.14	-146.2	-13.18	83.31
7.1	-14	152.53	-7.22	-149.99	-7.22	-150.06	-12.35	77.3
7.15	-13.06	146.54	-7.09	-154.45	-7.09	-154.5	-11.86	69.04
7.2	-12.9	139.84	-6.97	-159.67	-6.97	-159.72	-11.6	61.47
7.25	-12.38	132.05	-6.84	-165.28	-6.83	-165.33	-11.47	53.83
7.3	-12.37	126.13	-6.73	-171.23	-6.73	-171.27	-11.49	46.86
7.35	-12.13	118.12	-6.68	-177.28	-6.68	-177.31	-11.51	40.66
7.4	-12.05	113.44	-6.63	176.76	-6.63	176.73	-11.57	34.62
7.45	-12	105.75	-6.61	170.71	-6.6	170.66	-11.63	29.16
7.5	-11.77	101.17	-6.59	164.8	-6.59	164.75	-11.66	23.47
7.55	-11.86	94.38	-6.58	158.82	-6.58	158.76	-11.73	18.38
7.6	-11.52	89.14	-6.58	152.94	-6.58	152.9	-11.74	12.91
7.65	-11.65	83.69	-6.57	147.02	-6.57	146.98	-11.82	7.93
7.7	-11.33	77.39	-6.59	141.17	-6.58	141.14	-11.85	2.79
7.75	-11.38	73.15	-6.59	135.33	-6.58	135.31	-11.92	-2.05
7.8	-11.2	66.22	-6.61	129.51	-6.61	129.47	-11.96	-6.8
7.85	-11.08	62.58	-6.62	123.77	-6.61	123.73	-12.01	-11.51
7.9	-11.07	55.72	-6.64	117.98	-6.64	117.94	-12.09	-16
7.95	-10.82	51.69	-6.67	112.35	-6.66	112.33	-12.15	-20.69
8	-10.95	45.85	-6.68	106.69	-6.68	106.67	-12.33	-24.69
8.05	-10.61	40.98	-6.7	101.11	-6.69	101.09	-12.38	-28.64
8.1	-10.78	36.18	-6.7	95.51	-6.69	95.47	-12.47	-32.3
8.15	-10.52	30.23	-6.72	89.91	-6.71	89.89	-12.48	-36.58
8.200001	-10.59	26.75	-6.73	84.38	-6.72	84.35	-12.57	-40.86
8.25	-10.47	20.16	-6.73	78.88	-6.73	78.84	-12.65	-45.75
8.3	-10.39	16.83	-6.73	73.38	-6.72	73.36	-12.83	-50.56
8.35	-10.46	10.31	-6.73	67.82	-6.72	67.8	-13.07	-55.32
8.400001	-10.27	6.53	-6.73	62.37	-6.72	62.34	-13.3	-59.9
8.45	-10.51	0.85	-6.71	56.83	-6.7	56.8	-13.61	-64.3
8.5	-10.3	-3.93	-6.7	51.38	-6.69	51.34	-13.81	-68.67
8.55	-10.59	-8.28	-6.67	45.79	-6.66	45.76	-14.12	-72.97
8.600001	-10.47	-13.9	-6.67	40.18	-6.66	40.15	-14.29	-77.61
8.65	-10.69	-17.08	-6.65	34.58	-6.63	34.55	-14.64	-81.98
8.7	-10.72	-23.27	-6.64	28.98	-6.63	28.95	-14.86	-86.36
8.75	-10.79	-26	-6.63	23.41	-6.62	23.37	-15.18	-90.66
8.8	-11.04	-31.91	-6.63	17.73	-6.61	17.69	-15.46	-95
8.85	-10.99	-34.91	-6.63	12.19	-6.62	12.15	-15.76	-99.49
8.900001	-11.37	-39.42	-6.63	6.65	-6.62	6.61	-16.17	-103.94
8.950001	-11.25	-43.31	-6.63	1.17	-6.62	1.14	-16.56	-108.6
9.000001	-11.57	-46.44	-6.61	-4.33	-6.59	-4.36	-17.13	-112.95
9.05	-11.52	-51.52	-6.59	-9.88	-6.58	-9.9	-17.67	-117.37
9.1	-11.74	-54.06	-6.56	-15.49	-6.55	-15.53	-18.4	-121.25
9.15	-11.89	-59.55	-6.56	-21.15	-6.54	-21.21	-19.07	-125.09
9.2	-11.98	-61.8	-6.55	-26.75	-6.54	-26.81	-19.9	-129.22
9.25	-12.33	-66.75	-6.54	-32.44	-6.52	-32.5	-20.77	-132.48
9.300001	-12.32	-69.59	-6.54	-38.03	-6.52	-38.09	-21.78	-136.96
9.350001	-12.76	-73.16	-6.53	-43.71	-6.52	-43.78	-22.87	-139.69
9.400001	-12.77	-76.93	-6.54	-49.35	-6.53	-49.42	-24.12	-144.21
9.45	-13.18	-78.99	-6.54	-54.99	-6.53	-55.07	-25.52	-146.77
9.5	-13.33	-83.34	-6.55	-60.65	-6.54	-60.72	-27.2	-150.36
9.55	-13.57	-84.35	-6.57	-66.21	-6.56	-66.28	-29.14	-153.59
9.6	-13.89	-88.26	-6.58	-71.77	-6.57	-71.83	-31.69	-154.61
9.65	-13.9	-89.63	-6.58	-77.24	-6.57	-77.31	-35.91	-154.93
9.700001	-14.35	-92.67	-6.57	-82.88	-6.55	-82.97	-40.21	-124.97
9.750001	-14.31	-95.28	-6.58	-88.49	-6.56	-88.57	-42.2	-68.88
9.800001	-14.77	-96.4	-6.57	-94.18	-6.56	-94.27	-36.28	-52.36
9.85	-14.89	-100.05	-6.6	-99.85	-6.58	-99.93	-33.25	-40.6
9.9	-15.13	-99.71	-6.62	-105.43	-6.6	-105.5	-30.8	-42.42
9.95	-15.46	-103.24	-6.63	-110.96	-6.62	-111.04	-28.59	-41.09
10	-15.42	-103.2	-6.63	-116.47	-6.62	-116.57	-26.92	-44.37
10.050001	-15.96	-105.12	-6.63	-122.16	-6.62	-122.25	-25.38	-48.68
10.100001	-15.8	-106.56	-6.65	-127.82	-6.63	-127.91	-24.37	-52.18
10.150001	-16.27	-105.92	-6.67	-133.5	-6.66	-133.59	-23.42	-57.4
10.200001	-16.19	-108.88	-6.71	-139.05	-6.7	-139.14	-22.78	-59.01
10.25	-16.3	-107	-6.73	-144.51	-6.71	-144.61	-21.89	-63.41
10.3	-16.52	-110.48	-6.74	-150.09	-6.72	-150.2	-21.2	-66.4
10.35	-16.28	-109.13	-6.75	-155.65	-6.73	-155.78	-20.57	-72.11
10.4	-16.73	-111.04	-6.76	-161.31	-6.75	-161.43	-20.14	-76.15
10.450001	-16.31	-111.9	-6.78	-166.9	-6.77	-167.03	-19.79	-81.71
10.500001	-16.73	-111.26	-6.8	-172.54	-6.79	-172.68	-19.52	-86.4
10.550001	-16.44	-114.45	-6.83	-178.16	-6.81	-178.3	-19.37	-91.48
10.600001	-16.51	-112.15	-6.85	176.22	-6.83	176.08	-19.19	-96.92
10.65	-16.53	-116.02	-6.88	170.56	-6.86	170.41	-19.22	-101.81
10.7	-16.19	-114.29	-6.91	164.98	-6.89	164.83	-19.13	-107.26
10.75	-16.5	-117.16	-6.93	159.34	-6.92	159.18	-19.2	-111.34
10.8	-15.92	-117.63	-6.96	153.75	-6.95	153.61	-19.07	-117.08
10.850001	-16.26	-118.16	-6.99	148.1	-6.98	147.94	-19.16	-121.81
10.900001	-15.74	-121.28	-7.02	142.47	-7.01	142.31	-19.11	-127.83
10.950001	-15.82	-120.13	-7.05	136.84	-7.04	136.69	-19.25	-132.94
11.000001	-15.61	-124.62	-7.09	131.16	-7.08	131.01	-19.35	-138.82
11.05	-15.33	-123.55	-7.13	125.56	-7.11	125.4	-19.52	-144.22
11.1	-15.41	-127.52	-7.16	119.83	-7.15	119.68	-19.75	-149.89
11.15	-14.9	-128.18	-7.2	114.21	-7.19	114.04	-19.98	-155.31
11.2	-15.1	-130.48	-7.24	108.47	-7.23	108.3	-20.39	-161
11.250001	-14.58	-133.21	-7.29	102.78	-7.28	102.6	-20.66	-166.59
11.300001	-14.67	-133.94	-7.34	97.05	-7.33	96.86	-21.26	-172.56
11.350001	-14.35	-137.99	-7.39	91.25	-7.39	91.07	-21.63	-178.25
11.400001	-14.21	-138.17	-7.46	85.52	-7.45	85.35	-22.43	175.43
11.45	-14.09	-142.23	-7.53	79.67	-7.52	79.5	-22.89	168.95
11.5	-13.75	-142.83	-7.63	73.92	-7.62	73.73	-23.84	161.8
11.55	-13.74	-145.51	-7.75	68.13	-7.74	67.95	-24.5	153.47
11.600001	-13.16	-147.08	-7.91	62.78	-7.9	62.59	-25.57	144.34
11.650001	-12.89	-149.38	-8.03	57.85	-8.02	57.65	-26.42	132.74
11.700001	-12.34	-154.47	-8.07	53.02	-8.06	52.83	-27.18	119.94
11.750001	-12.18	-157.66	-8.05	47.79	-8.04	47.6	-27.98	99.73
11.800001	-12	-162.87	-8.06	42.21	-8.05	42.01	-28.51	83
11.85	-11.76	-165.81	-8.08	36.67	-8.07	36.49	-28.33	59.69
11.9	-11.73	-170.51	-8.11	30.94	-8.1	30.76	-27.81	43.24
11.95	-11.45	-174.18	-8.15	25.32	-8.14	25.14	-26.72	24.4
12.000001	-11.48	-178.17	-8.18	19.64	-8.17	19.45	-25.54	12.04
12.050001	-11.28	177.33	-8.23	13.87	-8.22	13.68	-24.26	-1.56
12.100001	-11.26	174.22	-8.28	8.07	-8.27	7.89	-23.11	-11.44
12.150001	-11.16	169.36	-8.35	2.2	-8.34	2.02	-22.08	-21.52
12.200001	-11.01	166.32	-8.42	-3.58	-8.41	-3.75	-21.03	-29.61
12.25	-11.01	161.49	-8.51	-9.43	-8.5	-9.61	-20.22	-37.53
12.3	-10.75	157.73	-8.6	-15.09	-8.59	-15.28	-19.3	-44.1
12.35	-10.81	153.13	-8.68	-20.8	-8.67	-20.99	-18.62	-50.51
12.400001	-10.58	147.95	-8.76	-26.49	-8.75	-26.66	-17.78	-56.28
12.450001	-10.66	144.1	-8.84	-32.27	-8.83	-32.46	-17.22	-61.93
12.500001	-10.55	138.16	-8.95	-38.06	-8.94	-38.23	-16.52	-66.54
12.550001	-10.49	134.59	-9.03	-43.7	-9.02	-43.9	-15.91	-71.05
12.600001	-10.54	128.19	-9.12	-49.46	-9.12	-49.65	-15.17	-75.94
12.65	-10.39	123.98	-9.21	-55.2	-9.2	-55.4	-14.6	-80.92
12.7	-10.58	118.02	-9.3	-61.12	-9.29	-61.3	-14.03	-86.18
12.75	-10.36	112.91	-9.41	-66.95	-9.41	-67.12	-13.57	-90.92
12.800001	-10.57	107.54	-9.52	-72.8	-9.51	-72.97	-13.12	-96
12.850001	-10.38	100.97	-9.64	-78.66	-9.63	-78.83	-12.7	-100.5
12.900001	-10.56	96.31	-9.76	-84.56	-9.75	-84.73	-12.36	-105.55
12.950001	-10.48	88.66	-9.89	-90.39	-9.89	-90.55	-11.99	-109.81
13.000001	-10.54	84.15	-10.01	-96.21	-10	-96.38	-11.69	-114.56
13.05	-10.66	76.07	-10.13	-102.22	-10.13	-102.37	-11.34	-118.8
13.1	-10.56	71.33	-10.27	-108.24	-10.27	-108.39	-11.07	-123.52
13.150001	-10.81	63.75	-10.43	-114.35	-10.43	-114.48	-10.74	-127.87
13.200001	-10.55	57.95	-10.62	-120.22	-10.61	-120.38	-10.5	-132.37
13.250001	-10.83	50.98	-10.78	-126.16	-10.77	-126.31	-10.21	-136.93
13.300001	-10.59	43.57	-10.95	-132.12	-10.95	-132.28	-10	-141.39
13.350001	-10.83	37.6	-11.12	-138.23	-11.12	-138.38	-9.76	-146.14
13.400001	-10.67	29.29	-11.33	-144.43	-11.33	-144.56	-9.61	-150.49
13.45	-10.77	23.75	-11.57	-150.58	-11.56	-150.73	-9.47	-155.16
13.5	-10.74	15.08	-11.84	-156.61	-11.84	-156.74	-9.38	-158.82
13.550001	-10.66	9.65	-12.11	-162.25	-12.11	-162.4	-9.25	-162.58
13.600001	-10.73	0.93	-12.34	-167.97	-12.34	-168.11	-9.03	-165.88
13.650001	-10.55	-5.17	-12.57	-173.76	-12.57	-173.9	-8.82	-169.98
13.700001	-10.75	-12.93	-12.8	-179.8	-12.79	-179.91	-8.58	-174
13.750001	-10.51	-19.8	-13.06	174.13	-13.05	174	-8.43	-178.32
13.800001	-10.7	-26.37	-13.34	167.89	-13.33	167.77	-8.24	177.36
13.85	-10.54	-33.86	-13.66	161.65	-13.66	161.52	-8.13	173.06
13.9	-10.64	-39.17	-14.01	155.51	-14.01	155.38	-7.98	168.57
13.950001	-10.58	-46.5	-14.39	149.29	-14.39	149.16	-7.9	164.31
14.000001	-10.51	-51.41	-14.8	143.21	-14.8	143.09	-7.79	159.76
14.050001	-10.58	-57.94	-15.27	137.03	-15.26	136.93	-7.71	155.56
14.100001	-10.36	-62.48	-15.78	131.26	-15.77	131.15	-7.63	150.94
14.150001	-10.31	-67.7	-16.28	125.56	-16.28	125.44	-7.56	146.59
14.200001	-10.04	-73.43	-16.83	119.84	-16.82	119.69	-7.5	141.88
14.25	-9.97	-77.76	-17.42	114.24	-17.42	114.11	-7.43	137.42
14.3	-9.72	-83.22	-18.08	108.82	-18.07	108.71	-7.41	132.61
14.350001	-9.4	-87.14	-18.78	103.59	-18.77	103.5	-7.37	127.98
14.400001	-9.17	-92.88	-19.57	98.46	-19.56	98.34	-7.4	123.14
14.450001	-8.72	-97.51	-20.49	94.07	-20.48	93.95	-7.38	118.56
14.500001	-8.54	-103.12	-21.48	90.73	-21.47	90.56	-7.41	113.81
14.550001	-8.1	-108.82	-22.47	88.51	-22.46	88.36	-7.38	108.94
14.600001	-7.93	-113.82	-23.44	87.23	-23.43	87.06	-7.43	103.99
14.65	-7.59	-120.3	-24.42	86.92	-24.4	86.74	-7.42	98.66
14.700001	-7.38	-124.86	-25.34	87.98	-25.33	87.81	-7.51	93.44
14.750001	-7.2	-131.62	-26.15	90.41	-26.14	90.25	-7.57	87.67
14.800001	-6.93	-136.17	-26.75	94.21	-26.74	94.01	-7.68	82.3
14.850001	-6.9	-142.65	-27.11	98.67	-27.1	98.48	-7.8	76.2
14.900001	-6.61	-147.77	-27.16	103.43	-27.16	103.24	-7.93	70.55
14.950001	-6.7	-153.32	-26.93	107.67	-26.93	107.47	-8.12	64.04
15.000001	-6.48	-159.08	-26.5	111.19	-26.51	110.98	-8.27	57.98
