!s2p File: Measurements: S11, S21, S12, S22								
# GHz S dB R 50.0								
0.01	-25.24	-0.19	-24.05	-0.28	-24.05	-0.46	-20.59	-1.66
0.11	-25.42	-1.53	-24.19	-1.29	-24.19	-1.27	-21.22	-2.78
0.21	-25.48	-1.89	-24.23	-1.88	-24.22	-1.86	-21.36	-2.65
0.31	-25.49	-2.39	-24.23	-2.51	-24.23	-2.48	-21.41	-2.78
0.41	-25.5	-2.9	-24.24	-3.16	-24.24	-3.15	-21.43	-3.01
0.51	-25.49	-3.46	-24.25	-3.83	-24.25	-3.84	-21.45	-3.36
0.61	-25.49	-3.99	-24.25	-4.51	-24.25	-4.52	-21.46	-3.71
0.71	-25.48	-4.58	-24.26	-5.19	-24.25	-5.22	-21.46	-4.06
0.81	-25.49	-5.17	-24.26	-5.92	-24.26	-5.93	-21.47	-4.51
0.91	-25.5	-5.79	-24.27	-6.61	-24.26	-6.6	-21.48	-4.93
1.01	-25.5	-6.39	-24.27	-7.31	-24.26	-7.31	-21.48	-5.33
1.11	-25.51	-7.01	-24.27	-7.99	-24.27	-7.99	-21.47	-5.78
1.21	-25.52	-7.66	-24.28	-8.7	-24.27	-8.7	-21.48	-6.2
1.31	-25.53	-8.4	-24.28	-9.42	-24.28	-9.42	-21.48	-6.73
1.41	-25.55	-9.19	-24.29	-10.11	-24.29	-10.12	-21.48	-7.24
1.51	-25.57	-9.89	-24.3	-10.84	-24.29	-10.81	-21.49	-7.63
1.61	-25.56	-10.53	-24.3	-11.55	-24.3	-11.54	-21.48	-8.03
1.71	-25.55	-11.3	-24.31	-12.23	-24.31	-12.21	-21.48	-8.58
1.81	-25.55	-12.26	-24.31	-12.93	-24.31	-12.91	-21.47	-9.16
1.91	-25.56	-13.07	-24.32	-13.64	-24.32	-13.62	-21.48	-9.7
2.01	-25.58	-13.82	-24.33	-14.36	-24.32	-14.33	-21.49	-10.19
2.11	-25.59	-14.53	-24.34	-15.03	-24.33	-14.99	-21.5	-10.69
2.21	-25.6	-15.31	-24.34	-15.71	-24.34	-15.72	-21.5	-11.16
2.31	-25.62	-16.1	-24.35	-16.44	-24.34	-16.41	-21.5	-11.61
2.41	-25.63	-16.89	-24.36	-17.15	-24.36	-17.11	-21.5	-12.13
2.51	-25.66	-17.54	-24.37	-17.8	-24.36	-17.8	-21.51	-12.61
2.61	-25.7	-18.24	-24.38	-18.51	-24.37	-18.48	-21.53	-13.08
2.71	-25.73	-18.81	-24.38	-19.2	-24.38	-19.17	-21.53	-13.54
2.81	-25.76	-19.39	-24.4	-19.88	-24.39	-19.87	-21.54	-13.99
2.91	-25.78	-20.01	-24.4	-20.57	-24.4	-20.54	-21.55	-14.4
3.01	-25.8	-20.76	-24.42	-21.27	-24.41	-21.25	-21.55	-14.83
3.11	-25.83	-21.51	-24.42	-21.94	-24.42	-21.95	-21.56	-15.3
3.21	-25.88	-22.27	-24.43	-22.61	-24.43	-22.63	-21.56	-15.76
3.31	-25.92	-23.07	-24.44	-23.33	-24.44	-23.32	-21.58	-16.2
3.41	-25.97	-23.73	-24.45	-24.02	-24.45	-23.98	-21.59	-16.62
3.51	-25.99	-24.44	-24.46	-24.68	-24.46	-24.68	-21.59	-17
3.61	-26.03	-25.23	-24.48	-25.36	-24.47	-25.38	-21.6	-17.48
3.71	-26.07	-26.09	-24.49	-26.09	-24.49	-26.06	-21.6	-17.92
3.81	-26.13	-27.04	-24.5	-26.73	-24.49	-26.74	-21.61	-18.43
3.91	-26.19	-27.81	-24.51	-27.42	-24.51	-27.42	-21.63	-18.93
4.01	-26.25	-28.46	-24.53	-28.11	-24.52	-28.09	-21.65	-19.32
4.11	-26.27	-29.19	-24.53	-28.8	-24.53	-28.77	-21.66	-19.7
4.21	-26.3	-29.96	-24.54	-29.49	-24.55	-29.45	-21.65	-20.01
4.31	-26.35	-31.08	-24.56	-30.13	-24.56	-30.11	-21.64	-20.52
4.41	-26.42	-32.07	-24.57	-30.83	-24.57	-30.8	-21.64	-21.02
4.51	-26.5	-32.91	-24.59	-31.47	-24.59	-31.46	-21.66	-21.56
4.61	-26.57	-33.51	-24.6	-32.13	-24.59	-32.15	-21.67	-21.99
4.71	-26.59	-34.05	-24.61	-32.85	-24.61	-32.82	-21.7	-22.35
4.81	-26.6	-34.81	-24.63	-33.53	-24.63	-33.5	-21.7	-22.66
4.91	-26.61	-35.78	-24.64	-34.2	-24.64	-34.16	-21.7	-22.96
5.01	-26.65	-36.78	-24.65	-34.83	-24.66	-34.83	-21.69	-23.34
5.11	-26.73	-37.76	-24.67	-35.5	-24.67	-35.49	-21.68	-23.82
5.21	-26.83	-38.55	-24.69	-36.18	-24.69	-36.15	-21.69	-24.26
5.31	-26.91	-39.17	-24.71	-36.83	-24.71	-36.81	-21.7	-24.72
5.41	-26.99	-39.66	-24.72	-37.5	-24.72	-37.5	-21.73	-25.08
5.51	-27.04	-40.26	-24.74	-38.18	-24.73	-38.16	-21.75	-25.32
5.61	-27.1	-41.12	-24.76	-38.85	-24.75	-38.84	-21.75	-25.55
5.71	-27.17	-42.1	-24.77	-39.5	-24.77	-39.51	-21.74	-25.86
5.81	-27.28	-43.15	-24.78	-40.16	-24.79	-40.11	-21.72	-26.24
5.91	-27.4	-44.09	-24.81	-40.83	-24.81	-40.78	-21.71	-26.73
6.01	-27.51	-44.86	-24.82	-41.48	-24.82	-41.43	-21.72	-27.2
6.11	-27.6	-45.55	-24.85	-42.15	-24.85	-42.14	-21.72	-27.59
6.21	-27.67	-46.25	-24.87	-42.76	-24.87	-42.79	-21.73	-27.87
6.31	-27.72	-47.08	-24.89	-43.42	-24.89	-43.41	-21.72	-28.13
6.41	-27.78	-48.1	-24.91	-44.04	-24.91	-44.06	-21.72	-28.42
6.51	-27.85	-49.19	-24.94	-44.67	-24.93	-44.65	-21.7	-28.75
6.61	-27.97	-50.25	-24.95	-45.33	-24.95	-45.26	-21.69	-29.17
6.71	-28.07	-51.29	-24.98	-45.95	-24.98	-45.92	-21.69	-29.56
6.81	-28.17	-52.11	-25	-46.58	-24.99	-46.53	-21.7	-29.98
6.91	-28.25	-53	-25.02	-47.19	-25.02	-47.14	-21.71	-30.38
7.01	-28.3	-53.85	-25.04	-47.82	-25.04	-47.77	-21.7	-30.64
7.11	-28.37	-54.86	-25.06	-48.4	-25.06	-48.37	-21.69	-30.95
7.21	-28.46	-55.95	-25.08	-49.03	-25.08	-49.01	-21.67	-31.22
7.31	-28.56	-56.86	-25.11	-49.74	-25.1	-49.71	-21.63	-31.68
7.41	-28.65	-57.7	-25.16	-50.35	-25.14	-50.37	-21.6	-32.17
7.51	-28.72	-58.62	-25.18	-50.88	-25.18	-50.86	-21.59	-32.67
7.61	-28.82	-59.42	-25.2	-51.5	-25.2	-51.42	-21.6	-33.06
7.71	-28.89	-60.23	-25.23	-52.03	-25.22	-52	-21.6	-33.42
7.81	-28.98	-61.15	-25.25	-52.55	-25.25	-52.56	-21.59	-33.76
7.91	-29.11	-61.93	-25.28	-53.18	-25.28	-53.15	-21.57	-34.08
8.01	-29.24	-63.09	-25.31	-53.72	-25.31	-53.7	-21.55	-34.53
8.11	-29.39	-64.15	-25.34	-54.22	-25.34	-54.16	-21.55	-35.07
8.21	-29.54	-65.25	-25.37	-54.78	-25.36	-54.76	-21.54	-35.6
8.31	-29.69	-66.18	-25.39	-55.34	-25.39	-55.27	-21.54	-36.11
8.41	-29.78	-67.29	-25.42	-55.81	-25.42	-55.8	-21.54	-36.56
8.51	-29.89	-68.57	-25.45	-56.3	-25.46	-56.25	-21.54	-37.02
8.61	-29.95	-69.96	-25.48	-56.73	-25.48	-56.67	-21.53	-37.46
8.71	-30.04	-71.56	-25.5	-57.22	-25.5	-57.11	-21.53	-37.89
8.81	-30.15	-73.08	-25.53	-57.66	-25.52	-57.57	-21.52	-38.37
8.91	-30.28	-74.65	-25.54	-58.11	-25.54	-58.08	-21.52	-38.92
9.01	-30.42	-76.01	-25.56	-58.58	-25.56	-58.51	-21.53	-39.45
9.11	-30.56	-77.46	-25.58	-58.99	-25.59	-58.88	-21.54	-39.89
9.21	-30.69	-78.75	-25.6	-59.38	-25.6	-59.33	-21.56	-40.35
9.31	-30.78	-80.06	-25.61	-59.8	-25.61	-59.73	-21.57	-40.8
9.41	-30.87	-81.57	-25.62	-60.2	-25.62	-60.17	-21.58	-41.24
9.51	-30.92	-83.09	-25.64	-60.61	-25.63	-60.6	-21.6	-41.63
9.61	-31.06	-84.83	-25.64	-61.05	-25.64	-60.95	-21.6	-41.97
9.71	-31.17	-86.6	-25.65	-61.4	-25.65	-61.41	-21.61	-42.33
9.81	-31.29	-88.08	-25.65	-61.83	-25.65	-61.81	-21.63	-42.7
9.91	-31.4	-89.14	-25.65	-62.32	-25.64	-62.29	-21.65	-43.07
10.01	-31.49	-90.62	-25.66	-62.75	-25.65	-62.66	-21.66	-43.45
10.11	-31.57	-91.83	-25.66	-63.15	-25.65	-63.12	-21.69	-43.74
10.21	-31.69	-93.45	-25.66	-63.52	-25.65	-63.49	-21.72	-44.03
10.31	-31.81	-95.18	-25.64	-63.96	-25.64	-63.94	-21.73	-44.26
10.41	-31.92	-96.97	-25.64	-64.47	-25.64	-64.37	-21.75	-44.39
10.51	-32.12	-98.9	-25.65	-64.86	-25.63	-64.82	-21.74	-44.59
10.61	-32.27	-101.16	-25.63	-65.36	-25.62	-65.33	-21.75	-44.83
10.71	-32.47	-102.98	-25.62	-65.92	-25.61	-65.8	-21.76	-45.14
10.81	-32.61	-104.92	-25.61	-66.41	-25.6	-66.29	-21.78	-45.35
10.91	-32.73	-107.22	-25.6	-66.9	-25.6	-66.83	-21.8	-45.57
11.01	-32.86	-109.47	-25.59	-67.37	-25.6	-67.26	-21.83	-45.62
11.11	-32.94	-111.53	-25.58	-67.86	-25.59	-67.84	-21.82	-45.74
11.21	-33.05	-113.74	-25.59	-68.41	-25.58	-68.42	-21.82	-45.92
11.31	-33.15	-115.54	-25.59	-68.91	-25.57	-68.88	-21.79	-46.07
11.41	-33.23	-117.86	-25.58	-69.44	-25.56	-69.34	-21.77	-46.42
11.51	-33.3	-119.54	-25.57	-69.92	-25.56	-69.88	-21.78	-46.62
11.61	-33.35	-121.55	-25.55	-70.45	-25.54	-70.33	-21.78	-46.89
11.71	-33.34	-123.87	-25.55	-70.93	-25.55	-70.91	-21.79	-47.21
11.81	-33.39	-126.76	-25.53	-71.41	-25.53	-71.37	-21.8	-47.23
11.91	-33.52	-129.25	-25.52	-71.99	-25.52	-71.94	-21.77	-47.15
12.01	-33.51	-131.36	-25.53	-72.49	-25.52	-72.57	-21.73	-47.46
12.11	-33.46	-133.2	-25.53	-73.18	-25.52	-73.14	-21.72	-47.67
12.21	-33.46	-135.34	-25.54	-73.51	-25.52	-73.55	-21.68	-47.94
12.31	-33.5	-137.55	-25.52	-74.09	-25.5	-74.02	-21.66	-48.33
12.41	-33.45	-139.72	-25.49	-74.71	-25.5	-74.53	-21.64	-48.68
12.51	-33.48	-142.31	-25.5	-75.19	-25.49	-75.07	-21.66	-48.97
12.61	-33.43	-144.59	-25.48	-75.69	-25.48	-75.65	-21.66	-49.1
12.71	-33.51	-147.66	-25.47	-76.26	-25.47	-76.22	-21.65	-49.19
12.81	-33.6	-150.52	-25.49	-76.71	-25.49	-76.73	-21.6	-49.04
12.91	-33.76	-153.01	-25.46	-77.23	-25.44	-77.21	-21.56	-49.32
13.01	-33.72	-155.03	-25.47	-77.86	-25.46	-77.81	-21.51	-49.39
13.11	-33.74	-157.62	-25.45	-78.42	-25.44	-78.37	-21.46	-49.94
13.21	-33.69	-159.3	-25.49	-78.83	-25.49	-78.67	-21.45	-50.35
13.31	-33.48	-162.24	-25.44	-79.21	-25.43	-79.14	-21.47	-50.52
13.41	-33.36	-164.91	-25.42	-79.64	-25.43	-79.65	-21.43	-50.67
13.51	-33.22	-167.81	-25.39	-80.28	-25.4	-80.28	-21.43	-51.1
13.61	-33.12	-170.03	-25.4	-80.82	-25.4	-80.84	-21.37	-51.19
13.71	-33.07	-172.56	-25.38	-81.34	-25.37	-81.36	-21.35	-51.44
13.81	-32.98	-173.67	-25.37	-81.94	-25.36	-81.87	-21.32	-51.71
13.91	-32.84	-175.88	-25.36	-82.56	-25.34	-82.41	-21.29	-52.25
14.01	-32.64	-177.23	-25.34	-83.21	-25.32	-83.08	-21.26	-52.57
14.11	-32.39	-179.45	-25.33	-83.71	-25.34	-83.61	-21.27	-52.98
14.21	-32.2	178.18	-25.33	-84.1	-25.33	-84	-21.27	-53.1
14.31	-32.07	174.94	-25.29	-84.6	-25.3	-84.5	-21.25	-53.31
14.41	-32.01	173.53	-25.26	-85.23	-25.28	-85.27	-21.22	-53.39
14.51	-31.89	171.21	-25.28	-85.87	-25.27	-85.81	-21.17	-53.72
14.61	-31.87	170	-25.29	-86.41	-25.26	-86.37	-21.11	-54.08
14.71	-31.69	169.23	-25.25	-86.91	-25.23	-86.78	-21.06	-54.62
14.81	-31.59	168.33	-25.24	-87.63	-25.23	-87.5	-21.05	-55.12
14.91	-31.33	167.69	-25.24	-88.22	-25.24	-88.09	-21.05	-55.49
15.01	-31.13	165.28	-25.22	-88.58	-25.23	-88.39	-21.05	-55.58
15.11	-30.98	163.07	-25.2	-89.09	-25.21	-89.05	-21	-55.95
15.21	-30.95	161.02	-25.19	-89.68	-25.18	-89.71	-20.95	-56.09
15.31	-31	159.07	-25.18	-90.35	-25.17	-90.21	-20.9	-56.52
15.41	-30.89	157.94	-25.19	-90.66	-25.17	-90.59	-20.89	-56.92
15.51	-30.8	156.81	-25.17	-91.16	-25.13	-91.03	-20.84	-57.34
15.61	-30.48	155.87	-25.14	-91.71	-25.12	-91.53	-20.83	-57.93
15.71	-30.2	154.35	-25.1	-92.36	-25.09	-92.21	-20.85	-58.31
15.81	-29.94	152.54	-25.11	-92.99	-25.1	-92.86	-20.83	-58.62
15.91	-29.69	150.62	-25.09	-93.39	-25.09	-93.36	-20.8	-58.98
16.01	-29.63	148.06	-25.08	-93.84	-25.06	-93.82	-20.78	-59.43
16.11	-29.56	146.36	-25.05	-94.12	-25.02	-94.17	-20.75	-59.85
16.21	-29.57	145.25	-25	-94.81	-24.97	-94.72	-20.75	-60.57
16.31	-29.51	145.26	-24.97	-95.39	-24.95	-95.3	-20.76	-60.74
16.41	-29.27	144.85	-24.94	-95.97	-24.92	-95.78	-20.73	-61.25
16.51	-28.98	143.52	-24.91	-96.62	-24.89	-96.52	-20.72	-61.76
16.61	-28.85	141.81	-24.88	-97.23	-24.86	-97.11	-20.72	-62.27
16.71	-28.76	140.62	-24.85	-97.68	-24.82	-97.75	-20.8	-63.08
16.81	-28.71	139.29	-24.85	-98.33	-24.81	-98.34	-20.86	-62.94
16.91	-28.71	138.11	-24.82	-98.66	-24.75	-98.69	-20.94	-62.9
17.01	-28.73	139.04	-24.75	-99.35	-24.7	-99.43	-20.87	-62.25
17.11	-28.51	139.09	-24.74	-100	-24.66	-100.05	-20.72	-61.69
17.21	-28.25	138.73	-24.69	-100.51	-24.64	-100.76	-20.37	-63.19
17.31	-28.01	137.42	-24.67	-100.96	-24.64	-101.36	-20.46	-65.61
17.41	-27.91	135.6	-24.56	-101.45	-24.57	-101.93	-20.79	-67.25
17.51	-27.86	134.4	-24.49	-102.41	-24.51	-102.88	-21.09	-65.64
17.61	-27.88	132.75	-24.44	-102.7	-24.47	-103.32	-21.01	-63.72
17.71	-27.98	132.06	-24.35	-103.84	-24.4	-104.12	-20.65	-63.61
17.81	-27.95	132.04	-24.33	-104.67	-24.36	-104.85	-20.47	-65.13
17.91	-27.85	131.74	-24.28	-105.69	-24.33	-105.58	-20.6	-67.27
18.01	-27.52	130.94	-24.25	-106.48	-24.3	-106.34	-20.86	-67.66
18.11	-27.4	128.82	-24.21	-107.21	-24.27	-106.98	-21.01	-66.78
18.21	-27.35	128.1	-24.17	-108.22	-24.21	-108.07	-20.98	-65.93
18.31	-27.24	127.18	-24.12	-109.11	-24.17	-109.03	-20.92	-65.27
18.41	-27.25	126.54	-24.11	-109.78	-24.13	-109.74	-20.72	-66.06
18.51	-27.26	126.9	-24.06	-111	-24.07	-110.9	-20.77	-66.46
18.61	-27.09	127.04	-24.1	-111.88	-24.09	-111.64	-20.74	-67.37
18.71	-27.03	127.71	-24.05	-112.62	-24.05	-112.42	-20.82	-67.89
18.81	-26.78	127.24	-23.98	-113.47	-24.01	-113.22	-20.9	-68.22
18.91	-26.7	126.21	-23.95	-114.53	-23.94	-114.3	-21.04	-67.94
19.01	-26.6	125.96	-23.91	-115.65	-23.94	-115.57	-20.99	-67.24
19.11	-26.5	125.92	-23.94	-116.58	-23.96	-116.54	-20.95	-67.23
19.21	-26.49	125.66	-23.94	-117.35	-23.92	-117.18	-20.87	-67.69
19.31	-26.38	126.13	-23.84	-118.58	-23.83	-118.5	-20.99	-68.2
19.41	-26.17	126.54	-23.92	-120.1	-23.91	-119.97	-21.05	-67.56
19.51	-26.04	126.51	-23.96	-121.13	-23.94	-120.9	-21.05	-67.08
19.61	-25.79	125.6	-23.99	-121.78	-24.01	-121.58	-20.92	-66.95
19.71	-25.74	125	-23.97	-122.41	-23.97	-122.26	-20.93	-67.55
19.81	-25.78	124.35	-23.89	-123.62	-23.89	-123.58	-20.92	-67.2
19.91	-25.74	124.63	-23.95	-124.96	-23.96	-124.88	-20.91	-66.99
20.01	-25.64	125.63	-24.04	-126.12	-24.01	-126.03	-20.82	-66.29