!s2p File: Measurements: S11, S21, S12, S22								
# GHz S dB R 50.0								
0.01	-25.29	-0.22	-20.15	-0.26	-20.15	-0.41	-19.24	-1.85
0.11	-25.47	-1.55	-20.28	-1.3	-20.27	-1.31	-19.89	-3.06
0.21	-25.53	-1.88	-20.31	-1.94	-20.3	-1.94	-20.03	-3.24
0.31	-25.54	-2.42	-20.31	-2.62	-20.31	-2.62	-20.07	-3.65
0.41	-25.56	-2.93	-20.32	-3.32	-20.32	-3.32	-20.1	-4.26
0.51	-25.55	-3.47	-20.33	-4.06	-20.33	-4.05	-20.12	-4.89
0.61	-25.55	-4.01	-20.33	-4.79	-20.33	-4.78	-20.13	-5.58
0.71	-25.54	-4.61	-20.34	-5.54	-20.33	-5.53	-20.14	-6.27
0.81	-25.54	-5.2	-20.34	-6.29	-20.33	-6.28	-20.15	-7.02
0.91	-25.56	-5.81	-20.34	-7.03	-20.34	-7.03	-20.17	-7.74
1.01	-25.56	-6.4	-20.35	-7.78	-20.35	-7.77	-20.18	-8.49
1.11	-25.57	-7.04	-20.35	-8.52	-20.35	-8.5	-20.19	-9.25
1.21	-25.58	-7.71	-20.36	-9.27	-20.36	-9.26	-20.2	-10
1.31	-25.59	-8.45	-20.36	-10.02	-20.36	-10.01	-20.21	-10.79
1.41	-25.61	-9.22	-20.37	-10.77	-20.36	-10.78	-20.24	-11.6
1.51	-25.63	-9.89	-20.37	-11.53	-20.37	-11.52	-20.26	-12.32
1.61	-25.62	-10.54	-20.38	-12.27	-20.38	-12.28	-20.27	-13.07
1.71	-25.61	-11.37	-20.39	-13.02	-20.39	-13.02	-20.28	-13.87
1.81	-25.6	-12.31	-20.4	-13.77	-20.39	-13.77	-20.29	-14.73
1.91	-25.62	-13.11	-20.4	-14.53	-20.4	-14.5	-20.31	-15.54
2.01	-25.64	-13.87	-20.41	-15.27	-20.41	-15.25	-20.34	-16.36
2.11	-25.65	-14.59	-20.42	-16	-20.41	-16	-20.37	-17.13
2.21	-25.66	-15.38	-20.43	-16.74	-20.42	-16.73	-20.39	-17.88
2.31	-25.68	-16.16	-20.43	-17.5	-20.43	-17.49	-20.42	-18.67
2.41	-25.7	-16.97	-20.44	-18.24	-20.44	-18.22	-20.45	-19.44
2.51	-25.72	-17.62	-20.45	-18.98	-20.45	-18.95	-20.48	-20.2
2.61	-25.76	-18.34	-20.46	-19.71	-20.46	-19.71	-20.51	-20.95
2.71	-25.78	-18.9	-20.47	-20.45	-20.47	-20.43	-20.55	-21.69
2.81	-25.82	-19.45	-20.48	-21.18	-20.48	-21.16	-20.59	-22.42
2.91	-25.84	-20.11	-20.49	-21.91	-20.49	-21.89	-20.62	-23.12
3.01	-25.87	-20.84	-20.5	-22.65	-20.49	-22.64	-20.65	-23.8
3.11	-25.9	-21.56	-20.51	-23.38	-20.51	-23.37	-20.69	-24.53
3.21	-25.94	-22.35	-20.52	-24.1	-20.52	-24.1	-20.72	-25.23
3.31	-25.99	-23.1	-20.53	-24.85	-20.53	-24.83	-20.77	-25.94
3.41	-26.04	-23.8	-20.54	-25.56	-20.54	-25.56	-20.81	-26.6
3.51	-26.06	-24.55	-20.55	-26.29	-20.55	-26.29	-20.85	-27.26
3.61	-26.1	-25.31	-20.56	-27	-20.56	-27.03	-20.89	-27.96
3.71	-26.14	-26.2	-20.58	-27.73	-20.58	-27.75	-20.93	-28.67
3.81	-26.19	-27.11	-20.59	-28.46	-20.59	-28.47	-20.98	-29.38
3.91	-26.27	-27.91	-20.6	-29.19	-20.6	-29.19	-21.03	-30.1
4.01	-26.32	-28.56	-20.62	-29.92	-20.61	-29.92	-21.09	-30.75
4.11	-26.34	-29.29	-20.63	-30.66	-20.62	-30.62	-21.14	-31.36
4.21	-26.37	-30.06	-20.64	-31.35	-20.64	-31.35	-21.17	-31.89
4.31	-26.42	-31.14	-20.65	-32.09	-20.65	-32.07	-21.21	-32.56
4.41	-26.48	-32.23	-20.66	-32.8	-20.67	-32.8	-21.25	-33.25
4.51	-26.56	-32.98	-20.68	-33.49	-20.68	-33.51	-21.3	-33.96
4.61	-26.64	-33.6	-20.7	-34.22	-20.7	-34.21	-21.36	-34.61
4.71	-26.66	-34.2	-20.71	-34.96	-20.71	-34.94	-21.43	-35.19
4.81	-26.68	-34.89	-20.73	-35.67	-20.72	-35.65	-21.49	-35.67
4.91	-26.69	-35.9	-20.74	-36.38	-20.74	-36.36	-21.53	-36.14
5.01	-26.72	-36.9	-20.75	-37.1	-20.75	-37.06	-21.57	-36.64
5.11	-26.8	-37.88	-20.77	-37.78	-20.77	-37.74	-21.61	-37.26
5.21	-26.9	-38.67	-20.79	-38.47	-20.78	-38.47	-21.67	-37.81
5.31	-26.98	-39.27	-20.8	-39.19	-20.8	-39.18	-21.73	-38.44
5.41	-27.06	-39.77	-20.82	-39.92	-20.81	-39.87	-21.8	-38.96
5.51	-27.11	-40.4	-20.84	-40.6	-20.83	-40.59	-21.88	-39.35
5.61	-27.16	-41.28	-20.85	-41.33	-20.85	-41.29	-21.93	-39.68
5.71	-27.24	-42.22	-20.87	-42.02	-20.87	-41.99	-21.97	-40.09
5.81	-27.34	-43.28	-20.88	-42.7	-20.88	-42.68	-22.02	-40.5
5.91	-27.47	-44.16	-20.9	-43.41	-20.9	-43.38	-22.06	-41.07
6.01	-27.58	-45.01	-20.92	-44.11	-20.92	-44.09	-22.1	-41.57
6.11	-27.68	-45.68	-20.94	-44.82	-20.93	-44.8	-22.16	-42.03
6.21	-27.74	-46.38	-20.96	-45.48	-20.96	-45.49	-22.22	-42.39
6.31	-27.79	-47.28	-20.98	-46.19	-20.98	-46.16	-22.27	-42.7
6.41	-27.85	-48.23	-21	-46.86	-21	-46.86	-22.33	-43.04
6.51	-27.92	-49.36	-21.02	-47.53	-21.02	-47.52	-22.36	-43.34
6.61	-28.03	-50.38	-21.04	-48.21	-21.04	-48.19	-22.42	-43.76
6.71	-28.15	-51.4	-21.06	-48.91	-21.06	-48.89	-22.46	-44.15
6.81	-28.24	-52.29	-21.09	-49.56	-21.08	-49.52	-22.52	-44.6
6.91	-28.32	-53.16	-21.11	-50.22	-21.1	-50.19	-22.58	-44.99
7.01	-28.37	-54.02	-21.12	-50.89	-21.12	-50.87	-22.64	-45.26
7.11	-28.43	-55.04	-21.15	-51.52	-21.15	-51.52	-22.68	-45.5
7.21	-28.53	-56.07	-21.17	-52.21	-21.16	-52.18	-22.71	-45.68
7.31	-28.61	-57.05	-21.19	-52.94	-21.18	-52.9	-22.72	-46.06
7.41	-28.7	-57.87	-21.23	-53.61	-21.22	-53.57	-22.74	-46.44
7.51	-28.78	-58.86	-21.25	-54.19	-21.25	-54.17	-22.77	-46.89
7.61	-28.88	-59.57	-21.27	-54.86	-21.27	-54.78	-22.83	-47.23
7.71	-28.94	-60.46	-21.29	-55.46	-21.29	-55.4	-22.88	-47.5
7.81	-29.03	-61.42	-21.32	-56.02	-21.32	-56.04	-22.92	-47.77
7.91	-29.16	-62.16	-21.35	-56.69	-21.35	-56.67	-22.95	-48.03
8.01	-29.3	-63.34	-21.37	-57.29	-21.37	-57.28	-22.98	-48.35
8.11	-29.44	-64.39	-21.4	-57.88	-21.4	-57.85	-23.02	-48.81
8.21	-29.59	-65.49	-21.43	-58.5	-21.42	-58.48	-23.06	-49.23
8.31	-29.73	-66.5	-21.45	-59.09	-21.45	-59.05	-23.1	-49.62
8.41	-29.81	-67.56	-21.47	-59.67	-21.48	-59.63	-23.15	-49.98
8.51	-29.92	-68.94	-21.5	-60.21	-21.51	-60.18	-23.18	-50.34
8.61	-29.99	-70.34	-21.53	-60.75	-21.53	-60.7	-23.22	-50.73
8.71	-30.07	-71.96	-21.55	-61.29	-21.55	-61.2	-23.27	-51.07
8.81	-30.17	-73.46	-21.58	-61.81	-21.57	-61.77	-23.3	-51.41
8.91	-30.3	-75.04	-21.59	-62.35	-21.59	-62.31	-23.34	-51.83
9.01	-30.45	-76.38	-21.62	-62.89	-21.62	-62.81	-23.4	-52.28
9.11	-30.58	-77.92	-21.64	-63.39	-21.64	-63.32	-23.46	-52.62
9.21	-30.69	-79.32	-21.65	-63.86	-21.65	-63.82	-23.53	-52.96
9.31	-30.79	-80.72	-21.67	-64.37	-21.66	-64.32	-23.59	-53.27
9.41	-30.88	-82.28	-21.68	-64.88	-21.67	-64.81	-23.65	-53.57
9.51	-30.93	-83.81	-21.7	-65.4	-21.69	-65.34	-23.72	-53.79
9.61	-31.07	-85.6	-21.71	-65.9	-21.7	-65.82	-23.77	-53.93
9.71	-31.18	-87.22	-21.71	-66.39	-21.71	-66.34	-23.84	-54.12
9.81	-31.3	-88.8	-21.72	-66.83	-21.72	-66.81	-23.91	-54.3
9.91	-31.4	-90.03	-21.73	-67.37	-21.72	-67.32	-23.99	-54.44
10.01	-31.48	-91.35	-21.73	-67.91	-21.73	-67.85	-24.05	-54.59
10.11	-31.56	-92.75	-21.74	-68.39	-21.73	-68.32	-24.14	-54.69
10.21	-31.67	-94.32	-21.75	-68.84	-21.74	-68.84	-24.23	-54.69
10.31	-31.79	-96.26	-21.74	-69.38	-21.74	-69.33	-24.3	-54.6
10.41	-31.92	-98.05	-21.74	-69.87	-21.74	-69.86	-24.36	-54.34
10.51	-32.12	-99.95	-21.75	-70.39	-21.74	-70.38	-24.41	-54.21
10.61	-32.25	-102.26	-21.74	-70.94	-21.73	-70.91	-24.46	-54.09
10.71	-32.44	-104.11	-21.74	-71.55	-21.74	-71.45	-24.51	-54
10.81	-32.57	-106.11	-21.74	-72.12	-21.74	-72.01	-24.58	-53.85
10.91	-32.67	-108.5	-21.74	-72.64	-21.74	-72.54	-24.65	-53.76
11.01	-32.82	-110.59	-21.73	-73.17	-21.73	-73.12	-24.73	-53.34
11.11	-32.89	-112.82	-21.73	-73.71	-21.74	-73.69	-24.75	-53.03
11.21	-32.99	-115.16	-21.74	-74.33	-21.74	-74.27	-24.78	-52.77
11.31	-33.11	-116.91	-21.75	-74.83	-21.74	-74.84	-24.79	-52.41
11.41	-33.18	-119.35	-21.74	-75.4	-21.73	-75.38	-24.78	-52.32
11.51	-33.23	-121.05	-21.74	-76.01	-21.73	-75.89	-24.82	-52.03
11.61	-33.26	-122.99	-21.74	-76.51	-21.73	-76.45	-24.84	-51.89
11.71	-33.26	-125.36	-21.73	-77.11	-21.74	-77.05	-24.87	-51.73
11.81	-33.31	-128.09	-21.72	-77.62	-21.73	-77.57	-24.92	-51.28
11.91	-33.43	-130.65	-21.73	-78.21	-21.72	-78.2	-24.88	-50.66
12.01	-33.42	-132.69	-21.73	-78.76	-21.73	-78.8	-24.85	-50.46
12.11	-33.37	-134.58	-21.74	-79.43	-21.73	-79.44	-24.83	-50.21
12.21	-33.39	-136.77	-21.75	-79.89	-21.73	-79.88	-24.79	-50.04
12.31	-33.39	-138.87	-21.74	-80.5	-21.73	-80.45	-24.78	-50.07
12.41	-33.32	-141.06	-21.72	-81.13	-21.72	-80.98	-24.73	-50.01
12.51	-33.34	-143.83	-21.73	-81.69	-21.72	-81.57	-24.77	-49.87
12.61	-33.3	-145.99	-21.71	-82.22	-21.72	-82.18	-24.77	-49.5
12.71	-33.37	-148.99	-21.71	-82.8	-21.71	-82.78	-24.76	-49.09
12.81	-33.43	-151.74	-21.72	-83.33	-21.72	-83.37	-24.68	-48.43
12.91	-33.59	-154.2	-21.72	-83.92	-21.71	-83.9	-24.61	-48.34
13.01	-33.52	-156.41	-21.72	-84.55	-21.71	-84.51	-24.53	-47.97
13.11	-33.6	-158.92	-21.72	-85.17	-21.7	-85.11	-24.46	-48.22
13.21	-33.52	-160.63	-21.75	-85.66	-21.74	-85.52	-24.45	-48.38
13.31	-33.29	-163.52	-21.71	-86.12	-21.71	-86.04	-24.47	-47.98
13.41	-33.17	-166.03	-21.7	-86.63	-21.71	-86.61	-24.39	-47.77
13.51	-33.02	-168.89	-21.69	-87.27	-21.7	-87.22	-24.38	-47.94
13.61	-32.91	-171.12	-21.69	-87.79	-21.69	-87.81	-24.29	-47.62
13.71	-32.87	-173.5	-21.67	-88.36	-21.67	-88.35	-24.26	-47.62
13.81	-32.77	-174.74	-21.67	-88.97	-21.67	-89.01	-24.19	-47.47
13.91	-32.62	-176.93	-21.67	-89.65	-21.66	-89.54	-24.13	-47.73
14.01	-32.42	-178.25	-21.66	-90.31	-21.65	-90.22	-24.07	-47.74
14.11	-32.19	179.52	-21.66	-90.85	-21.66	-90.78	-24.09	-47.87
14.21	-31.97	177.44	-21.66	-91.36	-21.67	-91.25	-24.05	-47.68
14.31	-31.83	174.21	-21.63	-91.88	-21.64	-91.83	-23.99	-47.54
14.41	-31.8	172.79	-21.62	-92.53	-21.63	-92.52	-23.93	-47.37
14.51	-31.65	170.43	-21.63	-93.18	-21.63	-93.17	-23.84	-47.38
14.61	-31.64	169.34	-21.64	-93.79	-21.62	-93.72	-23.74	-47.6
14.71	-31.49	168.43	-21.62	-94.34	-21.6	-94.18	-23.66	-47.95
14.81	-31.36	167.66	-21.62	-95.05	-21.61	-94.88	-23.62	-48.23
14.91	-31.11	166.98	-21.63	-95.65	-21.62	-95.49	-23.59	-48.37
15.01	-30.91	164.56	-21.61	-96.06	-21.61	-95.91	-23.56	-48.2
15.11	-30.76	162.5	-21.59	-96.62	-21.6	-96.59	-23.48	-48.4
15.21	-30.72	160.37	-21.59	-97.23	-21.58	-97.24	-23.38	-48.31
15.31	-30.78	158.56	-21.6	-97.88	-21.57	-97.81	-23.31	-48.59
15.41	-30.67	157.42	-21.6	-98.33	-21.58	-98.27	-23.27	-48.83
15.51	-30.55	156.4	-21.59	-98.92	-21.56	-98.79	-23.19	-48.99
15.61	-30.25	155.38	-21.56	-99.47	-21.55	-99.33	-23.16	-49.47
15.71	-29.95	153.84	-21.54	-100.15	-21.54	-100	-23.15	-49.57
15.81	-29.71	152.2	-21.54	-100.74	-21.54	-100.64	-23.1	-49.74
15.91	-29.48	150.27	-21.54	-101.19	-21.54	-101.2	-23.05	-50.04
16.01	-29.39	147.8	-21.53	-101.74	-21.52	-101.7	-23	-50.32
16.11	-29.33	146.22	-21.52	-102.17	-21.5	-102.16	-22.96	-50.64
16.21	-29.33	144.89	-21.49	-102.85	-21.45	-102.78	-22.95	-51.1
16.31	-29.27	145.04	-21.48	-103.46	-21.44	-103.33	-22.92	-51
16.41	-29.02	144.47	-21.45	-104.04	-21.43	-103.85	-22.87	-51.33
16.51	-28.74	143.19	-21.43	-104.72	-21.41	-104.57	-22.82	-51.71
16.61	-28.62	141.52	-21.41	-105.35	-21.39	-105.22	-22.8	-52.07
16.71	-28.51	140.27	-21.4	-105.84	-21.37	-105.87	-22.88	-52.62
16.81	-28.44	139.05	-21.4	-106.48	-21.36	-106.51	-22.9	-52.22
16.91	-28.45	137.89	-21.39	-106.93	-21.32	-106.95	-22.98	-51.75
17.01	-28.47	138.57	-21.35	-107.54	-21.29	-107.64	-22.83	-50.59
17.11	-28.27	138.66	-21.35	-108.15	-21.27	-108.24	-22.57	-49.86
17.21	-28	138.3	-21.31	-108.71	-21.26	-108.95	-22.17	-51.96
17.31	-27.78	136.96	-21.29	-109.19	-21.26	-109.55	-22.3	-54.47
17.41	-27.67	135.29	-21.2	-109.66	-21.21	-110.19	-22.72	-55.61
17.51	-27.63	133.86	-21.15	-110.6	-21.18	-111.05	-22.96	-52.87
17.61	-27.62	132.37	-21.11	-110.96	-21.14	-111.57	-22.74	-50.51
17.71	-27.72	131.62	-21.05	-112	-21.1	-112.29	-22.25	-50.64
17.81	-27.69	131.49	-21.05	-112.82	-21.07	-112.97	-22.04	-52.58
17.91	-27.57	131.23	-21.02	-113.78	-21.06	-113.72	-22.23	-54.51
18.01	-27.27	130.24	-21.01	-114.54	-21.05	-114.42	-22.47	-54.23
18.11	-27.15	128.28	-20.98	-115.24	-21.02	-115.04	-22.53	-52.82
18.21	-27.09	127.41	-20.95	-116.08	-20.99	-116.02	-22.38	-51.66
18.31	-26.99	126.57	-20.92	-116.92	-20.95	-116.83	-22.21	-50.99
18.41	-26.97	125.83	-20.91	-117.6	-20.93	-117.59	-21.97	-52.15
18.51	-26.97	126	-20.89	-118.61	-20.89	-118.54	-21.95	-52.43
18.61	-26.81	126.11	-20.93	-119.41	-20.91	-119.22	-21.89	-53.45
18.71	-26.77	126.58	-20.89	-120.11	-20.88	-119.96	-21.94	-53.85
18.81	-26.53	126.23	-20.84	-120.97	-20.86	-120.75	-21.99	-53.92
18.91	-26.44	125.12	-20.82	-121.92	-20.82	-121.69	-22.05	-53.2
19.01	-26.35	124.77	-20.8	-122.87	-20.83	-122.79	-21.89	-52.59
19.11	-26.27	124.72	-20.82	-123.61	-20.84	-123.62	-21.76	-52.86
19.21	-26.26	124.37	-20.83	-124.36	-20.81	-124.26	-21.68	-53.45
19.31	-26.16	124.68	-20.77	-125.37	-20.75	-125.35	-21.75	-53.58
19.41	-25.97	125.04	-20.82	-126.62	-20.8	-126.49	-21.68	-52.9
19.51	-25.85	124.97	-20.85	-127.6	-20.83	-127.36	-21.58	-52.54
19.61	-25.62	124.17	-20.88	-128.21	-20.89	-128.02	-21.4	-52.91
19.71	-25.56	123.45	-20.86	-128.88	-20.87	-128.74	-21.38	-53.47
19.81	-25.62	122.7	-20.81	-129.87	-20.82	-129.85	-21.26	-53.24
19.91	-25.58	123	-20.86	-130.87	-20.87	-130.87	-21.17	-53.42
20.01	-25.51	123.94	-20.93	-131.76	-20.9	-131.73	-21.02	-53.19