!s2p File: Measurements: S11, S21, S12, S22								
# GHz S dB R 50.0								
0.01	-25.25	-0.2	-24.47	-0.3	-24.46	-0.44	-23.54	-1.75
0.11	-25.43	-1.53	-24.6	-1.35	-24.6	-1.35	-24.4	-4.12
0.21	-25.49	-1.87	-24.65	-1.94	-24.64	-1.9	-24.68	-3.47
0.31	-25.5	-2.35	-24.66	-2.54	-24.66	-2.53	-24.77	-3.04
0.41	-25.51	-2.92	-24.67	-3.19	-24.66	-3.19	-24.81	-2.9
0.51	-25.5	-3.43	-24.67	-3.86	-24.67	-3.87	-24.84	-2.86
0.61	-25.51	-3.98	-24.68	-4.55	-24.67	-4.56	-24.85	-2.99
0.71	-25.5	-4.58	-24.68	-5.27	-24.68	-5.27	-24.86	-3.07
0.81	-25.5	-5.15	-24.68	-5.97	-24.68	-5.96	-24.86	-3.26
0.91	-25.51	-5.78	-24.69	-6.66	-24.69	-6.66	-24.87	-3.44
1.01	-25.51	-6.35	-24.69	-7.36	-24.69	-7.35	-24.87	-3.62
1.11	-25.53	-6.96	-24.69	-8.08	-24.69	-8.07	-24.86	-3.83
1.21	-25.54	-7.63	-24.7	-8.78	-24.7	-8.76	-24.86	-4.04
1.31	-25.54	-8.38	-24.71	-9.48	-24.7	-9.47	-24.86	-4.37
1.41	-25.56	-9.16	-24.71	-10.19	-24.7	-10.19	-24.88	-4.71
1.51	-25.58	-9.85	-24.71	-10.89	-24.71	-10.89	-24.88	-4.83
1.61	-25.57	-10.48	-24.72	-11.6	-24.72	-11.63	-24.87	-5.02
1.71	-25.56	-11.28	-24.73	-12.29	-24.73	-12.32	-24.86	-5.41
1.81	-25.56	-12.23	-24.73	-13.02	-24.73	-13.01	-24.85	-5.83
1.91	-25.58	-12.99	-24.74	-13.71	-24.74	-13.72	-24.86	-6.18
2.01	-25.59	-13.77	-24.75	-14.46	-24.74	-14.43	-24.87	-6.49
2.11	-25.6	-14.51	-24.75	-15.13	-24.75	-15.15	-24.87	-6.82
2.21	-25.62	-15.28	-24.76	-15.83	-24.76	-15.83	-24.88	-7.07
2.31	-25.63	-16.04	-24.77	-16.53	-24.77	-16.53	-24.88	-7.35
2.41	-25.64	-16.84	-24.78	-17.23	-24.77	-17.22	-24.88	-7.66
2.51	-25.67	-17.52	-24.78	-17.92	-24.78	-17.93	-24.89	-8.01
2.61	-25.71	-18.2	-24.8	-18.63	-24.79	-18.63	-24.91	-8.26
2.71	-25.74	-18.77	-24.8	-19.33	-24.79	-19.32	-24.92	-8.53
2.81	-25.77	-19.33	-24.81	-20.03	-24.81	-20.02	-24.93	-8.77
2.91	-25.79	-19.96	-24.82	-20.73	-24.82	-20.71	-24.94	-8.98
3.01	-25.81	-20.69	-24.83	-21.43	-24.82	-21.4	-24.93	-9.18
3.11	-25.85	-21.44	-24.84	-22.12	-24.83	-22.11	-24.94	-9.48
3.21	-25.89	-22.19	-24.84	-22.79	-24.84	-22.79	-24.95	-9.72
3.31	-25.94	-22.96	-24.85	-23.5	-24.85	-23.49	-24.96	-9.98
3.41	-25.98	-23.62	-24.86	-24.19	-24.86	-24.19	-24.97	-10.17
3.51	-26.01	-24.39	-24.87	-24.9	-24.87	-24.89	-24.98	-10.37
3.61	-26.04	-25.15	-24.89	-25.6	-24.88	-25.58	-24.98	-10.59
3.71	-26.08	-26.01	-24.9	-26.28	-24.89	-26.31	-24.99	-10.89
3.81	-26.14	-26.95	-24.91	-26.98	-24.91	-26.98	-25	-11.23
3.91	-26.21	-27.74	-24.92	-27.66	-24.92	-27.66	-25.02	-11.54
4.01	-26.27	-28.36	-24.93	-28.36	-24.93	-28.33	-25.05	-11.69
4.11	-26.29	-29.11	-24.94	-29.07	-24.94	-29	-25.05	-11.83
4.21	-26.31	-29.92	-24.95	-29.72	-24.95	-29.7	-25.04	-11.96
4.31	-26.36	-30.94	-24.96	-30.38	-24.96	-30.42	-25.03	-12.28
4.41	-26.42	-32.02	-24.98	-31.08	-24.98	-31.08	-25.03	-12.65
4.51	-26.5	-32.8	-24.99	-31.75	-24.99	-31.77	-25.05	-13.01
4.61	-26.58	-33.43	-25.01	-32.42	-25	-32.43	-25.08	-13.28
4.71	-26.61	-33.98	-25.02	-33.14	-25.02	-33.12	-25.11	-13.36
4.81	-26.61	-34.71	-25.03	-33.82	-25.03	-33.8	-25.11	-13.42
4.91	-26.62	-35.68	-25.05	-34.52	-25.04	-34.48	-25.09	-13.5
5.01	-26.66	-36.66	-25.05	-35.19	-25.06	-35.13	-25.08	-13.69
5.11	-26.74	-37.67	-25.07	-35.83	-25.07	-35.84	-25.06	-14.01
5.21	-26.84	-38.43	-25.09	-36.54	-25.09	-36.51	-25.07	-14.26
5.31	-26.92	-39.07	-25.11	-37.22	-25.11	-37.18	-25.1	-14.55
5.41	-27	-39.55	-25.13	-37.88	-25.12	-37.83	-25.12	-14.64
5.51	-27.04	-40.15	-25.14	-38.57	-25.13	-38.55	-25.14	-14.63
5.61	-27.1	-40.99	-25.16	-39.28	-25.15	-39.23	-25.12	-14.58
5.71	-27.18	-41.99	-25.17	-39.9	-25.18	-39.88	-25.1	-14.72
5.81	-27.28	-43.07	-25.18	-40.59	-25.19	-40.54	-25.08	-14.9
5.91	-27.4	-43.95	-25.2	-41.23	-25.2	-41.21	-25.06	-15.24
6.01	-27.51	-44.72	-25.22	-41.94	-25.22	-41.91	-25.07	-15.56
6.11	-27.61	-45.39	-25.25	-42.62	-25.24	-42.57	-25.08	-15.73
6.21	-27.67	-46.12	-25.27	-43.25	-25.27	-43.23	-25.08	-15.79
6.31	-27.73	-46.97	-25.29	-43.93	-25.28	-43.9	-25.05	-15.83
6.41	-27.78	-47.98	-25.31	-44.54	-25.3	-44.54	-25.05	-15.87
6.51	-27.86	-49.08	-25.33	-45.15	-25.33	-45.14	-25.01	-16.02
6.61	-27.97	-50.15	-25.35	-45.85	-25.35	-45.81	-25.01	-16.27
6.71	-28.08	-51.09	-25.37	-46.5	-25.37	-46.46	-25	-16.52
6.81	-28.19	-51.94	-25.39	-47.11	-25.39	-47.09	-25	-16.73
6.91	-28.26	-52.84	-25.42	-47.75	-25.41	-47.72	-25.01	-16.93
7.01	-28.32	-53.76	-25.44	-48.38	-25.43	-48.36	-25	-16.98
7.11	-28.37	-54.73	-25.46	-49.01	-25.46	-48.97	-24.97	-17.12
7.21	-28.47	-55.79	-25.47	-49.61	-25.47	-49.6	-24.92	-17.19
7.31	-28.55	-56.76	-25.5	-50.36	-25.5	-50.35	-24.87	-17.59
7.41	-28.65	-57.56	-25.55	-51.03	-25.54	-50.97	-24.84	-17.99
7.51	-28.72	-58.5	-25.58	-51.53	-25.57	-51.49	-24.83	-18.39
7.61	-28.83	-59.28	-25.59	-52.14	-25.59	-52.07	-24.83	-18.59
7.71	-28.91	-60.13	-25.62	-52.75	-25.62	-52.66	-24.82	-18.79
7.81	-28.98	-61.04	-25.65	-53.26	-25.65	-53.23	-24.81	-18.93
7.91	-29.12	-61.84	-25.68	-53.87	-25.68	-53.83	-24.78	-19.14
8.01	-29.26	-63	-25.7	-54.43	-25.71	-54.41	-24.74	-19.45
8.11	-29.39	-63.93	-25.73	-54.99	-25.73	-54.92	-24.74	-19.91
8.21	-29.55	-65.08	-25.77	-55.55	-25.76	-55.49	-24.73	-20.36
8.31	-29.69	-66.08	-25.79	-56.1	-25.8	-56.05	-24.73	-20.72
8.41	-29.78	-67.07	-25.82	-56.62	-25.82	-56.56	-24.74	-21.04
8.51	-29.9	-68.42	-25.85	-57.09	-25.86	-57.04	-24.74	-21.43
8.61	-29.96	-69.76	-25.88	-57.53	-25.89	-57.49	-24.74	-21.74
8.71	-30.05	-71.26	-25.9	-58.04	-25.9	-57.93	-24.72	-22.06
8.81	-30.15	-72.85	-25.93	-58.47	-25.92	-58.41	-24.71	-22.44
8.91	-30.28	-74.42	-25.95	-58.93	-25.95	-58.91	-24.73	-22.9
9.01	-30.44	-75.75	-25.97	-59.44	-25.97	-59.33	-24.75	-23.32
9.11	-30.57	-77.2	-26	-59.87	-26	-59.76	-24.76	-23.58
9.21	-30.69	-78.52	-26.01	-60.21	-26.01	-60.16	-24.79	-23.89
9.31	-30.79	-79.89	-26.03	-60.69	-26.02	-60.6	-24.81	-24.18
9.41	-30.87	-81.3	-26.04	-61.09	-26.04	-61.05	-24.82	-24.5
9.51	-30.93	-82.87	-26.06	-61.54	-26.05	-61.47	-24.84	-24.69
9.61	-31.07	-84.65	-26.07	-61.9	-26.05	-61.86	-24.84	-24.88
9.71	-31.17	-86.28	-26.07	-62.33	-26.07	-62.35	-24.86	-25.04
9.81	-31.3	-87.84	-26.07	-62.71	-26.07	-62.7	-24.88	-25.28
9.91	-31.43	-88.87	-26.07	-63.24	-26.07	-63.17	-24.91	-25.38
10.01	-31.51	-90.26	-26.08	-63.66	-26.08	-63.56	-24.94	-25.61
10.11	-31.59	-91.61	-26.08	-64.04	-26.08	-64.01	-24.97	-25.67
10.21	-31.69	-93.1	-26.09	-64.45	-26.07	-64.41	-25.01	-25.63
10.31	-31.81	-94.85	-26.07	-64.91	-26.07	-64.82	-25.02	-25.63
10.41	-31.94	-96.64	-26.07	-65.33	-26.07	-65.24	-25.02	-25.52
10.51	-32.13	-98.57	-26.07	-65.75	-26.06	-65.73	-25.01	-25.52
10.61	-32.3	-100.84	-26.05	-66.21	-26.05	-66.18	-25.02	-25.54
10.71	-32.47	-102.62	-26.04	-66.78	-26.04	-66.66	-25.01	-25.62
10.81	-32.63	-104.63	-26.03	-67.32	-26.03	-67.2	-25.03	-25.55
10.91	-32.74	-107.06	-26.03	-67.81	-26.03	-67.73	-25.06	-25.51
11.01	-32.88	-109.06	-26.02	-68.29	-26.02	-68.16	-25.08	-25.24
11.11	-32.96	-111.25	-26.01	-68.75	-26.02	-68.74	-25.05	-25.16
11.21	-33.06	-113.46	-26.01	-69.35	-26	-69.27	-25.03	-25.09
11.31	-33.17	-115.07	-26.01	-69.82	-25.99	-69.77	-24.99	-25.1
11.41	-33.25	-117.68	-26	-70.29	-25.99	-70.28	-24.96	-25.33
11.51	-33.31	-119.26	-26	-70.8	-25.98	-70.73	-24.97	-25.31
11.61	-33.36	-121.3	-25.98	-71.36	-25.96	-71.24	-24.97	-25.35
11.71	-33.36	-123.7	-25.96	-71.87	-25.98	-71.84	-24.96	-25.35
11.81	-33.43	-126.33	-25.95	-72.34	-25.96	-72.28	-24.97	-25.15
11.91	-33.54	-128.96	-25.95	-72.88	-25.94	-72.87	-24.89	-24.87
12.01	-33.54	-131.12	-25.94	-73.44	-25.93	-73.48	-24.84	-25.12
12.11	-33.49	-132.89	-25.95	-74.14	-25.94	-74.1	-24.8	-25.1
12.21	-33.49	-135.11	-25.95	-74.49	-25.94	-74.48	-24.76	-25.36
12.31	-33.52	-137.14	-25.94	-75.06	-25.93	-74.94	-24.74	-25.58
12.41	-33.45	-139.51	-25.91	-75.7	-25.91	-75.53	-24.7	-25.9
12.51	-33.5	-142.21	-25.92	-76.18	-25.91	-76.05	-24.73	-25.88
12.61	-33.47	-144.23	-25.9	-76.7	-25.9	-76.6	-24.71	-25.8
12.71	-33.54	-147.36	-25.88	-77.26	-25.88	-77.2	-24.68	-25.57
12.81	-33.64	-150.29	-25.9	-77.71	-25.9	-77.71	-24.57	-25.33
12.91	-33.78	-152.63	-25.87	-78.27	-25.87	-78.2	-24.51	-25.63
13.01	-33.74	-154.78	-25.89	-78.87	-25.88	-78.79	-24.42	-25.62
13.11	-33.8	-157.31	-25.88	-79.45	-25.86	-79.38	-24.38	-26.19
13.21	-33.72	-159.13	-25.91	-79.83	-25.9	-79.7	-24.37	-26.48
13.31	-33.53	-162	-25.85	-80.25	-25.85	-80.17	-24.38	-26.39
13.41	-33.4	-164.54	-25.83	-80.68	-25.85	-80.65	-24.31	-26.39
13.51	-33.25	-167.58	-25.81	-81.31	-25.82	-81.29	-24.31	-26.74
13.61	-33.14	-169.81	-25.81	-81.84	-25.81	-81.84	-24.22	-26.77
13.71	-33.11	-172.35	-25.78	-82.38	-25.78	-82.38	-24.19	-26.95
13.81	-33	-173.62	-25.78	-82.94	-25.78	-82.95	-24.14	-27.15
13.91	-32.85	-175.71	-25.77	-83.63	-25.75	-83.45	-24.1	-27.66
14.01	-32.66	-177.17	-25.75	-84.25	-25.74	-84.17	-24.07	-27.91
14.11	-32.45	-179.27	-25.74	-84.78	-25.74	-84.66	-24.1	-28.09
14.21	-32.2	178.38	-25.74	-85.17	-25.75	-85.03	-24.07	-28.03
14.31	-32.08	175.28	-25.7	-85.65	-25.7	-85.57	-24.03	-28.14
14.41	-32.04	173.69	-25.67	-86.37	-25.69	-86.32	-23.98	-28.11
14.51	-31.92	171.44	-25.68	-86.98	-25.68	-86.86	-23.9	-28.48
14.61	-31.89	170.15	-25.69	-87.51	-25.67	-87.47	-23.84	-28.93
14.71	-31.73	169.3	-25.65	-88.06	-25.64	-87.9	-23.79	-29.54
14.81	-31.61	168.49	-25.64	-88.79	-25.63	-88.58	-23.79	-29.97
14.91	-31.36	167.87	-25.65	-89.4	-25.64	-89.16	-23.79	-30.2
15.01	-31.15	165.36	-25.63	-89.73	-25.63	-89.6	-23.76	-30.09
15.11	-31.01	163.18	-25.61	-90.26	-25.61	-90.16	-23.71	-30.49
15.21	-30.98	161.17	-25.59	-90.89	-25.58	-90.84	-23.63	-30.55
15.31	-31.04	159.19	-25.59	-91.49	-25.57	-91.37	-23.58	-31.13
15.41	-30.94	158.12	-25.6	-91.9	-25.58	-91.77	-23.57	-31.37
15.51	-30.81	157.09	-25.57	-92.31	-25.54	-92.18	-23.51	-31.85
15.61	-30.51	156.01	-25.54	-92.9	-25.54	-92.8	-23.52	-32.34
15.71	-30.22	154.55	-25.5	-93.58	-25.5	-93.42	-23.53	-32.56
15.81	-29.95	152.73	-25.51	-94.22	-25.51	-94.07	-23.52	-32.75
15.91	-29.72	150.74	-25.49	-94.67	-25.49	-94.55	-23.47	-33.12
16.01	-29.66	148.21	-25.48	-95.06	-25.47	-95.02	-23.46	-33.56
16.11	-29.59	146.52	-25.46	-95.37	-25.44	-95.35	-23.43	-34
16.21	-29.6	145.46	-25.41	-96.03	-25.37	-95.92	-23.46	-34.66
16.31	-29.53	145.5	-25.37	-96.63	-25.35	-96.43	-23.46	-34.72
16.41	-29.29	144.94	-25.34	-97.23	-25.32	-97	-23.46	-35.19
16.51	-29.01	143.65	-25.32	-97.88	-25.29	-97.68	-23.44	-35.7
16.61	-28.88	141.99	-25.27	-98.46	-25.26	-98.35	-23.47	-36.12
16.71	-28.79	140.77	-25.25	-98.94	-25.22	-98.93	-23.62	-36.65
16.81	-28.72	139.46	-25.24	-99.55	-25.2	-99.59	-23.64	-36.03
16.91	-28.72	138.26	-25.21	-99.89	-25.15	-99.88	-23.71	-35.52
17.01	-28.75	139.21	-25.14	-100.61	-25.09	-100.66	-23.54	-34.68
17.11	-28.54	139.24	-25.14	-101.29	-25.06	-101.3	-23.28	-34.46
17.21	-28.27	138.8	-25.08	-101.77	-25.03	-101.99	-23	-37.58
17.31	-28	137.43	-25.06	-102.25	-25.04	-102.57	-23.31	-39.93
17.41	-27.93	135.8	-24.94	-102.65	-24.97	-103.2	-23.88	-40.29
17.51	-27.89	134.48	-24.89	-103.68	-24.91	-104.12	-24.06	-36.58
17.61	-27.9	132.91	-24.82	-103.97	-24.86	-104.52	-23.74	-34.17
17.71	-28	132.18	-24.73	-105.12	-24.78	-105.38	-23.24	-35.35
17.81	-27.96	132.14	-24.71	-105.97	-24.74	-106.1	-23.14	-37.73
17.91	-27.85	131.89	-24.67	-106.97	-24.71	-106.86	-23.46	-39.5
18.01	-27.54	130.99	-24.63	-107.78	-24.68	-107.66	-23.78	-38.7
18.11	-27.42	128.88	-24.6	-108.51	-24.65	-108.31	-23.83	-36.55
18.21	-27.35	128.05	-24.55	-109.54	-24.58	-109.35	-23.66	-35.59
18.31	-27.25	127.2	-24.51	-110.44	-24.55	-110.34	-23.49	-34.92
18.41	-27.24	126.45	-24.48	-111.08	-24.52	-111.07	-23.3	-36.58
18.51	-27.25	126.86	-24.44	-112.33	-24.45	-112.19	-23.39	-36.67
18.61	-27.08	127.02	-24.48	-113.16	-24.47	-112.88	-23.41	-37.76
18.71	-27.04	127.54	-24.43	-113.92	-24.42	-113.7	-23.53	-37.64
18.81	-26.79	127.21	-24.36	-114.8	-24.38	-114.51	-23.62	-37.44
18.91	-26.7	126.19	-24.31	-115.83	-24.31	-115.59	-23.71	-36.26
19.01	-26.6	125.91	-24.28	-116.93	-24.31	-116.84	-23.55	-35.51
19.11	-26.51	125.81	-24.3	-117.91	-24.32	-117.85	-23.48	-35.56
19.21	-26.5	125.55	-24.3	-118.61	-24.28	-118.49	-23.41	-36.08
19.31	-26.4	125.99	-24.21	-119.84	-24.19	-119.72	-23.55	-35.97
19.41	-26.17	126.36	-24.27	-121.32	-24.27	-121.16	-23.51	-34.76
19.51	-26.06	126.31	-24.3	-122.32	-24.28	-122.09	-23.42	-34.12
19.61	-25.81	125.45	-24.33	-123.01	-24.34	-122.78	-23.24	-34.45
19.71	-25.76	124.81	-24.3	-123.69	-24.31	-123.49	-23.28	-34.89
19.81	-25.82	124.15	-24.2	-124.86	-24.2	-124.71	-23.2	-34.43
19.91	-25.76	124.43	-24.25	-126.18	-24.27	-126.07	-23.13	-34.08
20.01	-25.68	125.52	-24.33	-127.33	-24.3	-127.27	-22.96	-33.54