!s2p File: Measurements: S11, S21, S12, S22								
# GHz S dB R 50.0								
0.01	-25.35	-0.16	-31.44	-0.3	-31.45	0.13	-24.45	-1.71
0.11	-25.54	-1.51	-31.57	-1.31	-31.57	-1.29	-25.37	-5.34
0.21	-25.6	-1.84	-31.63	-1.75	-31.63	-1.83	-25.72	-4.95
0.31	-25.61	-2.34	-31.63	-2.3	-31.63	-2.3	-25.82	-4.78
0.41	-25.61	-2.91	-31.66	-2.86	-31.65	-2.86	-25.88	-4.99
0.51	-25.61	-3.41	-31.66	-3.4	-31.65	-3.35	-25.92	-5.34
0.61	-25.61	-3.99	-31.66	-3.97	-31.65	-4.01	-25.94	-5.78
0.71	-25.61	-4.6	-31.66	-4.6	-31.66	-4.54	-25.95	-6.28
0.81	-25.61	-5.17	-31.67	-5.21	-31.66	-5.21	-25.96	-6.9
0.91	-25.62	-5.79	-31.67	-5.76	-31.67	-5.76	-25.98	-7.45
1.01	-25.63	-6.41	-31.68	-6.38	-31.67	-6.37	-25.99	-8.02
1.11	-25.63	-7.03	-31.68	-6.98	-31.68	-7.02	-26	-8.67
1.21	-25.64	-7.69	-31.68	-7.59	-31.68	-7.6	-26	-9.29
1.31	-25.65	-8.41	-31.69	-8.17	-31.69	-8.19	-26.01	-10.03
1.41	-25.67	-9.23	-31.69	-8.79	-31.69	-8.84	-26.04	-10.78
1.51	-25.7	-9.86	-31.7	-9.43	-31.69	-9.43	-26.07	-11.35
1.61	-25.68	-10.53	-31.7	-10.02	-31.7	-10.02	-26.07	-11.95
1.71	-25.67	-11.33	-31.7	-10.64	-31.71	-10.62	-26.07	-12.72
1.81	-25.66	-12.29	-31.71	-11.22	-31.71	-11.21	-26.07	-13.54
1.91	-25.68	-13.11	-31.72	-11.91	-31.72	-11.83	-26.09	-14.35
2.01	-25.7	-13.87	-31.73	-12.44	-31.72	-12.48	-26.12	-15.11
2.11	-25.72	-14.61	-31.73	-13.03	-31.72	-13.08	-26.14	-15.89
2.21	-25.73	-15.38	-31.74	-13.7	-31.74	-13.67	-26.17	-16.55
2.31	-25.74	-16.14	-31.74	-14.32	-31.74	-14.29	-26.19	-17.28
2.41	-25.75	-16.95	-31.75	-14.92	-31.75	-14.88	-26.21	-18
2.51	-25.78	-17.65	-31.75	-15.5	-31.76	-15.5	-26.24	-18.74
2.61	-25.82	-18.35	-31.77	-16.15	-31.76	-16.13	-26.29	-19.49
2.71	-25.85	-18.92	-31.78	-16.69	-31.77	-16.75	-26.31	-20.18
2.81	-25.89	-19.5	-31.78	-17.34	-31.78	-17.31	-26.36	-20.83
2.91	-25.91	-20.1	-31.79	-17.94	-31.79	-17.94	-26.39	-21.5
3.01	-25.93	-20.84	-31.79	-18.53	-31.8	-18.53	-26.42	-22.1
3.11	-25.96	-21.63	-31.81	-19.07	-31.8	-19.1	-26.45	-22.85
3.21	-26	-22.37	-31.82	-19.78	-31.81	-19.73	-26.49	-23.54
3.31	-26.05	-23.12	-31.83	-20.41	-31.82	-20.3	-26.54	-24.24
3.41	-26.09	-23.84	-31.83	-20.92	-31.83	-20.97	-26.58	-24.85
3.51	-26.12	-24.54	-31.85	-21.6	-31.83	-21.57	-26.62	-25.54
3.61	-26.16	-25.34	-31.86	-22.14	-31.85	-22.21	-26.66	-26.21
3.71	-26.2	-26.28	-31.86	-22.72	-31.87	-22.76	-26.7	-27.02
3.81	-26.26	-27.19	-31.88	-23.4	-31.88	-23.33	-26.75	-27.78
3.91	-26.33	-27.98	-31.89	-23.89	-31.89	-23.89	-26.81	-28.6
4.01	-26.39	-28.63	-31.9	-24.59	-31.9	-24.55	-26.88	-29.27
4.11	-26.41	-29.34	-31.91	-25.13	-31.91	-25.11	-26.94	-29.8
4.21	-26.44	-30.19	-31.93	-25.82	-31.91	-25.79	-26.97	-30.4
4.31	-26.48	-31.26	-31.94	-26.44	-31.94	-26.41	-27	-31.16
4.41	-26.55	-32.37	-31.95	-26.97	-31.95	-26.96	-27.03	-31.99
4.51	-26.64	-33.09	-31.98	-27.53	-31.97	-27.56	-27.1	-32.86
4.61	-26.72	-33.69	-31.98	-28.13	-31.98	-28.17	-27.17	-33.66
4.71	-26.73	-34.26	-32	-28.73	-31.99	-28.74	-27.27	-34.28
4.81	-26.74	-34.96	-32.01	-29.4	-32.01	-29.35	-27.33	-34.81
4.91	-26.75	-35.99	-32.02	-29.94	-32.03	-29.91	-27.37	-35.27
5.01	-26.78	-37.06	-32.03	-30.6	-32.04	-30.46	-27.42	-35.86
5.11	-26.88	-38.08	-32.06	-31.09	-32.05	-31.07	-27.44	-36.64
5.21	-26.98	-38.84	-32.07	-31.7	-32.07	-31.68	-27.51	-37.37
5.31	-27.06	-39.46	-32.09	-32.35	-32.1	-32.24	-27.6	-38.24
5.41	-27.14	-39.92	-32.1	-32.94	-32.11	-32.91	-27.7	-38.9
5.51	-27.18	-40.57	-32.12	-33.52	-32.13	-33.48	-27.81	-39.36
5.61	-27.24	-41.47	-32.15	-34.1	-32.15	-34.12	-27.88	-39.7
5.71	-27.32	-42.46	-32.16	-34.68	-32.16	-34.61	-27.94	-40.28
5.81	-27.42	-43.57	-32.19	-35.31	-32.19	-35.22	-27.97	-40.77
5.91	-27.56	-44.5	-32.21	-35.86	-32.21	-35.86	-28.03	-41.66
6.01	-27.68	-45.24	-32.23	-36.48	-32.24	-36.44	-28.09	-42.43
6.11	-27.77	-45.89	-32.26	-37.11	-32.25	-36.97	-28.19	-43.16
6.21	-27.83	-46.66	-32.28	-37.61	-32.28	-37.59	-28.29	-43.67
6.31	-27.88	-47.55	-32.31	-38.23	-32.31	-38.18	-28.36	-44.09
6.41	-27.95	-48.55	-32.34	-38.7	-32.33	-38.68	-28.47	-44.5
6.51	-28.03	-49.69	-32.36	-39.28	-32.37	-39.24	-28.51	-44.96
6.61	-28.15	-50.77	-32.4	-39.82	-32.38	-39.77	-28.58	-45.66
6.71	-28.26	-51.74	-32.41	-40.4	-32.41	-40.3	-28.66	-46.4
6.81	-28.36	-52.63	-32.45	-40.88	-32.43	-40.84	-28.77	-47.09
6.91	-28.43	-53.57	-32.48	-41.39	-32.47	-41.34	-28.89	-47.81
7.01	-28.49	-54.48	-32.5	-41.97	-32.49	-41.97	-28.99	-48.24
7.11	-28.55	-55.51	-32.52	-42.51	-32.54	-42.51	-29.08	-48.72
7.21	-28.65	-56.6	-32.54	-43.03	-32.55	-42.97	-29.14	-48.96
7.31	-28.76	-57.57	-32.58	-43.74	-32.58	-43.72	-29.16	-49.66
7.41	-28.86	-58.4	-32.66	-44.35	-32.66	-44.22	-29.19	-50.38
7.51	-28.94	-59.33	-32.69	-44.54	-32.7	-44.54	-29.27	-51.22
7.61	-29.03	-60.12	-32.72	-45.05	-32.72	-44.94	-29.41	-51.91
7.71	-29.11	-61.02	-32.76	-45.42	-32.76	-45.4	-29.52	-52.44
7.81	-29.2	-61.96	-32.8	-45.85	-32.79	-45.91	-29.62	-52.95
7.91	-29.34	-62.82	-32.82	-46.37	-32.84	-46.31	-29.71	-53.42
8.01	-29.49	-64	-32.89	-46.78	-32.87	-46.7	-29.8	-53.96
8.11	-29.65	-65.01	-32.91	-47.13	-32.91	-47.07	-29.89	-54.97
8.21	-29.8	-66.07	-32.95	-47.47	-32.94	-47.61	-29.98	-55.85
8.31	-29.95	-67.05	-32.99	-47.93	-32.98	-47.97	-30.09	-56.7
8.41	-30.04	-68.14	-33.03	-48.36	-33.03	-48.23	-30.22	-57.49
8.51	-30.15	-69.46	-33.1	-48.6	-33.1	-48.47	-30.33	-58.31
8.61	-30.22	-70.87	-33.12	-48.81	-33.13	-48.65	-30.44	-59.12
8.71	-30.32	-72.53	-33.14	-48.98	-33.15	-48.82	-30.55	-59.95
8.81	-30.42	-74.08	-33.17	-49.2	-33.17	-49.12	-30.66	-60.76
8.91	-30.57	-75.69	-33.18	-49.51	-33.19	-49.38	-30.79	-61.84
9.01	-30.73	-77.11	-33.23	-49.82	-33.25	-49.62	-30.94	-62.93
9.11	-30.88	-78.58	-33.26	-49.8	-33.27	-49.76	-31.1	-63.86
9.21	-31	-79.93	-33.27	-49.91	-33.27	-49.86	-31.29	-64.85
9.31	-31.1	-81.24	-33.27	-50.09	-33.28	-50.09	-31.45	-65.84
9.41	-31.18	-82.73	-33.29	-50.38	-33.29	-50.2	-31.62	-66.82
9.51	-31.24	-84.34	-33.3	-50.46	-33.29	-50.38	-31.82	-67.79
9.61	-31.38	-86.13	-33.3	-50.67	-33.28	-50.5	-32	-68.54
9.71	-31.49	-87.85	-33.28	-50.78	-33.29	-50.68	-32.22	-69.57
9.81	-31.62	-89.38	-33.29	-50.88	-33.29	-50.84	-32.45	-70.51
9.91	-31.75	-90.51	-33.26	-51.12	-33.27	-51.09	-32.72	-71.67
10.01	-31.83	-91.8	-33.27	-51.37	-33.28	-51.31	-32.97	-72.62
10.11	-31.9	-93.1	-33.26	-51.55	-33.25	-51.45	-33.28	-73.77
10.21	-32	-94.64	-33.24	-51.51	-33.24	-51.44	-33.62	-74.77
10.31	-32.13	-96.58	-33.2	-51.87	-33.18	-51.8	-33.95	-75.62
10.41	-32.24	-98.51	-33.17	-52.1	-33.18	-51.99	-34.3	-75.9
10.51	-32.45	-100.54	-33.15	-52.27	-33.13	-52.15	-34.63	-76.32
10.61	-32.62	-102.73	-33.1	-52.54	-33.09	-52.56	-34.98	-77.04
10.71	-32.81	-104.58	-33.07	-52.95	-33.07	-52.89	-35.32	-78.04
10.81	-32.91	-106.65	-33.04	-53.44	-33.05	-53.4	-35.79	-78.9
10.91	-33.04	-109.12	-33.03	-53.78	-33.03	-53.61	-36.28	-80.08
11.01	-33.18	-111.42	-32.98	-53.99	-32.99	-53.82	-36.91	-80.6
11.11	-33.25	-113.66	-32.95	-54.42	-32.97	-54.38	-37.38	-80.56
11.21	-33.38	-116.07	-32.94	-54.9	-32.94	-54.74	-37.9	-80.73
11.31	-33.52	-117.77	-32.93	-55.16	-32.91	-55.16	-38.36	-80.43
11.41	-33.59	-119.88	-32.9	-55.46	-32.9	-55.43	-38.78	-81.24
11.51	-33.62	-121.77	-32.86	-55.98	-32.85	-55.8	-39.46	-81.84
11.61	-33.63	-123.7	-32.83	-56.28	-32.82	-56.13	-40.13	-82.89
11.71	-33.62	-126.09	-32.78	-56.72	-32.81	-56.6	-40.9	-83.81
11.81	-33.63	-129.27	-32.75	-57.08	-32.76	-56.94	-41.96	-83.74
11.91	-33.76	-131.86	-32.74	-57.51	-32.72	-57.53	-42.95	-80.45
12.01	-33.8	-134.17	-32.7	-58.18	-32.71	-58.07	-43.56	-80.08
12.11	-33.73	-135.81	-32.72	-58.62	-32.7	-58.71	-44.71	-77.88
12.21	-33.72	-137.75	-32.72	-58.8	-32.68	-58.75	-45.46	-75.81
12.31	-33.73	-139.95	-32.66	-59.13	-32.65	-59.03	-46.65	-75.42
12.41	-33.6	-142.25	-32.61	-59.84	-32.62	-59.68	-47.52	-73.92
12.51	-33.61	-145.16	-32.59	-60.14	-32.59	-60.02	-50.14	-73.25
12.61	-33.56	-147.61	-32.56	-60.58	-32.56	-60.47	-52.66	-64.48
12.71	-33.63	-150.91	-32.53	-61.16	-32.53	-61.04	-56.01	-46.3
12.81	-33.74	-153.99	-32.54	-61.32	-32.54	-61.22	-54.55	-5.5
12.91	-33.91	-156.17	-32.47	-61.89	-32.47	-61.71	-53.63	7.56
13.01	-33.87	-158.19	-32.5	-62.32	-32.49	-62.22	-51.04	21.64
13.11	-33.89	-160.72	-32.47	-62.86	-32.45	-62.73	-50.48	26.57
13.21	-33.82	-162.43	-32.5	-62.94	-32.49	-62.6	-49.53	35.5
13.31	-33.55	-165.21	-32.37	-63.17	-32.38	-63.1	-47.77	48.02
13.41	-33.4	-167.96	-32.32	-63.49	-32.34	-63.4	-46.12	49.37
13.51	-33.25	-170.98	-32.28	-64.28	-32.28	-64.04	-45.34	54.64
13.61	-33.13	-173.37	-32.27	-64.72	-32.29	-64.64	-43.93	53.7
13.71	-33.11	-175.93	-32.23	-65.04	-32.21	-65.06	-43	55.94
13.81	-33.05	-176.96	-32.2	-65.5	-32.19	-65.5	-42.17	56.05
13.91	-32.86	-178.73	-32.17	-66.15	-32.16	-65.98	-41.7	56.95
14.01	-32.63	-179.95	-32.12	-66.92	-32.1	-66.69	-40.99	57.08
14.11	-32.32	177.84	-32.1	-67.25	-32.11	-67.15	-40.3	60.28
14.21	-32.09	175.41	-32.08	-67.3	-32.09	-67.22	-39.45	60.49
14.31	-31.95	172.09	-31.98	-67.92	-31.99	-67.72	-38.79	60.05
14.41	-31.91	170.46	-31.95	-68.59	-31.96	-68.63	-38.05	60.07
14.51	-31.82	168.1	-31.95	-69.19	-31.95	-69.07	-37.61	58.77
14.61	-31.82	166.81	-31.94	-69.58	-31.92	-69.51	-37.24	57.65
14.71	-31.66	166.34	-31.86	-70.08	-31.83	-69.93	-37.04	57.09
14.81	-31.53	165.68	-31.83	-70.82	-31.84	-70.59	-36.66	57.69
14.91	-31.25	165.03	-31.85	-71.4	-31.85	-71.19	-36.25	58.25
15.01	-31.02	162.6	-31.82	-71.55	-31.82	-71.4	-35.59	58.07
15.11	-30.87	160.31	-31.76	-71.9	-31.76	-71.7	-35.3	57.26
15.21	-30.84	158.16	-31.71	-72.51	-31.72	-72.47	-34.83	56.09
15.31	-30.92	156.17	-31.71	-73.2	-31.68	-73.04	-34.63	55.25
15.41	-30.84	155.11	-31.69	-73.32	-31.69	-73.08	-34.22	55.17
15.51	-30.7	154.46	-31.62	-73.73	-31.61	-73.53	-33.99	54.29
15.61	-30.38	153.54	-31.56	-74.11	-31.57	-73.92	-33.78	54.3
15.71	-30.03	152.14	-31.5	-74.9	-31.51	-74.73	-33.44	54.87
15.81	-29.76	150.3	-31.51	-75.47	-31.51	-75.31	-33.12	54.73
15.91	-29.52	148.17	-31.48	-75.77	-31.48	-75.64	-32.82	53.86
16.01	-29.45	145.31	-31.42	-75.94	-31.4	-75.91	-32.64	53.52
16.11	-29.43	143.71	-31.34	-76.06	-31.34	-76.04	-32.43	53.08
16.21	-29.44	142.59	-31.25	-76.8	-31.21	-76.63	-32.33	53.44
16.31	-29.38	142.9	-31.18	-77.5	-31.16	-77.3	-31.99	53.22
16.41	-29.12	142.45	-31.12	-78.07	-31.09	-77.83	-31.82	53.29
16.51	-28.81	141.19	-31.06	-78.74	-31.05	-78.56	-31.67	52.74
16.61	-28.67	139.26	-31	-79.47	-30.98	-79.17	-31.5	53.09
16.71	-28.59	137.9	-30.92	-79.95	-30.9	-79.92	-31.41	55.08
16.81	-28.54	136.51	-30.93	-80.51	-30.89	-80.38	-30.8	55.66
16.91	-28.57	135.42	-30.83	-80.58	-30.77	-80.49	-30.31	56.13
17.01	-28.62	136.41	-30.72	-81.56	-30.66	-81.67	-29.76	53.4
17.11	-28.4	136.85	-30.69	-82.34	-30.61	-82.41	-29.4	49.31
17.21	-28.1	136.45	-30.63	-82.92	-30.57	-83.17	-30.2	44.21
17.31	-27.81	134.99	-30.58	-83.06	-30.57	-83.46	-30.83	49.28
17.41	-27.71	132.98	-30.41	-83.66	-30.42	-84.08	-30.58	58.92
17.51	-27.68	131.52	-30.32	-84.96	-30.35	-85.43	-28.97	59.91
17.61	-27.72	129.87	-30.23	-84.95	-30.27	-85.58	-28.07	55.53
17.71	-27.85	129	-30.08	-86.44	-30.15	-86.8	-28.05	49.14
17.81	-27.83	129.07	-30.04	-87.36	-30.07	-87.61	-28.45	47.26
17.91	-27.7	128.95	-29.97	-88.57	-30.03	-88.41	-28.69	50.79
18.01	-27.36	127.99	-29.92	-89.37	-29.96	-89.24	-28.21	53.95
18.11	-27.23	125.85	-29.85	-90.18	-29.9	-89.95	-27.38	53.89
18.21	-27.18	124.57	-29.76	-91.41	-29.81	-91.18	-26.99	51.17
18.31	-27.11	123.54	-29.71	-92.59	-29.77	-92.33	-26.66	49.16
18.41	-27.16	122.82	-29.68	-92.94	-29.7	-92.92	-26.81	46.57
18.51	-27.21	123.1	-29.59	-94.47	-29.59	-94.36	-26.73	47.08
18.61	-27.07	123.5	-29.63	-95.36	-29.6	-95.08	-26.76	47.21
18.71	-27	124.15	-29.51	-96.22	-29.52	-95.93	-26.56	48.06
18.81	-26.77	123.68	-29.39	-97.23	-29.42	-96.88	-26.32	48.5
18.91	-26.65	122.35	-29.32	-98.36	-29.32	-98.06	-25.91	48.83
19.01	-26.6	121.75	-29.26	-99.73	-29.28	-99.49	-25.59	47.32
19.11	-26.56	121.55	-29.27	-100.89	-29.31	-100.86	-25.44	46.29
19.21	-26.6	121.17	-29.22	-101.47	-29.22	-101.18	-25.36	45.18
19.31	-26.56	121.6	-29.05	-103.08	-29.04	-102.91	-25.28	46.03
19.41	-26.4	122.27	-29.12	-104.99	-29.13	-104.75	-24.92	45.98
19.51	-26.31	122.22	-29.09	-106.15	-29.09	-105.83	-24.63	45.6
19.61	-26.06	121.57	-29.12	-106.98	-29.14	-106.73	-24.45	43.82
19.71	-26.02	120.59	-29.06	-107.62	-29.08	-107.27	-24.39	43.65
19.81	-26.16	119.48	-28.81	-109.04	-28.79	-108.94	-24.18	43.07
19.91	-26.26	119.93	-28.86	-111.29	-28.89	-111.19	-23.94	42.7
20.01	-26.3	121.48	-28.94	-113.09	-28.93	-112.93	-23.68	41.53