!s2p File: Measurements: S11, S21, S12, S22								
# GHz S dB R 50.0								
0.01	-25.27	-0.26	-24.97	-0.34	-24.98	-0.29	-31.7	-3.76
0.11	-25.46	-1.53	-25.1	-1.34	-25.1	-1.33	-33.79	-9.52
0.21	-25.52	-1.84	-25.14	-1.9	-25.14	-1.89	-34.52	-7.01
0.31	-25.53	-2.35	-25.16	-2.54	-25.15	-2.51	-34.76	-4.83
0.41	-25.54	-2.88	-25.16	-3.19	-25.16	-3.18	-34.89	-3.5
0.51	-25.53	-3.44	-25.16	-3.83	-25.17	-3.85	-34.96	-2.26
0.61	-25.54	-3.96	-25.17	-4.54	-25.17	-4.52	-34.98	-1.39
0.71	-25.53	-4.53	-25.18	-5.24	-25.17	-5.24	-34.99	-0.51
0.81	-25.53	-5.11	-25.18	-5.94	-25.17	-5.93	-34.97	-0.03
0.91	-25.54	-5.75	-25.18	-6.64	-25.18	-6.63	-34.99	0.7
1.01	-25.55	-6.35	-25.18	-7.34	-25.18	-7.33	-34.96	1.31
1.11	-25.56	-6.96	-25.19	-8.04	-25.19	-8.04	-34.93	1.75
1.21	-25.56	-7.59	-25.2	-8.72	-25.19	-8.74	-34.89	2.29
1.31	-25.57	-8.36	-25.2	-9.45	-25.2	-9.43	-34.84	2.42
1.41	-25.59	-9.13	-25.21	-10.16	-25.2	-10.15	-34.87	2.62
1.51	-25.61	-9.83	-25.21	-10.86	-25.21	-10.83	-34.87	3.34
1.61	-25.61	-10.46	-25.21	-11.55	-25.21	-11.55	-34.79	3.92
1.71	-25.59	-11.25	-25.22	-12.29	-25.22	-12.27	-34.73	3.87
1.81	-25.59	-12.2	-25.23	-12.97	-25.22	-12.96	-34.68	3.67
1.91	-25.6	-13.01	-25.23	-13.66	-25.23	-13.66	-34.66	3.82
2.01	-25.62	-13.78	-25.24	-14.36	-25.24	-14.36	-34.66	4.03
2.11	-25.64	-14.52	-25.25	-15.06	-25.25	-15.09	-34.65	4.23
2.21	-25.64	-15.26	-25.26	-15.79	-25.25	-15.75	-34.62	4.46
2.31	-25.66	-15.98	-25.27	-16.44	-25.26	-16.47	-34.58	4.75
2.41	-25.68	-16.78	-25.27	-17.17	-25.27	-17.15	-34.54	4.94
2.51	-25.7	-17.46	-25.28	-17.84	-25.28	-17.84	-34.53	5.04
2.61	-25.74	-18.17	-25.29	-18.6	-25.28	-18.53	-34.51	5.36
2.71	-25.77	-18.74	-25.3	-19.26	-25.29	-19.23	-34.47	5.61
2.81	-25.8	-19.29	-25.31	-19.93	-25.3	-19.92	-34.46	6.02
2.91	-25.82	-19.93	-25.32	-20.63	-25.31	-20.62	-34.42	6.42
3.01	-25.85	-20.62	-25.33	-21.33	-25.32	-21.31	-34.36	6.82
3.11	-25.88	-21.4	-25.34	-22.02	-25.33	-21.99	-34.32	6.98
3.21	-25.92	-22.16	-25.34	-22.7	-25.34	-22.69	-34.27	7.34
3.31	-25.97	-22.91	-25.35	-23.41	-25.35	-23.39	-34.25	7.53
3.41	-26.01	-23.58	-25.36	-24.08	-25.36	-24.07	-34.2	8.05
3.51	-26.03	-24.3	-25.37	-24.77	-25.37	-24.75	-34.15	8.43
3.61	-26.07	-25.13	-25.39	-25.46	-25.38	-25.48	-34.09	8.72
3.71	-26.12	-25.97	-25.4	-26.16	-25.39	-26.13	-34.04	8.69
3.81	-26.18	-26.89	-25.41	-26.84	-25.41	-26.84	-33.99	8.73
3.91	-26.24	-27.68	-25.42	-27.51	-25.42	-27.54	-34.02	8.9
4.01	-26.3	-28.32	-25.43	-28.22	-25.43	-28.24	-33.98	9.48
4.11	-26.32	-29	-25.44	-28.9	-25.44	-28.87	-33.91	10.09
4.21	-26.34	-29.84	-25.45	-29.61	-25.45	-29.59	-33.77	10.4
4.31	-26.39	-30.91	-25.47	-30.24	-25.47	-30.25	-33.7	10.29
4.41	-26.46	-31.94	-25.48	-30.93	-25.48	-30.94	-33.64	10.03
4.51	-26.54	-32.75	-25.5	-31.6	-25.5	-31.63	-33.64	9.95
4.61	-26.61	-33.33	-25.51	-32.29	-25.51	-32.27	-33.63	10.29
4.71	-26.63	-33.91	-25.52	-33	-25.52	-32.99	-33.6	10.96
4.81	-26.65	-34.67	-25.54	-33.67	-25.54	-33.65	-33.49	11.45
4.91	-26.65	-35.61	-25.55	-34.34	-25.55	-34.31	-33.34	11.85
5.01	-26.69	-36.59	-25.56	-35.04	-25.56	-35.01	-33.22	11.97
5.11	-26.77	-37.61	-25.58	-35.69	-25.58	-35.66	-33.13	11.54
5.21	-26.87	-38.36	-25.59	-36.34	-25.59	-36.32	-33.07	11.61
5.31	-26.95	-39.01	-25.61	-37.05	-25.62	-37.02	-33.05	11.77
5.41	-27.03	-39.47	-25.63	-37.69	-25.63	-37.67	-33.01	12.31
5.51	-27.08	-40.11	-25.64	-38.39	-25.64	-38.39	-32.91	13.08
5.61	-27.14	-40.95	-25.67	-39.06	-25.66	-39.04	-32.76	13.51
5.71	-27.21	-41.94	-25.68	-39.73	-25.68	-39.72	-32.62	13.53
5.81	-27.31	-42.96	-25.69	-40.36	-25.69	-40.36	-32.47	13.43
5.91	-27.44	-43.88	-25.72	-41.06	-25.72	-41.02	-32.38	12.99
6.01	-27.55	-44.65	-25.74	-41.72	-25.74	-41.7	-32.34	12.91
6.11	-27.65	-45.31	-25.76	-42.4	-25.76	-42.39	-32.27	12.97
6.21	-27.71	-46.04	-25.78	-43.05	-25.78	-42.99	-32.16	13.27
6.31	-27.76	-46.9	-25.8	-43.73	-25.8	-43.67	-32.01	13.38
6.41	-27.83	-47.9	-25.82	-44.34	-25.82	-44.33	-31.88	13.56
6.51	-27.9	-48.94	-25.85	-44.98	-25.84	-44.96	-31.71	13.49
6.61	-28.01	-50.01	-25.87	-45.61	-25.86	-45.63	-31.64	13.26
6.71	-28.12	-51	-25.89	-46.26	-25.88	-46.26	-31.54	13.07
6.81	-28.22	-51.88	-25.91	-46.92	-25.9	-46.89	-31.48	12.94
6.91	-28.3	-52.73	-25.94	-47.53	-25.94	-47.49	-31.4	13.03
7.01	-28.35	-53.64	-25.95	-48.18	-25.95	-48.15	-31.28	13.07
7.11	-28.42	-54.58	-25.98	-48.76	-25.98	-48.74	-31.15	12.98
7.21	-28.51	-55.69	-26	-49.44	-26	-49.39	-30.97	12.74
7.31	-28.6	-56.63	-26.02	-50.14	-26.02	-50.1	-30.84	11.95
7.41	-28.69	-57.5	-26.07	-50.79	-26.07	-50.73	-30.74	11.2
7.51	-28.77	-58.41	-26.1	-51.3	-26.1	-51.24	-30.66	10.75
7.61	-28.87	-59.13	-26.12	-51.89	-26.12	-51.78	-30.6	10.64
7.71	-28.95	-60	-26.14	-52.46	-26.14	-52.42	-30.49	10.54
7.81	-29.03	-60.9	-26.17	-52.99	-26.18	-52.99	-30.4	10.38
7.91	-29.16	-61.72	-26.21	-53.61	-26.21	-53.58	-30.27	10.07
8.01	-29.29	-62.86	-26.24	-54.18	-26.24	-54.13	-30.17	9.57
8.11	-29.43	-63.89	-26.27	-54.66	-26.27	-54.64	-30.12	8.93
8.21	-29.6	-64.97	-26.3	-55.27	-26.3	-55.23	-30.08	8.34
8.31	-29.75	-65.93	-26.33	-55.77	-26.33	-55.76	-30.04	7.9
8.41	-29.84	-67.01	-26.36	-56.34	-26.36	-56.23	-30	7.54
8.51	-29.95	-68.22	-26.4	-56.74	-26.41	-56.72	-29.95	7.19
8.61	-30.02	-69.66	-26.43	-57.2	-26.43	-57.16	-29.88	6.76
8.71	-30.1	-71.22	-26.45	-57.65	-26.45	-57.54	-29.82	6.36
8.81	-30.21	-72.79	-26.48	-58.13	-26.47	-58.07	-29.76	5.93
8.91	-30.35	-74.32	-26.5	-58.55	-26.5	-58.53	-29.74	5.38
9.01	-30.49	-75.65	-26.53	-59.04	-26.53	-58.95	-29.74	5.05
9.11	-30.63	-77.1	-26.55	-59.37	-26.55	-59.35	-29.71	4.77
9.21	-30.75	-78.4	-26.57	-59.79	-26.57	-59.74	-29.7	4.54
9.31	-30.85	-79.73	-26.58	-60.22	-26.58	-60.15	-29.67	4.33
9.41	-30.93	-81.2	-26.59	-60.58	-26.59	-60.54	-29.63	4.13
9.51	-30.99	-82.76	-26.62	-61	-26.61	-60.96	-29.61	3.97
9.61	-31.13	-84.45	-26.62	-61.41	-26.61	-61.31	-29.55	3.86
9.71	-31.24	-86.18	-26.62	-61.77	-26.62	-61.72	-29.51	3.78
9.81	-31.37	-87.69	-26.63	-62.19	-26.63	-62.08	-29.48	3.73
9.91	-31.48	-88.85	-26.63	-62.6	-26.62	-62.54	-29.46	3.74
10.01	-31.57	-90.11	-26.63	-63.04	-26.64	-62.96	-29.42	3.74
10.11	-31.65	-91.45	-26.64	-63.41	-26.64	-63.37	-29.4	3.88
10.21	-31.76	-92.93	-26.64	-63.75	-26.64	-63.72	-29.36	4.18
10.31	-31.87	-94.75	-26.63	-64.23	-26.63	-64.1	-29.3	4.3
10.41	-32.01	-96.63	-26.62	-64.57	-26.61	-64.58	-29.18	4.61
10.51	-32.22	-98.51	-26.62	-65.03	-26.61	-65	-29.08	4.59
10.61	-32.37	-100.75	-26.6	-65.48	-26.6	-65.43	-29	4.64
10.71	-32.55	-102.54	-26.59	-66.01	-26.59	-65.93	-28.94	4.59
10.81	-32.69	-104.6	-26.58	-66.58	-26.58	-66.43	-28.87	4.84
10.91	-32.81	-107	-26.58	-67.03	-26.58	-66.91	-28.82	5.05
11.01	-32.96	-109	-26.57	-67.48	-26.57	-67.36	-28.72	5.58
11.11	-33.04	-111.15	-26.55	-67.93	-26.56	-67.92	-28.59	5.54
11.21	-33.14	-113.44	-26.55	-68.48	-26.55	-68.45	-28.49	5.64
11.31	-33.26	-115.26	-26.55	-68.93	-26.54	-68.93	-28.34	5.39
11.41	-33.32	-117.67	-26.54	-69.47	-26.54	-69.41	-28.25	5.02
11.51	-33.4	-119.3	-26.53	-70	-26.52	-69.91	-28.17	4.97
11.61	-33.44	-121.28	-26.52	-70.41	-26.5	-70.32	-28.1	4.99
11.71	-33.44	-123.62	-26.51	-70.98	-26.51	-70.91	-28.03	4.91
11.81	-33.51	-126.38	-26.49	-71.5	-26.49	-71.38	-27.91	5.15
11.91	-33.61	-128.99	-26.48	-72.02	-26.48	-71.95	-27.72	5.13
12.01	-33.6	-131.23	-26.47	-72.55	-26.47	-72.53	-27.6	4.56
12.11	-33.57	-133.09	-26.49	-73.26	-26.48	-73.21	-27.48	4.33
12.21	-33.57	-135.1	-26.49	-73.56	-26.47	-73.52	-27.37	3.84
12.31	-33.63	-137.29	-26.47	-74.08	-26.46	-74.02	-27.3	3.37
12.41	-33.54	-139.53	-26.44	-74.76	-26.44	-74.55	-27.22	2.86
12.51	-33.59	-142.35	-26.45	-75.24	-26.44	-75.07	-27.17	2.95
12.61	-33.55	-144.39	-26.42	-75.67	-26.43	-75.65	-27.07	2.9
12.71	-33.63	-147.55	-26.42	-76.3	-26.41	-76.17	-26.95	2.95
12.81	-33.71	-150.42	-26.43	-76.74	-26.43	-76.69	-26.72	2.74
12.91	-33.87	-152.82	-26.4	-77.26	-26.39	-77.19	-26.61	2.06
13.01	-33.82	-154.97	-26.42	-77.87	-26.41	-77.78	-26.44	1.68
13.11	-33.88	-157.56	-26.4	-78.47	-26.39	-78.37	-26.38	0.77
13.21	-33.81	-159.39	-26.44	-78.81	-26.44	-78.61	-26.32	0.35
13.31	-33.6	-162.23	-26.38	-79.21	-26.38	-79.06	-26.26	0.41
13.41	-33.48	-164.86	-26.36	-79.63	-26.37	-79.63	-26.12	0.03
13.51	-33.32	-167.82	-26.34	-80.32	-26.35	-80.2	-26.08	-0.42
13.61	-33.23	-170.05	-26.33	-80.77	-26.33	-80.78	-25.92	-0.8
13.71	-33.19	-172.67	-26.31	-81.3	-26.31	-81.26	-25.84	-1.21
13.81	-33.1	-173.95	-26.3	-81.89	-26.29	-81.84	-25.74	-1.73
13.91	-32.94	-176.02	-26.29	-82.47	-26.27	-82.38	-25.68	-2.49
14.01	-32.73	-177.43	-26.27	-83.19	-26.26	-83.07	-25.6	-2.99
14.11	-32.5	-179.67	-26.26	-83.72	-26.27	-83.55	-25.59	-3.15
14.21	-32.28	178.1	-26.26	-84.06	-26.27	-83.91	-25.49	-3.27
14.31	-32.14	174.9	-26.21	-84.51	-26.22	-84.4	-25.38	-3.67
14.41	-32.11	173.45	-26.19	-85.21	-26.2	-85.2	-25.28	-3.85
14.51	-31.98	170.99	-26.19	-85.81	-26.2	-85.73	-25.17	-4.58
14.61	-31.96	169.85	-26.2	-86.37	-26.18	-86.29	-25.07	-5.4
14.71	-31.79	168.99	-26.17	-86.88	-26.15	-86.69	-25	-6.36
14.81	-31.68	168.28	-26.16	-87.64	-26.14	-87.42	-24.99	-6.81
14.91	-31.42	167.54	-26.16	-88.18	-26.16	-88.03	-24.94	-7.14
15.01	-31.23	165.15	-26.14	-88.54	-26.15	-88.35	-24.85	-7.15
15.11	-31.06	162.91	-26.11	-89.02	-26.12	-88.95	-24.76	-7.92
15.21	-31.03	160.66	-26.09	-89.66	-26.09	-89.57	-24.62	-8.35
15.31	-31.08	158.81	-26.1	-90.24	-26.08	-90.15	-24.55	-9.16
15.41	-31	157.6	-26.1	-90.63	-26.09	-90.49	-24.5	-9.61
15.51	-30.89	156.68	-26.07	-91.08	-26.05	-90.91	-24.42	-10.35
15.61	-30.56	155.65	-26.05	-91.65	-26.03	-91.47	-24.41	-11
15.71	-30.27	154.26	-26	-92.33	-26	-92.08	-24.4	-11.27
15.81	-29.99	152.44	-26.01	-92.97	-26.01	-92.81	-24.34	-11.59
15.91	-29.77	150.44	-25.99	-93.33	-26	-93.23	-24.26	-12.14
16.01	-29.7	147.96	-25.98	-93.74	-25.96	-93.67	-24.2	-12.77
16.11	-29.63	146.21	-25.96	-94.06	-25.94	-94	-24.16	-13.4
16.21	-29.63	145.02	-25.9	-94.66	-25.87	-94.55	-24.17	-14.23
16.31	-29.58	145.17	-25.86	-95.26	-25.85	-95.1	-24.14	-14.41
16.41	-29.33	144.67	-25.83	-95.81	-25.81	-95.57	-24.12	-14.98
16.51	-29.06	143.34	-25.8	-96.49	-25.78	-96.29	-24.08	-15.63
16.61	-28.93	141.56	-25.76	-97.07	-25.75	-96.92	-24.08	-16.13
16.71	-28.82	140.35	-25.73	-97.53	-25.7	-97.5	-24.19	-16.43
16.81	-28.76	139.03	-25.72	-98.14	-25.69	-98.16	-24.14	-15.83
16.91	-28.76	137.81	-25.69	-98.39	-25.62	-98.37	-24.12	-15.37
17.01	-28.8	138.82	-25.62	-99.12	-25.56	-99.14	-23.88	-15.19
17.11	-28.59	138.89	-25.6	-99.79	-25.52	-99.82	-23.59	-15.72
17.21	-28.33	138.64	-25.55	-100.26	-25.5	-100.48	-23.44	-19.39
17.31	-28.07	137.21	-25.52	-100.71	-25.5	-101.06	-23.81	-21.08
17.41	-27.96	135.53	-25.4	-101.13	-25.42	-101.56	-24.35	-20.27
17.51	-27.92	134.22	-25.33	-102.16	-25.36	-102.54	-24.26	-16.27
17.61	-27.95	132.58	-25.28	-102.41	-25.32	-102.97	-23.79	-14.87
17.71	-28.06	131.87	-25.18	-103.57	-25.23	-103.75	-23.33	-17.1
17.81	-28.02	131.78	-25.15	-104.38	-25.18	-104.54	-23.3	-19.69
17.91	-27.91	131.56	-25.11	-105.42	-25.15	-105.3	-23.64	-20.94
18.01	-27.58	130.64	-25.07	-106.23	-25.11	-106.01	-23.86	-19.64
18.11	-27.47	128.65	-25.03	-106.93	-25.08	-106.66	-23.74	-17.67
18.21	-27.4	127.79	-24.97	-107.92	-25.01	-107.73	-23.5	-17.38
18.31	-27.3	126.96	-24.93	-108.84	-24.97	-108.71	-23.28	-17.23
18.41	-27.32	126.19	-24.9	-109.43	-24.93	-109.39	-23.13	-19.32
18.51	-27.32	126.5	-24.84	-110.65	-24.85	-110.51	-23.18	-19.51
18.61	-27.16	126.9	-24.88	-111.52	-24.86	-111.26	-23.21	-20.44
18.71	-27.11	127.32	-24.82	-112.27	-24.81	-112.01	-23.28	-20.42
18.81	-26.86	127	-24.73	-113.14	-24.75	-112.89	-23.31	-20.23
18.91	-26.77	126.1	-24.69	-114.2	-24.68	-113.91	-23.31	-19.18
19.01	-26.67	125.74	-24.64	-115.38	-24.67	-115.23	-23.1	-18.93
19.11	-26.56	125.8	-24.67	-116.34	-24.68	-116.29	-22.99	-19.22
19.21	-26.56	125.41	-24.65	-117.01	-24.63	-116.89	-22.91	-20.08
19.31	-26.46	125.84	-24.54	-118.28	-24.52	-118.15	-23.02	-20
19.41	-26.24	126.3	-24.61	-119.95	-24.6	-119.72	-22.93	-19.08
19.51	-26.13	126.31	-24.62	-120.91	-24.61	-120.64	-22.81	-18.62
19.61	-25.87	125.55	-24.65	-121.65	-24.66	-121.39	-22.61	-19.32
19.71	-25.81	124.84	-24.62	-122.38	-24.63	-122.13	-22.63	-19.79
19.81	-25.87	124.24	-24.5	-123.41	-24.51	-123.38	-22.51	-19.68
19.91	-25.82	124.52	-24.55	-124.97	-24.57	-124.86	-22.4	-19.5
20.01	-25.73	125.56	-24.63	-126.27	-24.61	-126.14	-22.2	-19.4