!s2p File: Measurements: S11, S21, S12, S22								
# GHz S dB R 50.0								
0.01	-15.83	-0.76	-13.34	-0.35	-13.34	-0.39	-29.2	-3.3
0.11	-16.09	-1.85	-13.46	-1.41	-13.46	-1.41	-30.82	-8.07
0.21	-16.17	-2.31	-13.49	-2.13	-13.49	-2.12	-31.34	-7.01
0.31	-16.2	-2.86	-13.51	-2.9	-13.5	-2.89	-31.51	-6.37
0.41	-16.21	-3.45	-13.51	-3.68	-13.51	-3.66	-31.6	-6.4
0.51	-16.22	-4.07	-13.51	-4.49	-13.51	-4.48	-31.66	-6.62
0.61	-16.23	-4.7	-13.52	-5.3	-13.52	-5.3	-31.7	-6.94
0.71	-16.23	-5.37	-13.52	-6.13	-13.52	-6.12	-31.73	-7.39
0.81	-16.23	-6.02	-13.53	-6.96	-13.52	-6.95	-31.74	-8.02
0.91	-16.24	-6.71	-13.53	-7.78	-13.52	-7.78	-31.78	-8.51
1.01	-16.24	-7.38	-13.53	-8.6	-13.53	-8.6	-31.8	-9.04
1.11	-16.24	-8.07	-13.54	-9.43	-13.53	-9.43	-31.81	-9.66
1.21	-16.25	-8.78	-13.54	-10.26	-13.54	-10.26	-31.82	-10.31
1.31	-16.25	-9.51	-13.54	-11.1	-13.54	-11.09	-31.85	-11.08
1.41	-16.26	-10.27	-13.55	-11.94	-13.54	-11.93	-31.89	-11.91
1.51	-16.27	-10.99	-13.55	-12.77	-13.55	-12.77	-31.94	-12.4
1.61	-16.26	-11.71	-13.55	-13.6	-13.55	-13.6	-31.95	-12.96
1.71	-16.26	-12.47	-13.56	-14.43	-13.55	-14.42	-31.95	-13.77
1.81	-16.26	-13.28	-13.56	-15.25	-13.56	-15.25	-31.97	-14.76
1.91	-16.27	-14.05	-13.57	-16.07	-13.57	-16.08	-32	-15.74
2.01	-16.27	-14.8	-13.57	-16.92	-13.57	-16.91	-32.06	-16.55
2.11	-16.28	-15.56	-13.58	-17.74	-13.57	-17.74	-32.11	-17.38
2.21	-16.29	-16.31	-13.58	-18.57	-13.58	-18.57	-32.15	-18.07
2.31	-16.3	-17.06	-13.59	-19.4	-13.59	-19.4	-32.22	-18.84
2.41	-16.3	-17.83	-13.59	-20.23	-13.59	-20.22	-32.25	-19.54
2.51	-16.31	-18.55	-13.6	-21.04	-13.6	-21.05	-32.32	-20.36
2.61	-16.32	-19.28	-13.6	-21.87	-13.6	-21.87	-32.39	-21.01
2.71	-16.34	-19.97	-13.61	-22.69	-13.61	-22.69	-32.46	-21.72
2.81	-16.35	-20.67	-13.62	-23.52	-13.61	-23.52	-32.54	-22.45
2.91	-16.36	-21.38	-13.62	-24.34	-13.62	-24.34	-32.61	-23.02
3.01	-16.37	-22.13	-13.63	-25.16	-13.62	-25.15	-32.68	-23.53
3.11	-16.38	-22.88	-13.63	-25.99	-13.63	-25.99	-32.75	-24.2
3.21	-16.4	-23.62	-13.64	-26.8	-13.64	-26.81	-32.82	-24.81
3.31	-16.42	-24.38	-13.64	-27.64	-13.64	-27.64	-32.93	-25.54
3.41	-16.44	-25.12	-13.65	-28.45	-13.65	-28.46	-33	-26.05
3.51	-16.45	-25.87	-13.66	-29.27	-13.65	-29.28	-33.11	-26.61
3.61	-16.46	-26.62	-13.66	-30.08	-13.66	-30.11	-33.21	-27.21
3.71	-16.48	-27.41	-13.67	-30.91	-13.67	-30.94	-33.27	-27.91
3.81	-16.5	-28.22	-13.68	-31.74	-13.68	-31.76	-33.37	-28.73
3.91	-16.53	-28.99	-13.69	-32.56	-13.68	-32.58	-33.52	-29.68
4.01	-16.55	-29.71	-13.69	-33.39	-13.69	-33.39	-33.64	-30.11
4.11	-16.56	-30.47	-13.69	-34.23	-13.7	-34.22	-33.78	-30.49
4.21	-16.57	-31.24	-13.7	-35.04	-13.7	-35.04	-33.85	-30.81
4.31	-16.6	-32.08	-13.71	-35.85	-13.71	-35.86	-33.93	-31.38
4.41	-16.62	-32.94	-13.72	-36.67	-13.72	-36.68	-34	-32.35
4.51	-16.65	-33.69	-13.73	-37.47	-13.73	-37.5	-34.12	-33.16
4.61	-16.67	-34.41	-13.74	-38.31	-13.74	-38.32	-34.28	-33.89
4.71	-16.69	-35.11	-13.74	-39.15	-13.75	-39.15	-34.47	-34.29
4.81	-16.7	-35.85	-13.75	-39.98	-13.75	-39.97	-34.64	-34.39
4.91	-16.71	-36.65	-13.76	-40.79	-13.76	-40.79	-34.73	-34.44
5.01	-16.73	-37.46	-13.76	-41.6	-13.77	-41.59	-34.84	-34.51
5.11	-16.75	-38.26	-13.78	-42.41	-13.78	-42.41	-34.91	-35.27
5.21	-16.78	-39.02	-13.79	-43.23	-13.79	-43.24	-35.05	-35.63
5.31	-16.81	-39.72	-13.8	-44.06	-13.8	-44.06	-35.23	-36.36
5.41	-16.85	-40.41	-13.81	-44.88	-13.81	-44.88	-35.47	-36.67
5.51	-16.87	-41.11	-13.82	-45.7	-13.81	-45.69	-35.69	-36.46
5.61	-16.89	-41.86	-13.83	-46.53	-13.83	-46.52	-35.83	-35.94
5.71	-16.92	-42.66	-13.83	-47.36	-13.84	-47.33	-35.97	-35.63
5.81	-16.95	-43.47	-13.84	-48.15	-13.85	-48.15	-36.06	-35.61
5.91	-16.99	-44.25	-13.86	-48.97	-13.86	-48.97	-36.15	-36.2
6.01	-17.03	-45.04	-13.86	-49.81	-13.87	-49.8	-36.31	-36.73
6.11	-17.07	-45.73	-13.88	-50.62	-13.88	-50.62	-36.52	-36.83
6.21	-17.09	-46.47	-13.89	-51.42	-13.89	-51.43	-36.7	-36.5
6.31	-17.11	-47.23	-13.9	-52.24	-13.9	-52.23	-36.85	-36.03
6.41	-17.13	-48.02	-13.91	-53.04	-13.91	-53.05	-37.06	-35.43
6.51	-17.16	-48.87	-13.93	-53.83	-13.93	-53.85	-37.15	-34.87
6.61	-17.19	-49.68	-13.94	-54.67	-13.94	-54.67	-37.31	-34.85
6.71	-17.23	-50.49	-13.95	-55.49	-13.95	-55.47	-37.48	-34.71
6.81	-17.26	-51.26	-13.97	-56.29	-13.96	-56.28	-37.7	-34.78
6.91	-17.29	-52.03	-13.98	-57.08	-13.98	-57.07	-37.95	-34.72
7.01	-17.31	-52.82	-13.99	-57.89	-13.99	-57.89	-38.14	-33.61
7.11	-17.34	-53.6	-14	-58.66	-14	-58.69	-38.32	-32.96
7.21	-17.37	-54.42	-14.01	-59.49	-14.02	-59.51	-38.33	-31.82
7.31	-17.39	-55.2	-14.03	-60.34	-14.03	-60.34	-38.31	-31.77
7.41	-17.42	-55.95	-14.05	-61.15	-14.05	-61.14	-38.35	-32.02
7.51	-17.45	-56.78	-14.07	-61.93	-14.07	-61.91	-38.55	-32.29
7.61	-17.48	-57.52	-14.08	-62.73	-14.08	-62.69	-38.77	-31.56
7.71	-17.51	-58.27	-14.09	-63.51	-14.1	-63.47	-39	-30.94
7.81	-17.53	-59.06	-14.1	-64.24	-14.11	-64.28	-39.17	-29.85
7.91	-17.57	-59.81	-14.13	-65.05	-14.13	-65.08	-39.3	-28.95
8.01	-17.61	-60.65	-14.14	-65.84	-14.14	-65.85	-39.39	-28.38
8.11	-17.66	-61.48	-14.16	-66.61	-14.16	-66.61	-39.6	-28.61
8.21	-17.7	-62.29	-14.18	-67.4	-14.18	-67.4	-39.81	-28.74
8.31	-17.75	-63.11	-14.19	-68.19	-14.19	-68.17	-39.99	-28.49
8.41	-17.78	-63.91	-14.2	-68.94	-14.21	-68.92	-40.32	-27.88
8.51	-17.81	-64.8	-14.22	-69.7	-14.23	-69.69	-40.57	-27.7
8.61	-17.84	-65.71	-14.24	-70.43	-14.25	-70.42	-40.81	-26.93
8.71	-17.87	-66.66	-14.26	-71.19	-14.27	-71.14	-41.1	-26.14
8.81	-17.91	-67.57	-14.28	-71.92	-14.28	-71.89	-41.3	-25.24
8.91	-17.95	-68.5	-14.29	-72.65	-14.29	-72.64	-41.68	-24.78
9.01	-17.99	-69.36	-14.3	-73.41	-14.31	-73.34	-42.18	-24.42
9.11	-18.04	-70.31	-14.32	-74.11	-14.32	-74.08	-42.59	-22.57
9.21	-18.08	-71.17	-14.33	-74.83	-14.33	-74.82	-43.13	-20.47
9.31	-18.12	-72.07	-14.35	-75.58	-14.35	-75.53	-43.64	-17.97
9.41	-18.16	-72.97	-14.35	-76.29	-14.36	-76.25	-44.1	-14.77
9.51	-18.19	-73.88	-14.37	-77.03	-14.37	-77	-44.55	-10.73
9.61	-18.24	-74.82	-14.38	-77.76	-14.38	-77.71	-44.82	-5.63
9.71	-18.28	-75.74	-14.38	-78.47	-14.39	-78.44	-45.14	-0.16
9.81	-18.33	-76.63	-14.39	-79.17	-14.4	-79.16	-45.37	6.04
9.91	-18.37	-77.45	-14.4	-79.92	-14.4	-79.89	-45.51	13.35
10.01	-18.41	-78.28	-14.4	-80.68	-14.41	-80.61	-45.37	19.66
10.11	-18.46	-79.15	-14.42	-81.4	-14.42	-81.33	-45.22	27.18
10.21	-18.5	-80	-14.42	-82.09	-14.43	-82.07	-44.72	35.46
10.31	-18.56	-80.9	-14.43	-82.83	-14.43	-82.78	-43.91	40.19
10.41	-18.61	-81.8	-14.43	-83.55	-14.44	-83.54	-43.02	44.56
10.51	-18.68	-82.68	-14.44	-84.28	-14.44	-84.28	-42.25	47.46
10.61	-18.75	-83.67	-14.44	-85.04	-14.44	-85.02	-41.51	49.68
10.71	-18.81	-84.51	-14.44	-85.83	-14.45	-85.76	-40.98	51.81
10.81	-18.87	-85.36	-14.45	-86.6	-14.45	-86.52	-40.31	54.63
10.91	-18.93	-86.39	-14.45	-87.36	-14.46	-87.27	-39.69	56.89
11.01	-18.99	-87.21	-14.45	-88.11	-14.47	-88.04	-38.85	58.83
11.11	-19.04	-88.11	-14.46	-88.85	-14.47	-88.83	-38.19	58.7
11.21	-19.1	-89.09	-14.47	-89.61	-14.47	-89.59	-37.6	59.12
11.31	-19.15	-89.9	-14.48	-90.36	-14.48	-90.36	-37.1	58.74
11.41	-19.21	-90.86	-14.48	-91.14	-14.48	-91.13	-36.69	58.39
11.51	-19.26	-91.69	-14.49	-91.96	-14.49	-91.84	-36.24	58.71
11.61	-19.31	-92.53	-14.49	-92.7	-14.49	-92.61	-35.82	59.26
11.71	-19.36	-93.47	-14.49	-93.46	-14.51	-93.42	-35.37	59.09
11.81	-19.41	-94.42	-14.49	-94.22	-14.51	-94.16	-34.84	59.58
11.91	-19.48	-95.32	-14.51	-95	-14.51	-94.96	-34.33	58.33
12.01	-19.52	-96.27	-14.51	-95.74	-14.52	-95.78	-34.02	57.32
12.11	-19.55	-97.14	-14.52	-96.6	-14.52	-96.57	-33.64	56.7
12.21	-19.61	-98.05	-14.54	-97.33	-14.52	-97.3	-33.36	55.8
12.31	-19.66	-98.82	-14.54	-98.16	-14.54	-98.07	-33.09	55.29
12.41	-19.7	-99.78	-14.54	-99	-14.55	-98.81	-32.86	54.53
12.51	-19.76	-100.69	-14.55	-99.72	-14.55	-99.6	-32.54	55.07
12.61	-19.8	-101.54	-14.55	-100.45	-14.56	-100.38	-32.19	54.76
12.71	-19.88	-102.55	-14.55	-101.22	-14.57	-101.19	-31.8	54.17
12.81	-19.95	-103.45	-14.57	-101.98	-14.58	-102	-31.35	52.76
12.91	-20.04	-104.24	-14.58	-102.77	-14.58	-102.74	-31.14	51.64
13.01	-20.09	-105.21	-14.59	-103.62	-14.58	-103.54	-30.81	50.46
13.11	-20.18	-105.96	-14.6	-104.44	-14.59	-104.35	-30.66	49.47
13.21	-20.21	-106.77	-14.63	-105.2	-14.63	-105.02	-30.5	49.03
13.31	-20.27	-107.91	-14.61	-105.88	-14.62	-105.76	-30.18	49.12
13.41	-20.31	-108.92	-14.62	-106.63	-14.63	-106.59	-29.91	48.07
13.51	-20.37	-110.1	-14.62	-107.42	-14.64	-107.34	-29.76	47.65
13.61	-20.42	-111.06	-14.63	-108.15	-14.64	-108.15	-29.47	46.73
13.71	-20.5	-112.06	-14.63	-108.92	-14.64	-108.9	-29.26	46.1
13.81	-20.54	-112.98	-14.65	-109.76	-14.65	-109.73	-29.04	45.14
13.91	-20.6	-113.94	-14.66	-110.59	-14.66	-110.43	-28.91	44.34
14.01	-20.63	-114.93	-14.67	-111.39	-14.66	-111.27	-28.73	43.56
14.11	-20.67	-115.9	-14.67	-112.16	-14.68	-112.04	-28.56	43.67
14.21	-20.71	-117.03	-14.68	-112.93	-14.7	-112.77	-28.31	43.21
14.31	-20.8	-118.24	-14.68	-113.63	-14.7	-113.53	-28.09	42.43
14.41	-20.84	-118.97	-14.68	-114.39	-14.7	-114.36	-27.85	41.79
14.51	-20.92	-120.13	-14.7	-115.3	-14.7	-115.2	-27.67	40.68
14.61	-20.95	-120.88	-14.73	-116.08	-14.72	-115.96	-27.51	39.53
14.71	-20.99	-121.84	-14.73	-116.84	-14.73	-116.66	-27.41	38.58
14.81	-21.01	-122.65	-14.74	-117.69	-14.74	-117.48	-27.29	38.03
14.91	-20.99	-123.64	-14.75	-118.48	-14.76	-118.28	-27.15	37.71
15.01	-21.07	-124.78	-14.75	-119.17	-14.77	-119	-26.9	37.26
15.11	-21.13	-125.95	-14.76	-119.91	-14.77	-119.83	-26.75	36.19
15.21	-21.21	-126.77	-14.77	-120.69	-14.77	-120.63	-26.54	35.23
15.31	-21.3	-127.53	-14.8	-121.51	-14.78	-121.38	-26.41	34.29
15.41	-21.34	-128.37	-14.82	-122.25	-14.8	-122.11	-26.25	33.71
15.51	-21.38	-129.27	-14.83	-122.98	-14.81	-122.82	-26.13	32.73
15.61	-21.4	-130.57	-14.84	-123.8	-14.83	-123.59	-26.05	32.15
15.71	-21.44	-131.75	-14.83	-124.55	-14.84	-124.32	-25.92	31.92
15.81	-21.48	-132.97	-14.85	-125.32	-14.85	-125.13	-25.77	31.44
15.91	-21.53	-134.24	-14.85	-126.07	-14.86	-125.97	-25.62	30.68
16.01	-21.63	-135.31	-14.88	-126.75	-14.87	-126.68	-25.5	29.99
16.11	-21.7	-136.29	-14.89	-127.43	-14.87	-127.39	-25.39	29.29
16.21	-21.75	-137	-14.9	-128.24	-14.87	-128.12	-25.32	28.74
16.31	-21.73	-137.76	-14.91	-129	-14.89	-128.79	-25.17	28.3
16.41	-21.73	-138.94	-14.91	-129.7	-14.9	-129.47	-25.06	27.74
16.51	-21.75	-140.32	-14.91	-130.52	-14.9	-130.32	-24.97	27.05
16.61	-21.8	-141.48	-14.91	-131.29	-14.9	-131.08	-24.87	26.63
16.71	-21.82	-142.45	-14.93	-131.89	-14.91	-131.86	-24.86	26.77
16.81	-21.88	-143.52	-14.94	-132.69	-14.91	-132.66	-24.6	26.83
16.91	-21.94	-144.31	-14.96	-133.39	-14.91	-133.32	-24.42	26.92
17.01	-21.89	-144.81	-14.96	-134.05	-14.91	-134.05	-24.1	25.97
17.11	-21.85	-145.92	-14.98	-134.79	-14.92	-134.78	-23.82	24.13
17.21	-21.82	-147.12	-14.97	-135.41	-14.93	-135.55	-23.93	20.85
17.31	-21.85	-148.52	-14.97	-136.08	-14.95	-136.33	-24.21	21.1
17.41	-21.88	-149.67	-14.93	-136.68	-14.94	-137.06	-24.35	23.74
17.51	-21.92	-150.75	-14.9	-137.6	-14.93	-137.91	-23.8	25.75
17.61	-22.02	-151.6	-14.89	-138.2	-14.93	-138.63	-23.25	24.69
17.71	-22.04	-152.13	-14.87	-139.21	-14.91	-139.37	-22.98	21.39
17.81	-22.05	-152.86	-14.89	-140	-14.91	-140.11	-23.05	19.3
17.91	-22.03	-153.98	-14.88	-141.04	-14.92	-140.93	-23.22	19.42
18.01	-22.04	-155.67	-14.89	-141.93	-14.93	-141.75	-23.12	20.58
18.11	-22.14	-156.71	-14.89	-142.73	-14.93	-142.48	-22.8	21.02
18.21	-22.13	-158	-14.89	-143.52	-14.92	-143.37	-22.51	20
18.31	-22.13	-159.23	-14.88	-144.36	-14.91	-144.24	-22.26	19.18
18.41	-22.17	-160.27	-14.9	-145.12	-14.91	-145.04	-22.19	17.01
18.51	-22.12	-161.18	-14.9	-145.93	-14.91	-145.8	-22.14	16.67
18.61	-22.13	-162.23	-14.93	-146.83	-14.92	-146.55	-22.13	15.7
18.71	-22.03	-162.91	-14.92	-147.59	-14.91	-147.36	-22.08	15.57
18.81	-21.97	-164.54	-14.9	-148.48	-14.92	-148.19	-22	15.52
18.91	-21.98	-165.68	-14.9	-149.36	-14.9	-149.09	-21.82	15.71
19.01	-21.96	-167.08	-14.88	-150.17	-14.91	-150.04	-21.6	14.88
19.11	-21.93	-168.13	-14.9	-150.98	-14.91	-150.92	-21.47	14.09
19.21	-21.93	-169.1	-14.92	-151.83	-14.9	-151.66	-21.38	12.97
19.31	-21.86	-170.35	-14.9	-152.66	-14.89	-152.56	-21.37	12.84
19.41	-21.83	-171.66	-14.92	-153.75	-14.91	-153.59	-21.19	12.82
19.51	-21.77	-172.77	-14.95	-154.65	-14.93	-154.37	-21.02	12.41
19.61	-21.79	-174.45	-14.95	-155.48	-14.95	-155.23	-20.86	11.22
19.71	-21.78	-175.41	-14.95	-156.28	-14.95	-156.06	-20.82	10.64
19.81	-21.8	-176.47	-14.93	-157.06	-14.93	-156.92	-20.68	9.9
19.91	-21.77	-177.44	-14.93	-158.04	-14.94	-157.95	-20.55	9.59
20.01	-21.71	-178.56	-14.96	-159.02	-14.94	-158.91	-20.36	8.91