!s2p File: Measurements: S11, S21, S12, S22								
# GHz S dB R 50.0								
0.01	-25.08	-0.3	-18.13	-0.38	-18.15	-0.37	-14.06	-1.48
0.11	-25.29	-1.57	-18.28	-1.32	-18.27	-1.31	-14.52	-2.52
0.21	-25.35	-1.91	-18.31	-1.97	-18.3	-1.97	-14.6	-3.17
0.31	-25.36	-2.43	-18.32	-2.68	-18.31	-2.68	-14.63	-3.96
0.41	-25.37	-2.99	-18.32	-3.43	-18.32	-3.42	-14.65	-4.86
0.51	-25.36	-3.54	-18.33	-4.19	-18.32	-4.18	-14.66	-5.8
0.61	-25.37	-4.13	-18.33	-4.95	-18.33	-4.94	-14.67	-6.77
0.71	-25.37	-4.72	-18.34	-5.73	-18.33	-5.7	-14.68	-7.73
0.81	-25.36	-5.34	-18.34	-6.49	-18.34	-6.48	-14.69	-8.73
0.91	-25.37	-5.99	-18.35	-7.26	-18.34	-7.24	-14.7	-9.73
1.01	-25.38	-6.61	-18.35	-8.03	-18.35	-8.03	-14.71	-10.72
1.11	-25.39	-7.25	-18.35	-8.81	-18.35	-8.79	-14.72	-11.71
1.21	-25.4	-7.93	-18.36	-9.58	-18.36	-9.57	-14.73	-12.73
1.31	-25.4	-8.71	-18.37	-10.37	-18.36	-10.35	-14.75	-13.76
1.41	-25.42	-9.5	-18.37	-11.14	-18.37	-11.14	-14.76	-14.79
1.51	-25.45	-10.19	-18.38	-11.92	-18.37	-11.9	-14.78	-15.78
1.61	-25.44	-10.85	-18.39	-12.69	-18.38	-12.68	-14.79	-16.78
1.71	-25.43	-11.66	-18.39	-13.45	-18.39	-13.46	-14.81	-17.82
1.81	-25.42	-12.64	-18.4	-14.23	-18.4	-14.22	-14.82	-18.87
1.91	-25.44	-13.42	-18.41	-14.99	-18.41	-14.99	-14.84	-19.91
2.01	-25.46	-14.22	-18.42	-15.77	-18.41	-15.76	-14.86	-20.95
2.11	-25.47	-14.98	-18.43	-16.53	-18.42	-16.52	-14.89	-21.97
2.21	-25.49	-15.78	-18.44	-17.31	-18.43	-17.29	-14.91	-22.97
2.31	-25.5	-16.56	-18.45	-18.07	-18.44	-18.06	-14.93	-23.99
2.41	-25.52	-17.35	-18.46	-18.83	-18.45	-18.81	-14.96	-24.99
2.51	-25.54	-18.06	-18.47	-19.59	-18.46	-19.59	-14.98	-25.99
2.61	-25.57	-18.76	-18.48	-20.36	-18.47	-20.35	-15.01	-27
2.71	-25.61	-19.38	-18.49	-21.1	-18.48	-21.09	-15.04	-27.98
2.81	-25.64	-19.96	-18.5	-21.86	-18.5	-21.84	-15.07	-28.98
2.91	-25.66	-20.62	-18.51	-22.62	-18.51	-22.61	-15.11	-29.94
3.01	-25.7	-21.38	-18.52	-23.38	-18.52	-23.37	-15.14	-30.89
3.11	-25.72	-22.12	-18.53	-24.12	-18.53	-24.12	-15.17	-31.89
3.21	-25.77	-22.92	-18.55	-24.87	-18.54	-24.88	-15.2	-32.85
3.31	-25.81	-23.67	-18.56	-25.64	-18.55	-25.61	-15.24	-33.84
3.41	-25.86	-24.4	-18.57	-26.37	-18.56	-26.36	-15.27	-34.78
3.51	-25.88	-25.13	-18.58	-27.13	-18.58	-27.11	-15.31	-35.72
3.61	-25.92	-25.94	-18.59	-27.86	-18.59	-27.87	-15.35	-36.68
3.71	-25.96	-26.82	-18.61	-28.62	-18.61	-28.62	-15.38	-37.65
3.81	-26.02	-27.79	-18.62	-29.35	-18.62	-29.36	-15.42	-38.62
3.91	-26.08	-28.57	-18.64	-30.09	-18.63	-30.1	-15.46	-39.6
4.01	-26.15	-29.26	-18.65	-30.85	-18.65	-30.84	-15.5	-40.54
4.11	-26.16	-29.99	-18.66	-31.59	-18.66	-31.58	-15.55	-41.47
4.21	-26.2	-30.85	-18.68	-32.32	-18.67	-32.31	-15.59	-42.35
4.31	-26.24	-31.89	-18.69	-33.04	-18.69	-33.03	-15.62	-43.28
4.41	-26.31	-32.94	-18.71	-33.78	-18.71	-33.77	-15.66	-44.24
4.51	-26.39	-33.73	-18.73	-34.49	-18.72	-34.51	-15.71	-45.2
4.61	-26.46	-34.4	-18.74	-35.24	-18.74	-35.24	-15.75	-46.14
4.71	-26.48	-34.98	-18.75	-35.99	-18.75	-35.97	-15.81	-47.04
4.81	-26.5	-35.76	-18.77	-36.73	-18.76	-36.7	-15.86	-47.89
4.91	-26.51	-36.72	-18.79	-37.44	-18.78	-37.42	-15.9	-48.73
5.01	-26.54	-37.73	-18.8	-38.16	-18.8	-38.14	-15.95	-49.58
5.11	-26.62	-38.7	-18.82	-38.87	-18.81	-38.86	-15.99	-50.48
5.21	-26.72	-39.51	-18.83	-39.57	-18.83	-39.58	-16.04	-51.37
5.31	-26.8	-40.19	-18.85	-40.31	-18.85	-40.3	-16.08	-52.27
5.41	-26.87	-40.65	-18.87	-41.04	-18.87	-41.01	-16.15	-53.15
5.51	-26.92	-41.28	-18.89	-41.75	-18.88	-41.74	-16.21	-53.95
5.61	-26.98	-42.19	-18.91	-42.48	-18.9	-42.47	-16.26	-54.71
5.71	-27.06	-43.14	-18.92	-43.2	-18.92	-43.16	-16.31	-55.53
5.81	-27.16	-44.22	-18.94	-43.89	-18.94	-43.87	-16.36	-56.32
5.91	-27.27	-45.13	-18.96	-44.6	-18.96	-44.59	-16.4	-57.17
6.01	-27.38	-46	-18.98	-45.31	-18.98	-45.31	-16.45	-58.04
6.11	-27.48	-46.66	-19	-46.03	-19	-46.02	-16.51	-58.85
6.21	-27.54	-47.39	-19.02	-46.7	-19.02	-46.71	-16.57	-59.64
6.31	-27.6	-48.27	-19.04	-47.42	-19.03	-47.42	-16.62	-60.37
6.41	-27.66	-49.24	-19.06	-48.11	-19.06	-48.1	-16.68	-61.12
6.51	-27.72	-50.36	-19.08	-48.77	-19.08	-48.78	-16.73	-61.87
6.61	-27.84	-51.46	-19.11	-49.49	-19.1	-49.47	-16.78	-62.66
6.71	-27.94	-52.46	-19.13	-50.17	-19.12	-50.16	-16.83	-63.45
6.81	-28.04	-53.33	-19.15	-50.87	-19.14	-50.83	-16.89	-64.25
6.91	-28.11	-54.23	-19.17	-51.51	-19.17	-51.5	-16.95	-65.04
7.01	-28.17	-55.13	-19.19	-52.19	-19.18	-52.19	-17.01	-65.77
7.11	-28.23	-56.17	-19.21	-52.84	-19.21	-52.87	-17.07	-66.46
7.21	-28.32	-57.24	-19.23	-53.53	-19.23	-53.55	-17.12	-67.11
7.31	-28.39	-58.17	-19.26	-54.27	-19.25	-54.27	-17.16	-67.82
7.41	-28.48	-59.11	-19.29	-54.96	-19.28	-54.94	-17.19	-68.53
7.51	-28.56	-60.03	-19.31	-55.58	-19.31	-55.56	-17.25	-69.35
7.61	-28.64	-60.85	-19.33	-56.24	-19.33	-56.18	-17.3	-70.08
7.71	-28.71	-61.73	-19.36	-56.84	-19.35	-56.83	-17.36	-70.79
7.81	-28.8	-62.65	-19.38	-57.43	-19.38	-57.47	-17.42	-71.5
7.91	-28.93	-63.58	-19.41	-58.1	-19.41	-58.11	-17.48	-72.16
8.01	-29.05	-64.72	-19.43	-58.74	-19.43	-58.74	-17.53	-72.87
8.11	-29.18	-65.8	-19.46	-59.34	-19.45	-59.34	-17.58	-73.64
8.21	-29.33	-66.96	-19.49	-59.96	-19.48	-59.96	-17.63	-74.39
8.31	-29.46	-67.97	-19.51	-60.6	-19.5	-60.57	-17.68	-75.14
8.41	-29.55	-69.08	-19.52	-61.17	-19.53	-61.18	-17.74	-75.87
8.51	-29.65	-70.41	-19.56	-61.77	-19.56	-61.76	-17.79	-76.63
8.61	-29.72	-71.8	-19.59	-62.33	-19.58	-62.32	-17.84	-77.34
8.71	-29.79	-73.46	-19.61	-62.88	-19.61	-62.85	-17.9	-78.06
8.81	-29.88	-74.99	-19.63	-63.43	-19.63	-63.42	-17.95	-78.77
8.91	-30.01	-76.56	-19.65	-64	-19.64	-63.98	-18	-79.54
9.01	-30.14	-77.92	-19.67	-64.56	-19.67	-64.52	-18.06	-80.33
9.11	-30.26	-79.48	-19.69	-65.08	-19.69	-65.03	-18.13	-81.06
9.21	-30.37	-80.91	-19.71	-65.58	-19.7	-65.59	-18.2	-81.83
9.31	-30.47	-82.3	-19.72	-66.15	-19.72	-66.1	-18.26	-82.57
9.41	-30.54	-83.89	-19.73	-66.66	-19.73	-66.66	-18.33	-83.29
9.51	-30.6	-85.4	-19.75	-67.19	-19.75	-67.19	-18.4	-84.01
9.61	-30.72	-87.2	-19.76	-67.74	-19.76	-67.69	-18.48	-84.65
9.71	-30.82	-88.96	-19.77	-68.28	-19.77	-68.25	-18.55	-85.31
9.81	-30.93	-90.42	-19.78	-68.75	-19.78	-68.77	-18.63	-86.01
9.91	-31.04	-91.75	-19.79	-69.34	-19.78	-69.31	-18.71	-86.68
10.01	-31.12	-93.09	-19.8	-69.88	-19.8	-69.83	-18.79	-87.35
10.11	-31.2	-94.44	-19.81	-70.42	-19.8	-70.34	-18.88	-88.06
10.21	-31.29	-96.04	-19.82	-70.87	-19.81	-70.89	-18.97	-88.69
10.31	-31.42	-97.82	-19.82	-71.43	-19.81	-71.41	-19.06	-89.27
10.41	-31.52	-99.76	-19.82	-71.96	-19.82	-71.99	-19.15	-89.76
10.51	-31.7	-101.67	-19.83	-72.5	-19.82	-72.53	-19.23	-90.25
10.61	-31.85	-103.98	-19.83	-73.05	-19.82	-73.08	-19.33	-90.81
10.71	-32	-105.79	-19.83	-73.68	-19.82	-73.63	-19.4	-91.33
10.81	-32.14	-107.77	-19.83	-74.27	-19.82	-74.19	-19.49	-91.9
10.91	-32.23	-110.12	-19.84	-74.84	-19.83	-74.78	-19.58	-92.47
11.01	-32.35	-112.26	-19.83	-75.39	-19.83	-75.34	-19.7	-92.99
11.11	-32.42	-114.23	-19.83	-75.93	-19.84	-75.96	-19.79	-93.39
11.21	-32.48	-116.55	-19.85	-76.51	-19.84	-76.54	-19.88	-93.77
11.31	-32.59	-118.34	-19.85	-77.09	-19.84	-77.11	-19.96	-94.12
11.41	-32.66	-120.83	-19.85	-77.65	-19.84	-77.67	-20.02	-94.58
11.51	-32.72	-122.51	-19.85	-78.26	-19.84	-78.22	-20.12	-95
11.61	-32.76	-124.23	-19.85	-78.81	-19.84	-78.77	-20.2	-95.44
11.71	-32.74	-126.69	-19.85	-79.35	-19.86	-79.37	-20.28	-95.96
11.81	-32.79	-129.13	-19.84	-79.92	-19.85	-79.94	-20.39	-96.34
11.91	-32.86	-131.65	-19.86	-80.53	-19.84	-80.53	-20.49	-96.47
12.01	-32.85	-133.86	-19.86	-81.07	-19.85	-81.18	-20.54	-96.76
12.11	-32.81	-135.49	-19.86	-81.78	-19.85	-81.77	-20.62	-97.02
12.21	-32.79	-137.67	-19.88	-82.23	-19.85	-82.28	-20.68	-97.37
12.31	-32.83	-139.69	-19.87	-82.87	-19.86	-82.85	-20.74	-97.75
12.41	-32.77	-141.69	-19.85	-83.51	-19.85	-83.4	-20.8	-98.04
12.51	-32.78	-144.36	-19.86	-84.06	-19.86	-84	-20.9	-98.57
12.61	-32.74	-146.39	-19.85	-84.59	-19.86	-84.59	-20.99	-98.87
12.71	-32.78	-149.22	-19.85	-85.17	-19.86	-85.19	-21.08	-99.09
12.81	-32.83	-151.95	-19.87	-85.7	-19.87	-85.8	-21.17	-99.07
12.91	-32.97	-154.36	-19.86	-86.32	-19.85	-86.35	-21.24	-99.23
13.01	-32.91	-156.42	-19.86	-86.97	-19.85	-86.97	-21.29	-99.2
13.11	-32.96	-158.99	-19.86	-87.59	-19.85	-87.58	-21.32	-99.56
13.21	-32.91	-160.61	-19.89	-88.12	-19.88	-88	-21.38	-99.95
13.31	-32.7	-163.34	-19.86	-88.58	-19.86	-88.53	-21.49	-100.33
13.41	-32.6	-165.74	-19.85	-89.1	-19.86	-89.16	-21.56	-100.38
13.51	-32.45	-168.52	-19.84	-89.75	-19.85	-89.75	-21.61	-100.79
13.61	-32.34	-170.55	-19.85	-90.29	-19.85	-90.36	-21.69	-100.8
13.71	-32.28	-173.04	-19.83	-90.87	-19.83	-90.94	-21.75	-101.08
13.81	-32.17	-174.4	-19.84	-91.52	-19.83	-91.57	-21.81	-101.16
13.91	-32.06	-176.37	-19.84	-92.19	-19.83	-92.11	-21.85	-101.42
14.01	-31.9	-177.87	-19.83	-92.82	-19.82	-92.76	-21.9	-101.6
14.11	-31.68	-179.74	-19.82	-93.38	-19.83	-93.34	-21.99	-102.1
14.21	-31.5	178.12	-19.83	-93.96	-19.84	-93.85	-22.07	-102.29
14.31	-31.32	175.21	-19.81	-94.46	-19.82	-94.47	-22.14	-102.36
14.41	-31.28	173.94	-19.8	-95.08	-19.81	-95.12	-22.22	-102.39
14.51	-31.14	171.52	-19.81	-95.76	-19.81	-95.77	-22.26	-102.43
14.61	-31.11	170.37	-19.82	-96.39	-19.81	-96.34	-22.28	-102.45
14.71	-30.97	169.36	-19.81	-96.95	-19.79	-96.84	-22.3	-102.58
14.81	-30.88	168.39	-19.8	-97.63	-19.8	-97.52	-22.33	-102.9
14.91	-30.65	167.84	-19.81	-98.23	-19.81	-98.11	-22.38	-103.21
15.01	-30.46	165.59	-19.79	-98.67	-19.8	-98.6	-22.48	-103.35
15.11	-30.31	163.68	-19.78	-99.28	-19.79	-99.27	-22.51	-103.39
15.21	-30.28	161.69	-19.78	-99.88	-19.78	-99.91	-22.56	-103.31
15.31	-30.31	159.65	-19.79	-100.53	-19.78	-100.49	-22.59	-103.3
15.41	-30.19	158.46	-19.8	-101.01	-19.77	-101	-22.64	-103.63
15.51	-30.11	157.35	-19.78	-101.58	-19.76	-101.53	-22.65	-103.59
15.61	-29.8	156.37	-19.76	-102.22	-19.76	-102.1	-22.69	-103.98
15.71	-29.55	154.87	-19.74	-102.88	-19.75	-102.75	-22.77	-104.34
15.81	-29.32	153.3	-19.75	-103.47	-19.75	-103.4	-22.8	-104.46
15.91	-29.09	151.51	-19.74	-103.97	-19.74	-103.97	-22.84	-104.75
16.01	-29.01	149.12	-19.74	-104.53	-19.73	-104.55	-22.89	-104.93
16.11	-28.92	147.43	-19.73	-104.96	-19.71	-105.01	-22.93	-105.2
16.21	-28.92	146.16	-19.72	-105.69	-19.68	-105.66	-22.97	-105.66
16.31	-28.86	146.05	-19.7	-106.28	-19.67	-106.17	-23.06	-105.61
16.41	-28.63	145.5	-19.68	-106.88	-19.66	-106.74	-23.08	-105.77
16.51	-28.38	144.26	-19.66	-107.59	-19.64	-107.49	-23.11	-105.94
16.61	-28.25	142.71	-19.65	-108.25	-19.63	-108.14	-23.13	-106.31
16.71	-28.14	141.46	-19.64	-108.7	-19.62	-108.78	-23.22	-107.3
16.81	-28.08	140.2	-19.63	-109.36	-19.6	-109.43	-23.39	-107.4
16.91	-28.04	138.94	-19.64	-109.86	-19.58	-109.89	-23.59	-107.77
17.01	-28.07	139.55	-19.61	-110.47	-19.56	-110.62	-23.76	-106.3
17.11	-27.89	139.48	-19.61	-111.11	-19.54	-111.18	-23.78	-104.21
17.21	-27.66	139.09	-19.57	-111.63	-19.53	-111.91	-23.27	-103.47
17.31	-27.44	137.77	-19.55	-112.15	-19.54	-112.56	-23.12	-106.33
17.41	-27.32	136.25	-19.48	-112.69	-19.5	-113.22	-23.31	-109.64
17.51	-27.27	134.95	-19.45	-113.53	-19.48	-114	-23.92	-109.83
17.61	-27.27	133.33	-19.4	-113.96	-19.45	-114.52	-24.22	-107.41
17.71	-27.34	132.44	-19.36	-114.98	-19.41	-115.3	-24.01	-104.65
17.81	-27.33	132.13	-19.36	-115.77	-19.39	-115.96	-23.69	-104.91
17.91	-27.22	131.75	-19.34	-116.7	-19.39	-116.67	-23.67	-107.66
18.01	-26.93	130.9	-19.33	-117.48	-19.37	-117.38	-23.99	-108.9
18.11	-26.83	129.03	-19.31	-118.17	-19.36	-117.99	-24.34	-108.79
18.21	-26.75	128.21	-19.29	-119	-19.33	-118.94	-24.54	-106.79
18.31	-26.63	127.35	-19.27	-119.78	-19.3	-119.76	-24.61	-105.23
18.41	-26.6	126.57	-19.26	-120.49	-19.29	-120.51	-24.36	-104.5
18.51	-26.6	126.37	-19.26	-121.42	-19.27	-121.43	-24.36	-104.49
18.61	-26.47	126.32	-19.3	-122.2	-19.28	-122.03	-24.24	-105.08
18.71	-26.43	126.75	-19.27	-122.89	-19.27	-122.77	-24.3	-105.91
18.81	-26.22	126.35	-19.23	-123.72	-19.26	-123.51	-24.44	-106.51
18.91	-26.13	125.32	-19.22	-124.64	-19.23	-124.46	-24.72	-106.31
19.01	-26.03	124.98	-19.21	-125.48	-19.24	-125.46	-24.76	-104.67
19.11	-25.95	124.86	-19.23	-126.17	-19.25	-126.22	-24.69	-104.25
19.21	-25.93	124.37	-19.24	-126.94	-19.23	-126.87	-24.62	-104.28
19.31	-25.84	124.53	-19.2	-127.87	-19.19	-127.85	-24.75	-104.69
19.41	-25.68	124.82	-19.24	-128.95	-19.24	-128.89	-24.86	-103.83
19.51	-25.58	124.81	-19.29	-129.92	-19.28	-129.73	-24.89	-103
19.61	-25.35	124.02	-19.31	-130.49	-19.33	-130.35	-24.76	-102.36
19.71	-25.3	123.38	-19.3	-131.14	-19.31	-131	-24.75	-102.86
19.81	-25.35	122.54	-19.28	-132.04	-19.29	-132.06	-24.74	-101.71
19.91	-25.33	122.95	-19.31	-132.92	-19.33	-132.9	-24.71	-101.67
20.01	-25.25	123.79	-19.38	-133.65	-19.37	-133.68	-24.66	-100.54