!s2p File: Measurements: S11, S21, S12, S22								
# GHz S dB R 50.0								
0.01	-25.39	-0.04	-32.09	-0.16	-31.99	-0.22	-20.88	-1.51
0.11	-25.54	-1.5	-32.19	-1.2	-32.18	-1.2	-21.5	-2.71
0.21	-25.6	-1.83	-32.23	-1.66	-32.23	-1.66	-21.64	-2.57
0.31	-25.6	-2.32	-32.23	-2.15	-32.24	-2.21	-21.69	-2.65
0.41	-25.62	-2.9	-32.24	-2.62	-32.24	-2.71	-21.71	-2.88
0.51	-25.6	-3.45	-32.26	-3.23	-32.25	-3.21	-21.73	-3.16
0.61	-25.61	-3.98	-32.27	-3.78	-32.25	-3.77	-21.74	-3.5
0.71	-25.61	-4.61	-32.26	-4.36	-32.26	-4.39	-21.74	-3.86
0.81	-25.6	-5.19	-32.26	-4.96	-32.27	-4.91	-21.74	-4.26
0.91	-25.62	-5.79	-32.27	-5.56	-32.27	-5.47	-21.75	-4.63
1.01	-25.62	-6.4	-32.28	-6.06	-32.27	-6.11	-21.74	-5
1.11	-25.63	-7.03	-32.28	-6.63	-32.29	-6.61	-21.74	-5.43
1.21	-25.64	-7.68	-32.29	-7.22	-32.27	-7.23	-21.74	-5.85
1.31	-25.65	-8.43	-32.29	-7.81	-32.29	-7.82	-21.73	-6.32
1.41	-25.67	-9.21	-32.29	-8.41	-32.29	-8.4	-21.74	-6.81
1.51	-25.69	-9.88	-32.3	-9.01	-32.3	-8.95	-21.75	-7.18
1.61	-25.68	-10.53	-32.31	-9.66	-32.31	-9.6	-21.73	-7.55
1.71	-25.66	-11.36	-32.31	-10.14	-32.3	-10.11	-21.73	-8.04
1.81	-25.66	-12.31	-32.32	-10.69	-32.32	-10.69	-21.72	-8.59
1.91	-25.68	-13.14	-32.32	-11.35	-32.31	-11.31	-21.72	-9.11
2.01	-25.7	-13.9	-32.33	-11.91	-32.33	-11.87	-21.72	-9.62
2.11	-25.71	-14.61	-32.33	-12.47	-32.34	-12.47	-21.72	-10.09
2.21	-25.72	-15.41	-32.34	-13.01	-32.34	-13.05	-21.72	-10.54
2.31	-25.74	-16.19	-32.34	-13.57	-32.35	-13.63	-21.72	-10.99
2.41	-25.75	-16.97	-32.34	-14.23	-32.36	-14.17	-21.72	-11.47
2.51	-25.78	-17.66	-32.36	-14.73	-32.36	-14.79	-21.73	-11.94
2.61	-25.82	-18.38	-32.38	-15.4	-32.37	-15.37	-21.73	-12.39
2.71	-25.85	-18.92	-32.37	-15.92	-32.38	-15.94	-21.73	-12.87
2.81	-25.88	-19.48	-32.39	-16.49	-32.39	-16.48	-21.74	-13.29
2.91	-25.9	-20.13	-32.39	-17.08	-32.4	-17.06	-21.74	-13.7
3.01	-25.93	-20.87	-32.41	-17.67	-32.41	-17.62	-21.74	-14.08
3.11	-25.96	-21.61	-32.42	-18.24	-32.41	-18.22	-21.73	-14.56
3.21	-26	-22.39	-32.43	-18.86	-32.42	-18.82	-21.73	-15
3.31	-26.04	-23.13	-32.44	-19.37	-32.43	-19.39	-21.74	-15.43
3.41	-26.09	-23.84	-32.44	-19.93	-32.44	-19.98	-21.74	-15.87
3.51	-26.12	-24.58	-32.45	-20.56	-32.46	-20.5	-21.74	-16.26
3.61	-26.15	-25.38	-32.46	-21.07	-32.46	-21.11	-21.74	-16.7
3.71	-26.2	-26.27	-32.48	-21.65	-32.48	-21.66	-21.74	-17.19
3.81	-26.26	-27.19	-32.5	-22.28	-32.49	-22.29	-21.74	-17.68
3.91	-26.33	-27.95	-32.51	-22.78	-32.5	-22.79	-21.75	-18.19
4.01	-26.38	-28.62	-32.51	-23.38	-32.51	-23.42	-21.76	-18.6
4.11	-26.41	-29.39	-32.52	-23.98	-32.53	-23.9	-21.77	-18.95
4.21	-26.43	-30.18	-32.54	-24.52	-32.55	-24.48	-21.75	-19.34
4.31	-26.48	-31.29	-32.56	-25.1	-32.56	-25.08	-21.74	-19.84
4.41	-26.55	-32.35	-32.56	-25.69	-32.58	-25.61	-21.73	-20.4
4.51	-26.64	-33.13	-32.59	-26.18	-32.59	-26.13	-21.75	-20.94
4.61	-26.72	-33.75	-32.61	-26.76	-32.6	-26.8	-21.76	-21.38
4.71	-26.73	-34.29	-32.62	-27.37	-32.62	-27.39	-21.77	-21.76
4.81	-26.74	-34.99	-32.64	-27.93	-32.63	-27.84	-21.77	-22.1
4.91	-26.75	-36.01	-32.64	-28.47	-32.64	-28.46	-21.76	-22.44
5.01	-26.78	-37.06	-32.65	-29.05	-32.66	-28.93	-21.75	-22.86
5.11	-26.87	-38.07	-32.68	-29.53	-32.69	-29.52	-21.73	-23.38
5.21	-26.98	-38.87	-32.7	-30.18	-32.7	-30.13	-21.74	-23.84
5.31	-27.06	-39.47	-32.72	-30.71	-32.73	-30.69	-21.75	-24.34
5.41	-27.14	-39.96	-32.74	-31.24	-32.73	-31.25	-21.77	-24.73
5.51	-27.18	-40.56	-32.76	-31.83	-32.76	-31.8	-21.78	-25.03
5.61	-27.24	-41.46	-32.79	-32.46	-32.78	-32.36	-21.77	-25.27
5.71	-27.32	-42.5	-32.81	-32.89	-32.8	-32.84	-21.75	-25.7
5.81	-27.43	-43.62	-32.81	-33.45	-32.82	-33.38	-21.74	-26.09
5.91	-27.56	-44.46	-32.86	-34.05	-32.84	-34.05	-21.72	-26.61
6.01	-27.68	-45.31	-32.87	-34.57	-32.87	-34.53	-21.73	-27.13
6.11	-27.78	-45.92	-32.89	-35.12	-32.89	-35.1	-21.73	-27.56
6.21	-27.83	-46.67	-32.92	-35.65	-32.93	-35.6	-21.74	-27.92
6.31	-27.88	-47.56	-32.94	-36.17	-32.95	-36.12	-21.73	-28.25
6.41	-27.95	-48.64	-33	-36.68	-32.98	-36.66	-21.73	-28.56
6.51	-28.03	-49.75	-33.01	-37.09	-33.02	-37.11	-21.71	-28.95
6.61	-28.15	-50.78	-33.04	-37.62	-33.04	-37.57	-21.7	-29.41
6.71	-28.26	-51.72	-33.07	-38.14	-33.06	-38.14	-21.69	-29.87
6.81	-28.36	-52.62	-33.1	-38.65	-33.1	-38.58	-21.7	-30.34
6.91	-28.43	-53.52	-33.12	-39.1	-33.13	-38.98	-21.71	-30.78
7.01	-28.49	-54.48	-33.15	-39.56	-33.15	-39.63	-21.71	-31.11
7.11	-28.56	-55.51	-33.19	-40.03	-33.19	-39.99	-21.7	-31.46
7.21	-28.66	-56.65	-33.19	-40.54	-33.2	-40.46	-21.67	-31.8
7.31	-28.76	-57.62	-33.24	-41.19	-33.23	-41.19	-21.64	-32.32
7.41	-28.85	-58.42	-33.33	-41.77	-33.32	-41.63	-21.61	-32.85
7.51	-28.94	-59.33	-33.37	-41.89	-33.35	-41.78	-21.6	-33.39
7.61	-29.03	-60.15	-33.38	-42.36	-33.38	-42.22	-21.61	-33.82
7.71	-29.12	-61.04	-33.42	-42.6	-33.42	-42.6	-21.61	-34.2
7.81	-29.2	-61.99	-33.47	-42.92	-33.46	-42.96	-21.61	-34.58
7.91	-29.34	-62.81	-33.5	-43.45	-33.51	-43.32	-21.59	-35.01
8.01	-29.5	-63.98	-33.55	-43.67	-33.54	-43.67	-21.58	-35.48
8.11	-29.65	-64.97	-33.57	-44.01	-33.57	-43.79	-21.58	-36.05
8.21	-29.81	-66.16	-33.61	-44.34	-33.61	-44.36	-21.57	-36.6
8.31	-29.96	-67.08	-33.64	-44.59	-33.64	-44.59	-21.57	-37.12
8.41	-30.05	-68.24	-33.67	-44.95	-33.69	-44.81	-21.57	-37.63
8.51	-30.15	-69.45	-33.73	-45.08	-33.75	-44.99	-21.57	-38.12
8.61	-30.23	-70.88	-33.78	-45.21	-33.77	-45.06	-21.57	-38.6
8.71	-30.32	-72.51	-33.79	-45.32	-33.78	-45.14	-21.57	-39.1
8.81	-30.43	-74.13	-33.81	-45.42	-33.8	-45.46	-21.56	-39.58
8.91	-30.58	-75.73	-33.82	-45.74	-33.82	-45.6	-21.56	-40.18
9.01	-30.73	-77.15	-33.86	-45.95	-33.86	-45.74	-21.58	-40.74
9.11	-30.88	-78.59	-33.88	-45.93	-33.87	-45.8	-21.59	-41.2
9.21	-31	-79.94	-33.87	-45.95	-33.86	-45.88	-21.6	-41.7
9.31	-31.11	-81.33	-33.87	-45.98	-33.87	-45.93	-21.62	-42.22
9.41	-31.19	-82.79	-33.86	-46.24	-33.87	-46.12	-21.63	-42.71
9.51	-31.24	-84.36	-33.87	-46.27	-33.86	-46.22	-21.65	-43.18
9.61	-31.39	-86.25	-33.84	-46.44	-33.83	-46.26	-21.65	-43.56
9.71	-31.52	-87.88	-33.83	-46.52	-33.84	-46.46	-21.67	-43.97
9.81	-31.63	-89.38	-33.82	-46.55	-33.82	-46.59	-21.68	-44.43
9.91	-31.75	-90.64	-33.79	-46.79	-33.78	-46.73	-21.71	-44.84
10.01	-31.83	-91.82	-33.79	-47.06	-33.78	-46.86	-21.73	-45.28
10.11	-31.92	-93.16	-33.75	-47.14	-33.74	-47.01	-21.76	-45.66
10.21	-32.01	-94.73	-33.74	-47.13	-33.73	-47.1	-21.8	-45.98
10.31	-32.13	-96.69	-33.69	-47.51	-33.67	-47.4	-21.81	-46.27
10.41	-32.27	-98.59	-33.64	-47.66	-33.64	-47.67	-21.84	-46.48
10.51	-32.47	-100.49	-33.61	-47.84	-33.59	-47.89	-21.84	-46.77
10.61	-32.62	-102.8	-33.55	-48.15	-33.55	-48.15	-21.86	-47.06
10.71	-32.81	-104.62	-33.52	-48.6	-33.52	-48.49	-21.87	-47.43
10.81	-32.93	-106.69	-33.49	-49.03	-33.49	-48.88	-21.9	-47.7
10.91	-33.05	-109.18	-33.45	-49.24	-33.46	-49.13	-21.93	-47.99
11.01	-33.19	-111.44	-33.41	-49.56	-33.41	-49.45	-21.97	-48.12
11.11	-33.28	-113.81	-33.37	-50.06	-33.39	-49.98	-21.97	-48.31
11.21	-33.41	-116.04	-33.36	-50.46	-33.34	-50.45	-21.98	-48.53
11.31	-33.53	-117.78	-33.33	-50.68	-33.31	-50.74	-21.97	-48.73
11.41	-33.58	-120.16	-33.3	-51.2	-33.3	-51.04	-21.96	-49.1
11.51	-33.64	-121.77	-33.27	-51.56	-33.26	-51.34	-21.99	-49.35
11.61	-33.64	-123.82	-33.22	-51.93	-33.22	-51.86	-22	-49.66
11.71	-33.62	-126.23	-33.19	-52.16	-33.2	-52.26	-22.01	-50.01
11.81	-33.65	-129.27	-33.14	-52.73	-33.15	-52.68	-22.05	-50.08
11.91	-33.79	-132.07	-33.13	-53.18	-33.11	-53.22	-22.03	-50.06
12.01	-33.81	-134.2	-33.08	-53.61	-33.09	-53.69	-22.01	-50.39
12.11	-33.74	-135.86	-33.11	-54.34	-33.1	-54.2	-22.01	-50.55
12.21	-33.72	-137.81	-33.09	-54.34	-33.05	-54.24	-21.98	-50.86
12.31	-33.72	-140.02	-33.02	-54.73	-33	-54.64	-21.98	-51.31
12.41	-33.61	-142.37	-32.99	-55.48	-32.97	-55.23	-21.96	-51.63
12.51	-33.61	-145.23	-32.95	-55.71	-32.97	-55.63	-22.01	-51.94
12.61	-33.58	-147.85	-32.92	-56.1	-32.92	-56.13	-22.02	-52.08
12.71	-33.66	-151.01	-32.89	-56.64	-32.89	-56.62	-22.03	-52.21
12.81	-33.77	-153.81	-32.91	-56.9	-32.9	-56.8	-22	-52
12.91	-33.91	-156.35	-32.83	-57.43	-32.81	-57.35	-21.97	-52.34
13.01	-33.89	-158.33	-32.85	-57.93	-32.84	-57.79	-21.93	-52.38
13.11	-33.92	-160.74	-32.8	-58.37	-32.77	-58.29	-21.9	-52.87
13.21	-33.81	-162.44	-32.85	-58.31	-32.83	-58.14	-21.9	-53.28
13.31	-33.56	-165.34	-32.72	-58.69	-32.69	-58.66	-21.93	-53.48
13.41	-33.4	-168.08	-32.65	-59.02	-32.66	-58.94	-21.91	-53.6
13.51	-33.25	-171.13	-32.61	-59.87	-32.61	-59.73	-21.92	-54.02
13.61	-33.15	-173.58	-32.6	-60.25	-32.59	-60.17	-21.89	-54.09
13.71	-33.13	-175.9	-32.55	-60.73	-32.55	-60.62	-21.89	-54.35
13.81	-33.04	-176.98	-32.5	-61.1	-32.48	-61.19	-21.87	-54.55
13.91	-32.85	-178.71	-32.47	-61.71	-32.46	-61.5	-21.85	-55.02
14.01	-32.63	-179.96	-32.45	-62.41	-32.42	-62.27	-21.83	-55.3
14.11	-32.34	177.64	-32.41	-62.81	-32.42	-62.74	-21.87	-55.7
14.21	-32.1	175.25	-32.39	-62.88	-32.39	-62.69	-21.86	-55.81
14.31	-31.96	171.85	-32.28	-63.41	-32.29	-63.33	-21.86	-56
14.41	-31.95	170.18	-32.25	-64.27	-32.26	-64.17	-21.85	-56.04
14.51	-31.84	167.92	-32.25	-64.79	-32.25	-64.66	-21.81	-56.27
14.61	-31.86	166.76	-32.24	-65.2	-32.23	-65.08	-21.77	-56.62
14.71	-31.69	166.39	-32.16	-65.64	-32.13	-65.54	-21.73	-57.11
14.81	-31.54	165.61	-32.14	-66.43	-32.12	-66.17	-21.73	-57.5
14.91	-31.26	165	-32.13	-66.89	-32.13	-66.73	-21.74	-57.83
15.01	-31.03	162.42	-32.08	-66.91	-32.1	-66.86	-21.75	-57.86
15.11	-30.89	160.18	-32.02	-67.45	-32.05	-67.37	-21.71	-58.22
15.21	-30.87	157.98	-31.99	-68.09	-31.99	-68.06	-21.68	-58.26
15.31	-30.93	156.09	-31.98	-68.7	-31.96	-68.58	-21.64	-58.68
15.41	-30.85	155.09	-31.97	-68.69	-31.94	-68.56	-21.65	-58.98
15.51	-30.73	154.49	-31.87	-69.28	-31.86	-69.05	-21.61	-59.3
15.61	-30.38	153.53	-31.81	-69.67	-31.81	-69.5	-21.61	-59.79
15.71	-30.06	152.01	-31.75	-70.56	-31.74	-70.28	-21.62	-60.11
15.81	-29.77	150.16	-31.76	-71.02	-31.76	-70.85	-21.62	-60.33
15.91	-29.52	148	-31.7	-71.19	-31.71	-71.15	-21.59	-60.61
16.01	-29.47	145.15	-31.65	-71.55	-31.64	-71.45	-21.58	-61.08
16.11	-29.45	143.55	-31.58	-71.71	-31.56	-71.63	-21.56	-61.42
16.21	-29.47	142.5	-31.46	-72.51	-31.42	-72.36	-21.56	-62.13
16.31	-29.4	142.8	-31.39	-73.16	-31.37	-72.97	-21.58	-62.24
16.41	-29.14	142.32	-31.33	-73.73	-31.31	-73.55	-21.57	-62.7
16.51	-28.82	140.96	-31.27	-74.49	-31.25	-74.33	-21.56	-63.16
16.61	-28.69	139.12	-31.19	-75.09	-31.19	-74.99	-21.56	-63.64
16.71	-28.61	137.66	-31.13	-75.67	-31.1	-75.7	-21.65	-64.54
16.81	-28.57	136.37	-31.12	-76.25	-31.08	-76.27	-21.75	-64.28
16.91	-28.6	135.25	-31.02	-76.41	-30.94	-76.37	-21.85	-64.07
17.01	-28.67	136.38	-30.89	-77.49	-30.84	-77.54	-21.78	-63.06
17.11	-28.43	136.74	-30.86	-78.23	-30.78	-78.22	-21.61	-62.22
17.21	-28.13	136.39	-30.79	-78.86	-30.74	-79.13	-21.18	-63.94
17.31	-27.85	134.87	-30.76	-79.03	-30.73	-79.46	-21.29	-66.8
17.41	-27.73	132.89	-30.56	-79.74	-30.58	-80.2	-21.7	-68.78
17.51	-27.71	131.34	-30.48	-80.91	-30.49	-81.48	-22.08	-66.74
17.61	-27.77	129.68	-30.35	-81.19	-30.41	-81.72	-22.01	-64.15
17.71	-27.91	128.94	-30.22	-82.67	-30.27	-83	-21.56	-64.02
17.81	-27.88	129.03	-30.16	-83.76	-30.2	-83.93	-21.36	-65.72
17.91	-27.76	128.95	-30.1	-85.04	-30.16	-84.81	-21.52	-68.22
18.01	-27.41	127.98	-30.02	-85.88	-30.07	-85.7	-21.83	-68.57
18.11	-27.26	125.76	-29.95	-86.7	-30.02	-86.4	-22.04	-67.25
18.21	-27.23	124.6	-29.86	-88.15	-29.91	-87.95	-21.98	-66.22
18.31	-27.16	123.56	-29.82	-89.37	-29.87	-89.19	-21.9	-65.42
18.41	-27.22	122.76	-29.75	-89.87	-29.8	-89.82	-21.67	-66.36
18.51	-27.29	123.15	-29.66	-91.71	-29.67	-91.64	-21.73	-67.06
18.61	-27.14	123.77	-29.7	-92.66	-29.71	-92.36	-21.74	-68.09
18.71	-27.06	124.45	-29.61	-93.68	-29.62	-93.35	-21.87	-68.56
18.81	-26.79	123.93	-29.49	-94.76	-29.51	-94.4	-21.97	-68.75
18.91	-26.71	122.58	-29.41	-96.03	-29.41	-95.82	-22.13	-68.36
19.01	-26.67	122.13	-29.34	-97.74	-29.38	-97.59	-22.1	-67.56
19.11	-26.63	122.04	-29.41	-99.12	-29.43	-99.07	-22.07	-67.47
19.21	-26.67	121.66	-29.35	-99.69	-29.34	-99.51	-21.99	-67.92
19.31	-26.62	122.19	-29.16	-101.68	-29.14	-101.57	-22.13	-68.8
19.41	-26.43	122.9	-29.28	-103.99	-29.29	-103.68	-22.28	-68.13
19.51	-26.35	122.91	-29.28	-105.26	-29.28	-104.94	-22.36	-67.45
19.61	-26.09	122.21	-29.34	-106.21	-29.35	-105.99	-22.23	-66.81
19.71	-26.03	121.14	-29.3	-106.84	-29.31	-106.66	-22.24	-67.37
19.81	-26.17	120.05	-29.04	-108.73	-29.05	-108.57	-22.26	-67.18
19.91	-26.26	120.84	-29.17	-111.15	-29.17	-111.09	-22.31	-66.67
20.01	-26.27	122.34	-29.3	-113.2	-29.27	-113.03	-22.27	-65.73