!s2p File: Measurements: S11, S21, S12, S22								
# GHz S dB R 50.0								
0.01	-15.68	-0.79	-12.83	-0.36	-12.83	-0.38	-22.34	-1.58
0.11	-15.94	-1.85	-12.96	-1.43	-12.95	-1.43	-23.15	-4.19
0.21	-16.02	-2.33	-12.99	-2.15	-12.99	-2.13	-23.4	-3.97
0.31	-16.05	-2.89	-13	-2.91	-13	-2.92	-23.47	-4.02
0.41	-16.06	-3.5	-13.01	-3.71	-13.01	-3.7	-23.52	-4.33
0.51	-16.07	-4.13	-13.02	-4.52	-13.01	-4.51	-23.54	-4.71
0.61	-16.07	-4.77	-13.02	-5.33	-13.02	-5.33	-23.56	-5.2
0.71	-16.07	-5.44	-13.02	-6.16	-13.02	-6.16	-23.57	-5.74
0.81	-16.08	-6.11	-13.03	-6.99	-13.02	-6.99	-23.58	-6.33
0.91	-16.08	-6.8	-13.03	-7.82	-13.03	-7.82	-23.6	-6.9
1.01	-16.09	-7.49	-13.03	-8.65	-13.03	-8.65	-23.61	-7.5
1.11	-16.09	-8.19	-13.04	-9.49	-13.03	-9.49	-23.62	-8.1
1.21	-16.1	-8.92	-13.04	-10.31	-13.04	-10.31	-23.63	-8.7
1.31	-16.1	-9.66	-13.04	-11.15	-13.04	-11.15	-23.64	-9.39
1.41	-16.11	-10.41	-13.05	-12.01	-13.04	-11.99	-23.67	-10.12
1.51	-16.12	-11.15	-13.05	-12.84	-13.05	-12.83	-23.69	-10.67
1.61	-16.11	-11.88	-13.06	-13.66	-13.05	-13.67	-23.7	-11.25
1.71	-16.11	-12.65	-13.06	-14.5	-13.06	-14.5	-23.71	-11.99
1.81	-16.11	-13.48	-13.06	-15.33	-13.06	-15.33	-23.71	-12.73
1.91	-16.12	-14.26	-13.07	-16.17	-13.06	-16.16	-23.74	-13.46
2.01	-16.13	-15.02	-13.07	-17	-13.07	-17.01	-23.77	-14.19
2.11	-16.13	-15.78	-13.08	-17.83	-13.08	-17.83	-23.8	-14.87
2.21	-16.14	-16.55	-13.08	-18.66	-13.08	-18.67	-23.82	-15.51
2.31	-16.15	-17.31	-13.09	-19.5	-13.09	-19.5	-23.84	-16.2
2.41	-16.15	-18.08	-13.09	-20.33	-13.09	-20.33	-23.88	-16.84
2.51	-16.16	-18.82	-13.1	-21.14	-13.1	-21.16	-23.91	-17.52
2.61	-16.18	-19.56	-13.1	-21.99	-13.1	-21.98	-23.95	-18.17
2.71	-16.19	-20.26	-13.11	-22.81	-13.11	-22.81	-23.98	-18.8
2.81	-16.2	-20.97	-13.12	-23.64	-13.11	-23.64	-24.02	-19.42
2.91	-16.21	-21.69	-13.12	-24.47	-13.12	-24.46	-24.06	-20.03
3.01	-16.23	-22.44	-13.13	-25.3	-13.12	-25.29	-24.09	-20.58
3.11	-16.24	-23.21	-13.13	-26.12	-13.13	-26.13	-24.13	-21.24
3.21	-16.26	-23.96	-13.14	-26.94	-13.14	-26.95	-24.17	-21.89
3.31	-16.27	-24.74	-13.14	-27.78	-13.14	-27.77	-24.22	-22.5
3.41	-16.29	-25.48	-13.15	-28.61	-13.15	-28.6	-24.26	-23.09
3.51	-16.3	-26.24	-13.16	-29.42	-13.15	-29.43	-24.3	-23.63
3.61	-16.32	-27.01	-13.16	-30.23	-13.16	-30.26	-24.35	-24.24
3.71	-16.34	-27.8	-13.17	-31.07	-13.17	-31.09	-24.4	-24.92
3.81	-16.36	-28.63	-13.18	-31.91	-13.17	-31.92	-24.44	-25.6
3.91	-16.38	-29.41	-13.18	-32.73	-13.18	-32.75	-24.5	-26.3
4.01	-16.41	-30.14	-13.19	-33.57	-13.19	-33.58	-24.56	-26.87
4.11	-16.42	-30.91	-13.19	-34.42	-13.19	-34.4	-24.62	-27.4
4.21	-16.43	-31.69	-13.2	-35.23	-13.2	-35.23	-24.66	-27.91
4.31	-16.45	-32.54	-13.21	-36.03	-13.21	-36.05	-24.7	-28.53
4.41	-16.47	-33.4	-13.22	-36.86	-13.22	-36.87	-24.75	-29.18
4.51	-16.5	-34.15	-13.23	-37.68	-13.23	-37.7	-24.81	-29.9
4.61	-16.53	-34.91	-13.24	-38.51	-13.23	-38.53	-24.87	-30.52
4.71	-16.54	-35.6	-13.24	-39.36	-13.24	-39.35	-24.96	-31.03
4.81	-16.56	-36.36	-13.25	-40.19	-13.25	-40.17	-25.02	-31.47
4.91	-16.57	-37.18	-13.26	-41.01	-13.26	-40.99	-25.07	-31.91
5.01	-16.58	-37.98	-13.26	-41.83	-13.27	-41.82	-25.12	-32.36
5.11	-16.61	-38.81	-13.27	-42.64	-13.28	-42.64	-25.16	-32.96
5.21	-16.64	-39.58	-13.28	-43.46	-13.28	-43.46	-25.23	-33.48
5.31	-16.67	-40.29	-13.3	-44.29	-13.29	-44.29	-25.3	-34.13
5.41	-16.71	-41	-13.3	-45.12	-13.3	-45.1	-25.4	-34.63
5.51	-16.73	-41.68	-13.31	-45.93	-13.31	-45.94	-25.49	-34.99
5.61	-16.75	-42.47	-13.32	-46.78	-13.32	-46.77	-25.55	-35.23
5.71	-16.78	-43.27	-13.33	-47.6	-13.33	-47.59	-25.61	-35.64
5.81	-16.81	-44.12	-13.34	-48.41	-13.34	-48.4	-25.66	-36.03
5.91	-16.85	-44.9	-13.35	-49.23	-13.35	-49.24	-25.71	-36.62
6.01	-16.89	-45.67	-13.36	-50.06	-13.36	-50.06	-25.78	-37.22
6.11	-16.93	-46.4	-13.38	-50.89	-13.37	-50.89	-25.86	-37.71
6.21	-16.95	-47.14	-13.39	-51.7	-13.39	-51.7	-25.94	-38.03
6.31	-16.97	-47.89	-13.4	-52.52	-13.4	-52.52	-26.01	-38.37
6.41	-17	-48.72	-13.41	-53.32	-13.41	-53.33	-26.09	-38.65
6.51	-17.02	-49.56	-13.42	-54.12	-13.42	-54.14	-26.15	-38.95
6.61	-17.06	-50.4	-13.43	-54.96	-13.43	-54.94	-26.22	-39.37
6.71	-17.1	-51.23	-13.45	-55.78	-13.45	-55.76	-26.29	-39.81
6.81	-17.13	-51.98	-13.46	-56.59	-13.46	-56.58	-26.38	-40.34
6.91	-17.16	-52.79	-13.47	-57.39	-13.47	-57.38	-26.48	-40.81
7.01	-17.18	-53.56	-13.48	-58.2	-13.49	-58.19	-26.57	-41.07
7.11	-17.2	-54.37	-13.5	-58.97	-13.5	-59	-26.64	-41.32
7.21	-17.24	-55.22	-13.51	-59.8	-13.51	-59.82	-26.7	-41.42
7.31	-17.26	-55.98	-13.53	-60.65	-13.52	-60.64	-26.72	-41.92
7.41	-17.29	-56.76	-13.54	-61.47	-13.54	-61.45	-26.76	-42.44
7.51	-17.32	-57.59	-13.56	-62.26	-13.56	-62.24	-26.84	-43.02
7.61	-17.35	-58.35	-13.57	-63.07	-13.57	-63.02	-26.95	-43.4
7.71	-17.38	-59.13	-13.58	-63.84	-13.59	-63.82	-27.04	-43.69
7.81	-17.4	-59.92	-13.6	-64.59	-13.61	-64.61	-27.13	-43.99
7.91	-17.44	-60.67	-13.62	-65.42	-13.62	-65.41	-27.21	-44.19
8.01	-17.48	-61.53	-13.63	-66.2	-13.64	-66.21	-27.28	-44.62
8.11	-17.53	-62.38	-13.65	-66.97	-13.65	-66.96	-27.38	-45.19
8.21	-17.58	-63.22	-13.67	-67.76	-13.67	-67.76	-27.46	-45.75
8.31	-17.62	-64.02	-13.68	-68.56	-13.68	-68.54	-27.55	-46.18
8.41	-17.65	-64.87	-13.69	-69.32	-13.7	-69.3	-27.65	-46.73
8.51	-17.69	-65.75	-13.71	-70.1	-13.72	-70.07	-27.77	-47.19
8.61	-17.71	-66.66	-13.73	-70.84	-13.74	-70.82	-27.87	-47.71
8.71	-17.74	-67.64	-13.75	-71.6	-13.75	-71.55	-27.97	-48.06
8.81	-17.78	-68.57	-13.77	-72.35	-13.77	-72.3	-28.08	-48.5
8.91	-17.83	-69.5	-13.78	-73.08	-13.78	-73.05	-28.2	-49.17
9.01	-17.87	-70.4	-13.79	-73.85	-13.8	-73.77	-28.35	-49.78
9.11	-17.91	-71.31	-13.8	-74.55	-13.81	-74.51	-28.51	-50.19
9.21	-17.96	-72.24	-13.82	-75.29	-13.82	-75.25	-28.68	-50.57
9.31	-18	-73.13	-13.83	-76.04	-13.83	-75.98	-28.84	-50.95
9.41	-18.03	-74.05	-13.84	-76.77	-13.84	-76.72	-29	-51.29
9.51	-18.07	-74.97	-13.86	-77.49	-13.86	-77.48	-29.17	-51.57
9.61	-18.12	-75.91	-13.87	-78.25	-13.86	-78.18	-29.35	-51.63
9.71	-18.16	-76.87	-13.87	-78.97	-13.88	-78.93	-29.55	-51.71
9.81	-18.21	-77.76	-13.88	-79.67	-13.88	-79.66	-29.76	-51.85
9.91	-18.25	-78.59	-13.89	-80.43	-13.89	-80.39	-29.99	-51.88
10.01	-18.3	-79.45	-13.89	-81.19	-13.9	-81.13	-30.19	-51.93
10.11	-18.34	-80.31	-13.9	-81.93	-13.91	-81.86	-30.45	-51.83
10.21	-18.39	-81.21	-13.91	-82.62	-13.91	-82.61	-30.74	-51.51
10.31	-18.44	-82.1	-13.92	-83.37	-13.92	-83.34	-30.95	-51.07
10.41	-18.49	-83.02	-13.92	-84.11	-13.93	-84.09	-31.2	-50.17
10.51	-18.57	-83.93	-13.93	-84.83	-13.93	-84.84	-31.41	-49.4
10.61	-18.63	-84.92	-13.93	-85.61	-13.93	-85.59	-31.64	-48.66
10.71	-18.7	-85.78	-13.94	-86.42	-13.94	-86.33	-31.86	-48.07
10.81	-18.76	-86.69	-13.94	-87.18	-13.94	-87.09	-32.13	-47.17
10.91	-18.82	-87.67	-13.95	-87.95	-13.95	-87.87	-32.43	-46.23
11.01	-18.89	-88.54	-13.95	-88.7	-13.96	-88.64	-32.74	-44.52
11.11	-18.93	-89.46	-13.95	-89.44	-13.96	-89.42	-32.92	-42.99
11.21	-18.99	-90.43	-13.97	-90.22	-13.97	-90.21	-33.12	-41.42
11.31	-19.05	-91.28	-13.98	-90.98	-13.97	-90.97	-33.27	-39.74
11.41	-19.1	-92.25	-13.98	-91.77	-13.98	-91.73	-33.38	-38.45
11.51	-19.15	-93.1	-13.99	-92.58	-13.98	-92.45	-33.59	-36.69
11.61	-19.21	-93.96	-13.99	-93.33	-13.98	-93.22	-33.79	-35.05
11.71	-19.25	-94.89	-13.98	-94.09	-14	-94.05	-33.98	-33.26
11.81	-19.31	-95.87	-13.99	-94.85	-14.01	-94.78	-34.15	-30.31
11.91	-19.38	-96.77	-14	-95.63	-14.01	-95.59	-34.11	-27.41
12.01	-19.42	-97.74	-14.01	-96.4	-14.01	-96.43	-34.07	-25.71
12.11	-19.46	-98.64	-14.02	-97.23	-14.02	-97.2	-34.09	-23.48
12.21	-19.51	-99.52	-14.04	-97.97	-14.02	-97.94	-34.04	-21.71
12.31	-19.57	-100.39	-14.04	-98.81	-14.04	-98.72	-34.02	-20.12
12.41	-19.61	-101.34	-14.04	-99.64	-14.05	-99.48	-34.02	-18.85
12.51	-19.67	-102.25	-14.05	-100.38	-14.06	-100.26	-34.12	-16.19
12.61	-19.71	-103.16	-14.05	-101.1	-14.06	-101.05	-34.06	-13.66
12.71	-19.79	-104.12	-14.05	-101.87	-14.07	-101.84	-33.95	-10.75
12.81	-19.86	-105.07	-14.07	-102.65	-14.08	-102.68	-33.58	-8.21
12.91	-19.95	-105.9	-14.08	-103.44	-14.08	-103.41	-33.39	-6.99
13.01	-20	-106.84	-14.09	-104.27	-14.09	-104.22	-33.1	-5.37
13.11	-20.09	-107.66	-14.1	-105.12	-14.09	-105.03	-32.97	-4.75
13.21	-20.13	-108.43	-14.13	-105.87	-14.13	-105.7	-32.9	-3.45
13.31	-20.18	-109.62	-14.11	-106.55	-14.12	-106.43	-32.75	-0.92
13.41	-20.23	-110.69	-14.12	-107.31	-14.13	-107.27	-32.48	0.26
13.51	-20.29	-111.81	-14.12	-108.09	-14.14	-108.03	-32.41	1.34
13.61	-20.34	-112.83	-14.13	-108.83	-14.14	-108.83	-32.06	2.63
13.71	-20.41	-113.86	-14.14	-109.6	-14.14	-109.6	-31.89	3.82
13.81	-20.45	-114.8	-14.16	-110.46	-14.15	-110.41	-31.63	4.49
13.91	-20.52	-115.79	-14.17	-111.29	-14.16	-111.13	-31.48	4.92
14.01	-20.56	-116.7	-14.17	-112.12	-14.16	-111.97	-31.28	5.43
14.11	-20.59	-117.78	-14.17	-112.86	-14.19	-112.73	-31.2	6.9
14.21	-20.64	-118.89	-14.18	-113.63	-14.2	-113.47	-30.94	8.16
14.31	-20.73	-120.11	-14.19	-114.33	-14.2	-114.25	-30.69	8.75
14.41	-20.77	-120.91	-14.19	-115.12	-14.2	-115.09	-30.42	9.66
14.51	-20.84	-122.07	-14.21	-116	-14.21	-115.92	-30.16	9.71
14.61	-20.89	-122.85	-14.23	-116.8	-14.22	-116.68	-29.93	9.56
14.71	-20.92	-123.81	-14.24	-117.56	-14.23	-117.36	-29.77	9.3
14.81	-20.94	-124.57	-14.24	-118.4	-14.24	-118.19	-29.65	9.63
14.91	-20.94	-125.65	-14.26	-119.2	-14.26	-119.01	-29.51	10.16
15.01	-21.01	-126.77	-14.26	-119.89	-14.27	-119.72	-29.24	11.03
15.11	-21.07	-127.93	-14.27	-120.63	-14.28	-120.55	-29.02	10.86
15.21	-21.15	-128.82	-14.28	-121.42	-14.28	-121.36	-28.75	10.82
15.31	-21.24	-129.53	-14.3	-122.23	-14.29	-122.12	-28.56	10.6
15.41	-21.29	-130.51	-14.32	-122.98	-14.3	-122.85	-28.38	10.74
15.51	-21.33	-131.37	-14.33	-123.74	-14.31	-123.55	-28.2	10.5
15.61	-21.35	-132.69	-14.34	-124.54	-14.33	-124.34	-28.11	10.44
15.71	-21.39	-133.93	-14.33	-125.31	-14.34	-125.08	-27.98	10.98
15.81	-21.44	-135.16	-14.35	-126.07	-14.35	-125.89	-27.8	11.13
15.91	-21.48	-136.45	-14.36	-126.82	-14.36	-126.73	-27.62	11.04
16.01	-21.59	-137.48	-14.38	-127.53	-14.37	-127.45	-27.47	10.89
16.11	-21.65	-138.51	-14.39	-128.2	-14.38	-128.16	-27.32	10.76
16.21	-21.71	-139.26	-14.41	-129.02	-14.37	-128.9	-27.26	10.61
16.31	-21.7	-139.99	-14.41	-129.77	-14.39	-129.57	-27.07	10.85
16.41	-21.69	-141.22	-14.41	-130.5	-14.4	-130.26	-26.94	10.66
16.51	-21.71	-142.63	-14.42	-131.31	-14.4	-131.12	-26.82	10.47
16.61	-21.77	-143.76	-14.42	-132.09	-14.41	-131.9	-26.73	10.47
16.71	-21.8	-144.81	-14.43	-132.7	-14.41	-132.67	-26.73	11.1
16.81	-21.86	-145.78	-14.44	-133.5	-14.41	-133.48	-26.47	11.99
16.91	-21.91	-146.67	-14.47	-134.2	-14.41	-134.15	-26.28	12.86
17.01	-21.87	-147.13	-14.47	-134.87	-14.42	-134.88	-25.86	12.71
17.11	-21.83	-148.19	-14.49	-135.62	-14.42	-135.61	-25.46	11.31
17.21	-21.8	-149.53	-14.48	-136.24	-14.43	-136.38	-25.47	7.46
17.31	-21.83	-150.88	-14.47	-136.92	-14.45	-137.16	-25.86	7.41
17.41	-21.88	-152.08	-14.43	-137.52	-14.45	-137.91	-26.18	10.58
17.51	-21.92	-153.12	-14.41	-138.42	-14.43	-138.77	-25.6	14.29
17.61	-22.02	-153.97	-14.4	-139.01	-14.44	-139.47	-24.93	14.13
17.71	-22.06	-154.61	-14.38	-140.05	-14.42	-140.22	-24.51	10.85
17.81	-22.05	-155.33	-14.4	-140.88	-14.42	-140.97	-24.54	8.56
17.91	-22.05	-156.33	-14.39	-141.9	-14.43	-141.78	-24.79	8.81
18.01	-22.05	-158.12	-14.4	-142.79	-14.44	-142.58	-24.72	10.6
18.11	-22.16	-159.13	-14.4	-143.6	-14.45	-143.34	-24.38	11.94
18.21	-22.14	-160.48	-14.4	-144.39	-14.44	-144.23	-24.02	11.38
18.31	-22.16	-161.67	-14.39	-145.23	-14.43	-145.09	-23.71	10.84
18.41	-22.2	-162.76	-14.41	-145.99	-14.43	-145.92	-23.59	8.65
18.51	-22.16	-163.65	-14.42	-146.8	-14.42	-146.65	-23.53	8.59
18.61	-22.16	-164.63	-14.45	-147.7	-14.44	-147.43	-23.5	7.76
18.71	-22.08	-165.38	-14.44	-148.44	-14.43	-148.23	-23.46	7.89
18.81	-22	-166.93	-14.42	-149.33	-14.44	-149.06	-23.38	8.16
18.91	-22.03	-168.13	-14.42	-150.22	-14.42	-149.97	-23.18	8.87
19.01	-22.01	-169.51	-14.41	-151.04	-14.43	-150.92	-22.92	8.29
19.11	-21.99	-170.54	-14.42	-151.84	-14.44	-151.78	-22.76	7.65
19.21	-21.99	-171.47	-14.45	-152.67	-14.44	-152.52	-22.65	6.78
19.31	-21.92	-172.72	-14.44	-153.5	-14.42	-153.4	-22.61	6.86
19.41	-21.89	-173.97	-14.45	-154.56	-14.45	-154.41	-22.41	7.16
19.51	-21.83	-175.08	-14.48	-155.44	-14.46	-155.2	-22.21	6.93
19.61	-21.84	-176.75	-14.48	-156.27	-14.49	-156.03	-22.03	5.8
19.71	-21.85	-177.63	-14.48	-157.05	-14.49	-156.88	-21.98	5.42
19.81	-21.87	-178.75	-14.47	-157.82	-14.47	-157.74	-21.82	4.84
19.91	-21.87	-179.59	-14.47	-158.81	-14.48	-158.71	-21.68	4.7
20.01	-21.79	179.28	-14.5	-159.73	-14.48	-159.61	-21.44	4.14