!s2p File: Measurements: S11, S21, S12, S22								
# GHz S dB R 50.0								
0.01	-25.33	-0.08	-30.45	-0.34	-30.47	-0.3	-17.43	-1.11
0.11	-25.53	-1.51	-30.63	-1.28	-30.62	-1.24	-17.91	-2.77
0.21	-25.59	-1.85	-30.68	-1.76	-30.68	-1.76	-18.04	-3.04
0.31	-25.6	-2.36	-30.7	-2.32	-30.69	-2.28	-18.09	-3.45
0.41	-25.61	-2.92	-30.71	-2.86	-30.71	-2.82	-18.11	-3.99
0.51	-25.59	-3.47	-30.71	-3.36	-30.71	-3.38	-18.13	-4.6
0.61	-25.6	-4	-30.71	-3.98	-30.71	-3.98	-18.14	-5.26
0.71	-25.59	-4.61	-30.72	-4.59	-30.71	-4.61	-18.15	-5.92
0.81	-25.59	-5.18	-30.72	-5.17	-30.72	-5.15	-18.15	-6.64
0.91	-25.61	-5.8	-30.73	-5.81	-30.71	-5.78	-18.16	-7.33
1.01	-25.61	-6.39	-30.72	-6.35	-30.73	-6.4	-18.16	-8.03
1.11	-25.62	-7.02	-30.73	-7	-30.72	-7.02	-18.17	-8.75
1.21	-25.63	-7.7	-30.74	-7.64	-30.74	-7.57	-18.17	-9.49
1.31	-25.64	-8.47	-30.74	-8.23	-30.74	-8.22	-18.18	-10.24
1.41	-25.66	-9.23	-30.75	-8.81	-30.74	-8.85	-18.19	-11.03
1.51	-25.68	-9.9	-30.74	-9.49	-30.75	-9.44	-18.2	-11.71
1.61	-25.67	-10.53	-30.76	-10.09	-30.75	-10.1	-18.2	-12.41
1.71	-25.66	-11.35	-30.76	-10.67	-30.76	-10.62	-18.21	-13.2
1.81	-25.66	-12.32	-30.77	-11.27	-30.76	-11.23	-18.21	-14.01
1.91	-25.68	-13.14	-30.77	-11.89	-30.78	-11.91	-18.22	-14.8
2.01	-25.69	-13.89	-30.78	-12.45	-30.78	-12.5	-18.24	-15.58
2.11	-25.7	-14.65	-30.78	-13.12	-30.78	-13.09	-18.25	-16.34
2.21	-25.71	-15.4	-30.79	-13.75	-30.79	-13.74	-18.26	-17.08
2.31	-25.73	-16.19	-30.79	-14.32	-30.79	-14.32	-18.27	-17.84
2.41	-25.75	-16.95	-30.81	-14.95	-30.8	-14.92	-18.28	-18.59
2.51	-25.77	-17.66	-30.81	-15.52	-30.82	-15.55	-18.3	-19.37
2.61	-25.81	-18.37	-30.83	-16.14	-30.82	-16.18	-18.31	-20.12
2.71	-25.84	-18.96	-30.83	-16.77	-30.83	-16.79	-18.33	-20.87
2.81	-25.87	-19.51	-30.84	-17.41	-30.84	-17.38	-18.35	-21.59
2.91	-25.9	-20.15	-30.85	-17.98	-30.84	-17.94	-18.37	-22.33
3.01	-25.92	-20.86	-30.87	-18.56	-30.86	-18.56	-18.38	-23.04
3.11	-25.95	-21.61	-30.87	-19.17	-30.86	-19.17	-18.4	-23.79
3.21	-25.99	-22.38	-30.88	-19.77	-30.88	-19.75	-18.41	-24.52
3.31	-26.04	-23.17	-30.89	-20.39	-30.88	-20.36	-18.43	-25.28
3.41	-26.09	-23.87	-30.89	-20.96	-30.9	-20.99	-18.45	-25.99
3.51	-26.11	-24.6	-30.91	-21.6	-30.91	-21.58	-18.47	-26.71
3.61	-26.15	-25.39	-30.92	-22.19	-30.92	-22.22	-18.49	-27.46
3.71	-26.19	-26.27	-30.93	-22.79	-30.93	-22.8	-18.51	-28.22
3.81	-26.25	-27.22	-30.94	-23.4	-30.94	-23.35	-18.53	-28.99
3.91	-26.32	-28.02	-30.95	-23.98	-30.96	-24	-18.56	-29.77
4.01	-26.38	-28.63	-30.97	-24.57	-30.96	-24.62	-18.59	-30.48
4.11	-26.4	-29.35	-30.98	-25.2	-30.98	-25.15	-18.61	-31.2
4.21	-26.42	-30.21	-30.99	-25.78	-30.98	-25.78	-18.62	-31.86
4.31	-26.47	-31.29	-31.01	-26.32	-31	-26.41	-18.64	-32.64
4.41	-26.54	-32.37	-31.02	-26.95	-31.01	-26.96	-18.66	-33.43
4.51	-26.63	-33.14	-31.03	-27.55	-31.03	-27.53	-18.68	-34.26
4.61	-26.71	-33.72	-31.04	-28.15	-31.05	-28.14	-18.71	-35.02
4.71	-26.73	-34.32	-31.07	-28.75	-31.07	-28.72	-18.75	-35.72
4.81	-26.73	-35.03	-31.08	-29.35	-31.08	-29.32	-18.78	-36.39
4.91	-26.74	-36.04	-31.09	-29.92	-31.09	-29.88	-18.8	-37.05
5.01	-26.77	-37.05	-31.1	-30.48	-31.11	-30.49	-18.82	-37.74
5.11	-26.86	-38.09	-31.12	-31.14	-31.12	-31.03	-18.83	-38.51
5.21	-26.96	-38.86	-31.14	-31.68	-31.14	-31.66	-18.86	-39.25
5.31	-27.05	-39.46	-31.16	-32.3	-31.16	-32.2	-18.89	-40.05
5.41	-27.13	-39.95	-31.17	-32.86	-31.17	-32.76	-18.94	-40.79
5.51	-27.17	-40.6	-31.2	-33.41	-31.18	-33.41	-18.98	-41.42
5.61	-27.23	-41.47	-31.21	-34.05	-31.22	-33.96	-19.01	-42.03
5.71	-27.31	-42.52	-31.23	-34.59	-31.23	-34.6	-19.03	-42.71
5.81	-27.42	-43.59	-31.25	-35.13	-31.25	-35.17	-19.05	-43.38
5.91	-27.55	-44.52	-31.27	-35.75	-31.27	-35.72	-19.07	-44.17
6.01	-27.66	-45.26	-31.3	-36.35	-31.3	-36.31	-19.1	-44.96
6.11	-27.77	-45.92	-31.33	-36.95	-31.32	-36.96	-19.14	-45.67
6.21	-27.82	-46.64	-31.34	-37.53	-31.35	-37.45	-19.17	-46.34
6.31	-27.87	-47.54	-31.37	-38.04	-31.36	-38	-19.2	-46.98
6.41	-27.93	-48.61	-31.4	-38.62	-31.4	-38.55	-19.24	-47.63
6.51	-28.01	-49.74	-31.42	-39.11	-31.42	-39.01	-19.26	-48.28
6.61	-28.13	-50.79	-31.45	-39.61	-31.44	-39.54	-19.29	-49.02
6.71	-28.24	-51.76	-31.46	-40.16	-31.47	-40.12	-19.32	-49.76
6.81	-28.35	-52.64	-31.5	-40.74	-31.5	-40.67	-19.36	-50.51
6.91	-28.42	-53.54	-31.53	-41.2	-31.54	-41.16	-19.41	-51.24
7.01	-28.47	-54.42	-31.54	-41.79	-31.55	-41.68	-19.44	-51.89
7.11	-28.55	-55.49	-31.57	-42.23	-31.58	-42.21	-19.48	-52.55
7.21	-28.64	-56.6	-31.59	-42.77	-31.6	-42.72	-19.5	-53.13
7.31	-28.74	-57.59	-31.63	-43.46	-31.61	-43.38	-19.51	-53.85
7.41	-28.84	-58.41	-31.7	-44.01	-31.69	-43.98	-19.53	-54.59
7.51	-28.93	-59.33	-31.73	-44.34	-31.73	-44.3	-19.56	-55.38
7.61	-29.01	-60.1	-31.76	-44.82	-31.75	-44.69	-19.6	-56.11
7.71	-29.1	-61.01	-31.78	-45.24	-31.78	-45.14	-19.64	-56.81
7.81	-29.19	-61.97	-31.82	-45.62	-31.83	-45.61	-19.68	-57.49
7.91	-29.32	-62.86	-31.85	-46.08	-31.87	-46.04	-19.72	-58.13
8.01	-29.47	-63.98	-31.89	-46.45	-31.9	-46.45	-19.75	-58.84
8.11	-29.63	-65.05	-31.93	-46.82	-31.92	-46.81	-19.78	-59.65
8.21	-29.78	-66.1	-31.96	-47.34	-31.94	-47.34	-19.82	-60.42
8.31	-29.93	-67.12	-31.99	-47.72	-31.99	-47.57	-19.85	-61.21
8.41	-30.02	-68.14	-32.01	-48.04	-32.03	-47.98	-19.9	-61.97
8.51	-30.14	-69.48	-32.08	-48.32	-32.08	-48.25	-19.93	-62.74
8.61	-30.2	-70.99	-32.12	-48.56	-32.11	-48.45	-19.97	-63.48
8.71	-30.29	-72.57	-32.13	-48.83	-32.12	-48.68	-20.01	-64.23
8.81	-30.41	-74.19	-32.16	-49.07	-32.14	-49	-20.05	-64.99
8.91	-30.55	-75.8	-32.16	-49.34	-32.16	-49.32	-20.09	-65.84
9.01	-30.7	-77.15	-32.2	-49.71	-32.2	-49.59	-20.13	-66.67
9.11	-30.85	-78.59	-32.23	-49.79	-32.22	-49.78	-20.18	-67.43
9.21	-30.98	-79.89	-32.23	-49.99	-32.23	-49.94	-20.24	-68.24
9.31	-31.08	-81.36	-32.23	-50.19	-32.22	-50.1	-20.29	-69.03
9.41	-31.15	-82.84	-32.25	-50.47	-32.22	-50.3	-20.34	-69.84
9.51	-31.22	-84.35	-32.25	-50.54	-32.24	-50.61	-20.4	-70.59
9.61	-31.36	-86.28	-32.26	-50.85	-32.22	-50.66	-20.46	-71.34
9.71	-31.47	-87.84	-32.24	-50.96	-32.24	-51	-20.52	-72.12
9.81	-31.61	-89.43	-32.22	-51.16	-32.23	-51.19	-20.58	-72.86
9.91	-31.71	-90.57	-32.22	-51.65	-32.22	-51.46	-20.64	-73.64
10.01	-31.81	-91.77	-32.22	-51.85	-32.22	-51.64	-20.71	-74.45
10.11	-31.89	-93.11	-32.19	-52.01	-32.2	-51.86	-20.79	-75.21
10.21	-31.97	-94.72	-32.2	-52.05	-32.19	-52.08	-20.87	-76
10.31	-32.09	-96.61	-32.16	-52.43	-32.15	-52.34	-20.95	-76.69
10.41	-32.22	-98.54	-32.14	-52.65	-32.13	-52.69	-21.02	-77.3
10.51	-32.43	-100.51	-32.12	-52.93	-32.1	-52.88	-21.09	-77.94
10.61	-32.59	-102.79	-32.08	-53.29	-32.08	-53.19	-21.17	-78.61
10.71	-32.79	-104.64	-32.06	-53.82	-32.04	-53.61	-21.24	-79.39
10.81	-32.91	-106.69	-32.03	-54.21	-32.03	-54.04	-21.33	-80.12
10.91	-33	-109.2	-32.02	-54.52	-32.02	-54.4	-21.42	-80.89
11.01	-33.15	-111.36	-31.99	-54.8	-31.97	-54.79	-21.54	-81.55
11.11	-33.23	-113.73	-31.95	-55.27	-31.96	-55.25	-21.62	-82.12
11.21	-33.35	-116.06	-31.95	-55.67	-31.94	-55.72	-21.7	-82.75
11.31	-33.47	-117.67	-31.95	-56.06	-31.92	-56.1	-21.77	-83.28
11.41	-33.54	-120.16	-31.91	-56.44	-31.91	-56.29	-21.83	-83.97
11.51	-33.59	-121.68	-31.89	-56.85	-31.87	-56.73	-21.92	-84.68
11.61	-33.62	-123.74	-31.86	-57.2	-31.85	-57.13	-22.01	-85.42
11.71	-33.58	-126.34	-31.85	-57.6	-31.84	-57.58	-22.1	-86.21
11.81	-33.62	-129.1	-31.8	-58.08	-31.79	-57.93	-22.23	-86.83
11.91	-33.73	-131.93	-31.77	-58.53	-31.77	-58.49	-22.32	-87.16
12.01	-33.75	-133.97	-31.75	-59.04	-31.74	-59.01	-22.38	-87.78
12.11	-33.69	-135.8	-31.77	-59.6	-31.75	-59.63	-22.47	-88.28
12.21	-33.68	-137.86	-31.76	-59.66	-31.74	-59.7	-22.54	-88.89
12.31	-33.69	-140.02	-31.72	-60.15	-31.7	-60.08	-22.61	-89.64
12.41	-33.59	-142.18	-31.68	-60.85	-31.67	-60.63	-22.67	-90.27
12.51	-33.6	-145.16	-31.66	-61.13	-31.65	-61.03	-22.79	-91.18
12.61	-33.59	-147.47	-31.63	-61.6	-31.64	-61.51	-22.92	-91.74
12.71	-33.61	-150.74	-31.61	-61.98	-31.61	-62.11	-23.03	-92.26
12.81	-33.7	-153.68	-31.63	-62.29	-31.62	-62.35	-23.15	-92.48
12.91	-33.88	-156.14	-31.56	-62.88	-31.55	-62.81	-23.22	-92.98
13.01	-33.8	-158.19	-31.6	-63.37	-31.58	-63.29	-23.31	-93.23
13.11	-33.87	-160.66	-31.55	-63.83	-31.53	-63.76	-23.36	-93.93
13.21	-33.76	-162.53	-31.59	-63.96	-31.57	-63.76	-23.44	-94.62
13.31	-33.52	-165.14	-31.49	-64.3	-31.48	-64.16	-23.58	-95.43
13.41	-33.38	-167.94	-31.45	-64.56	-31.45	-64.55	-23.69	-95.82
13.51	-33.22	-171.02	-31.4	-65.32	-31.41	-65.22	-23.78	-96.66
13.61	-33.11	-173.21	-31.39	-65.71	-31.4	-65.68	-23.89	-96.94
13.71	-33.09	-175.68	-31.35	-66.17	-31.35	-66.17	-23.99	-97.56
13.81	-33	-176.82	-31.32	-66.75	-31.31	-66.62	-24.1	-98.02
13.91	-32.8	-178.83	-31.3	-67.13	-31.3	-67.13	-24.16	-98.75
14.01	-32.59	-180	-31.26	-67.99	-31.25	-67.84	-24.27	-99.28
14.11	-32.31	177.85	-31.25	-68.38	-31.26	-68.21	-24.41	-100.26
14.21	-32.09	175.45	-31.24	-68.45	-31.25	-68.21	-24.55	-100.82
14.31	-31.94	172.23	-31.15	-68.92	-31.15	-68.81	-24.68	-101.25
14.41	-31.92	170.67	-31.11	-69.63	-31.12	-69.59	-24.84	-101.68
14.51	-31.79	168.19	-31.13	-70.14	-31.11	-70.1	-24.92	-102
14.61	-31.78	167.14	-31.12	-70.62	-31.1	-70.58	-25	-102.37
14.71	-31.64	166.46	-31.04	-71.08	-31.04	-70.91	-25.05	-102.95
14.81	-31.51	165.75	-31.03	-71.87	-31.03	-71.61	-25.16	-103.74
14.91	-31.24	165.1	-31.03	-72.33	-31.02	-72.21	-25.29	-104.51
15.01	-31.01	162.74	-31	-72.49	-31	-72.34	-25.48	-105
15.11	-30.86	160.5	-30.95	-72.98	-30.95	-72.82	-25.58	-105.39
15.21	-30.82	158.33	-30.91	-73.57	-30.91	-73.52	-25.72	-105.52
15.31	-30.89	156.41	-30.9	-74.11	-30.89	-74.06	-25.8	-105.96
15.41	-30.8	155.3	-30.9	-74.34	-30.87	-74.13	-25.95	-106.61
15.51	-30.67	154.58	-30.84	-74.67	-30.82	-74.54	-26.04	-106.96
15.61	-30.38	153.65	-30.8	-75.19	-30.77	-75.05	-26.14	-107.8
15.71	-30.05	152.28	-30.72	-75.87	-30.72	-75.72	-26.31	-108.69
15.81	-29.77	150.4	-30.73	-76.48	-30.73	-76.33	-26.46	-109.25
15.91	-29.5	148.31	-30.69	-76.77	-30.7	-76.7	-26.6	-109.66
16.01	-29.43	145.64	-30.65	-77.09	-30.63	-77.02	-26.72	-110.25
16.11	-29.41	143.92	-30.6	-77.2	-30.57	-77.23	-26.84	-110.83
16.21	-29.42	142.82	-30.5	-77.91	-30.47	-77.75	-26.94	-111.89
16.31	-29.37	143.03	-30.43	-78.61	-30.41	-78.39	-27.14	-112.34
16.41	-29.12	142.57	-30.38	-79.21	-30.37	-78.9	-27.25	-113.14
16.51	-28.81	141.3	-30.33	-79.85	-30.33	-79.64	-27.36	-113.78
16.61	-28.68	139.54	-30.29	-80.44	-30.27	-80.32	-27.49	-114.82
16.71	-28.59	138.17	-30.21	-80.93	-30.2	-80.99	-27.64	-116.91
16.81	-28.53	136.79	-30.22	-81.49	-30.19	-81.55	-28.05	-117.98
16.91	-28.54	135.56	-30.14	-81.66	-30.08	-81.66	-28.48	-119.02
17.01	-28.61	136.53	-30.04	-82.63	-29.99	-82.71	-28.89	-117.36
17.11	-28.39	136.83	-30.01	-83.3	-29.95	-83.37	-29.13	-114.22
17.21	-28.12	136.56	-29.95	-83.98	-29.9	-84.19	-28.29	-112.4
17.31	-27.84	135.15	-29.9	-84.1	-29.9	-84.52	-28	-118.01
17.41	-27.73	133.22	-29.76	-84.75	-29.77	-85.19	-28.23	-125.62
17.51	-27.68	131.75	-29.67	-85.88	-29.7	-86.34	-29.52	-128.86
17.61	-27.71	130.06	-29.59	-86.09	-29.62	-86.71	-30.58	-125.8
17.71	-27.84	129.24	-29.45	-87.43	-29.5	-87.68	-30.48	-119.59
17.81	-27.83	129.21	-29.42	-88.35	-29.46	-88.57	-29.97	-119.51
17.91	-27.71	129.03	-29.36	-89.44	-29.41	-89.38	-29.81	-125.52
18.01	-27.38	128.05	-29.31	-90.3	-29.35	-90.13	-30.41	-130.57
18.11	-27.26	126.04	-29.23	-91.06	-29.3	-90.9	-31.52	-133.08
18.21	-27.2	124.94	-29.17	-92.37	-29.22	-92.13	-32.32	-130.91
18.31	-27.12	123.89	-29.12	-93.43	-29.18	-93.33	-33	-128.83
18.41	-27.16	123.09	-29.09	-93.95	-29.14	-93.87	-32.71	-125.79
18.51	-27.19	123.32	-29.03	-95.39	-29.04	-95.36	-32.95	-128.05
18.61	-27.07	123.65	-29.05	-96.27	-29.04	-96.02	-32.88	-130.06
18.71	-27.02	124.27	-28.97	-97.1	-28.98	-96.86	-33.29	-133.76
18.81	-26.77	123.85	-28.85	-98.08	-28.88	-97.81	-33.81	-137.03
18.91	-26.67	122.58	-28.8	-99.21	-28.81	-98.99	-34.78	-141.41
19.01	-26.62	122.05	-28.76	-100.63	-28.78	-100.54	-35.86	-140.22
19.11	-26.57	121.94	-28.79	-101.8	-28.81	-101.7	-36.43	-140.03
19.21	-26.59	121.55	-28.76	-102.31	-28.75	-102.1	-36.69	-139.18
19.31	-26.55	121.9	-28.59	-103.93	-28.57	-103.9	-36.99	-145.69
19.41	-26.38	122.53	-28.69	-105.81	-28.68	-105.65	-38.38	-150.49
19.51	-26.32	122.51	-28.69	-107.01	-28.68	-106.72	-39.81	-155.6
19.61	-26.07	121.88	-28.73	-107.73	-28.75	-107.43	-41.29	-151.48
19.71	-26.02	120.99	-28.67	-108.31	-28.69	-108.13	-41.58	-156.18
19.81	-26.17	119.97	-28.46	-109.86	-28.47	-109.7	-43.22	-160.97
19.91	-26.2	120.51	-28.54	-111.81	-28.55	-111.79	-45.31	-170.78
20.01	-26.24	121.97	-28.65	-113.52	-28.64	-113.37	-49.42	-179.77