!s2p File: Measurements: S11, S21, S12, S22								
# GHz S dB R 50.0								
0.01	-25.29	-0.17	-19.12	-0.32	-19.12	-0.27	-19.15	-1.76
0.11	-25.46	-1.57	-19.25	-1.35	-19.25	-1.33	-19.86	-3.81
0.21	-25.53	-1.9	-19.29	-1.98	-19.28	-1.97	-20.03	-4.27
0.31	-25.54	-2.37	-19.29	-2.67	-19.29	-2.66	-20.08	-4.97
0.41	-25.55	-2.93	-19.3	-3.43	-19.3	-3.41	-20.11	-5.87
0.51	-25.53	-3.47	-19.3	-4.17	-19.3	-4.15	-20.13	-6.86
0.61	-25.54	-4	-19.31	-4.91	-19.31	-4.91	-20.15	-7.89
0.71	-25.53	-4.63	-19.31	-5.68	-19.31	-5.66	-20.16	-8.94
0.81	-25.53	-5.2	-19.32	-6.44	-19.31	-6.43	-20.17	-10.04
0.91	-25.55	-5.79	-19.32	-7.21	-19.32	-7.18	-20.19	-11.14
1.01	-25.55	-6.4	-19.33	-7.97	-19.32	-7.95	-20.2	-12.24
1.11	-25.56	-7.01	-19.33	-8.73	-19.33	-8.72	-20.21	-13.37
1.21	-25.57	-7.68	-19.34	-9.48	-19.33	-9.49	-20.22	-14.5
1.31	-25.58	-8.44	-19.34	-10.26	-19.34	-10.25	-20.24	-15.66
1.41	-25.59	-9.21	-19.35	-11.05	-19.34	-11.02	-20.26	-16.84
1.51	-25.62	-9.9	-19.35	-11.81	-19.35	-11.81	-20.29	-17.93
1.61	-25.61	-10.56	-19.36	-12.57	-19.36	-12.57	-20.3	-19.02
1.71	-25.6	-11.35	-19.37	-13.34	-19.36	-13.32	-20.32	-20.22
1.81	-25.59	-12.3	-19.37	-14.1	-19.37	-14.1	-20.33	-21.44
1.91	-25.61	-13.11	-19.38	-14.86	-19.38	-14.85	-20.35	-22.63
2.01	-25.63	-13.88	-19.39	-15.63	-19.39	-15.62	-20.38	-23.83
2.11	-25.64	-14.63	-19.4	-16.39	-19.39	-16.39	-20.41	-25
2.21	-25.65	-15.39	-19.4	-17.15	-19.4	-17.14	-20.44	-26.14
2.31	-25.67	-16.13	-19.41	-17.91	-19.41	-17.91	-20.47	-27.27
2.41	-25.68	-16.94	-19.42	-18.67	-19.42	-18.65	-20.5	-28.44
2.51	-25.71	-17.63	-19.43	-19.42	-19.43	-19.42	-20.54	-29.6
2.61	-25.74	-18.32	-19.44	-20.17	-19.43	-20.19	-20.58	-30.74
2.71	-25.77	-18.88	-19.45	-20.94	-19.44	-20.93	-20.62	-31.89
2.81	-25.81	-19.45	-19.46	-21.68	-19.45	-21.69	-20.66	-33.01
2.91	-25.83	-20.13	-19.47	-22.44	-19.47	-22.43	-20.7	-34.12
3.01	-25.85	-20.83	-19.48	-23.21	-19.47	-23.18	-20.74	-35.2
3.11	-25.88	-21.58	-19.49	-23.95	-19.48	-23.94	-20.78	-36.33
3.21	-25.93	-22.33	-19.5	-24.68	-19.49	-24.69	-20.82	-37.46
3.31	-25.97	-23.08	-19.51	-25.44	-19.51	-25.42	-20.88	-38.59
3.41	-26.02	-23.79	-19.52	-26.2	-19.52	-26.18	-20.93	-39.68
3.51	-26.04	-24.52	-19.53	-26.94	-19.53	-26.94	-20.98	-40.77
3.61	-26.08	-25.33	-19.54	-27.67	-19.54	-27.68	-21.03	-41.87
3.71	-26.12	-26.2	-19.55	-28.42	-19.55	-28.42	-21.07	-42.99
3.81	-26.18	-27.11	-19.57	-29.15	-19.57	-29.18	-21.12	-44.16
3.91	-26.25	-27.93	-19.58	-29.89	-19.58	-29.9	-21.18	-45.33
4.01	-26.3	-28.55	-19.59	-30.65	-19.59	-30.64	-21.25	-46.45
4.11	-26.33	-29.29	-19.6	-31.41	-19.6	-31.39	-21.31	-47.47
4.21	-26.35	-30.12	-19.61	-32.13	-19.61	-32.11	-21.36	-48.49
4.31	-26.4	-31.15	-19.63	-32.85	-19.63	-32.86	-21.41	-49.58
4.41	-26.47	-32.22	-19.64	-33.59	-19.64	-33.6	-21.46	-50.69
4.51	-26.54	-32.94	-19.66	-34.31	-19.66	-34.31	-21.52	-51.88
4.61	-26.62	-33.6	-19.67	-35.05	-19.67	-35.08	-21.59	-53.02
4.71	-26.64	-34.16	-19.69	-35.81	-19.68	-35.8	-21.67	-54.1
4.81	-26.65	-34.89	-19.7	-36.56	-19.7	-36.52	-21.75	-55.09
4.91	-26.66	-35.88	-19.72	-37.29	-19.71	-37.24	-21.82	-56.01
5.01	-26.7	-36.89	-19.72	-37.99	-19.72	-37.97	-21.88	-57
5.11	-26.78	-37.84	-19.74	-38.7	-19.74	-38.68	-21.93	-58.03
5.21	-26.88	-38.6	-19.76	-39.44	-19.76	-39.43	-22	-59.09
5.31	-26.95	-39.25	-19.78	-40.17	-19.77	-40.14	-22.08	-60.24
5.41	-27.03	-39.75	-19.79	-40.89	-19.79	-40.86	-22.17	-61.31
5.51	-27.08	-40.38	-19.81	-41.6	-19.8	-41.59	-22.27	-62.28
5.61	-27.14	-41.24	-19.82	-42.35	-19.82	-42.34	-22.35	-63.13
5.71	-27.22	-42.21	-19.84	-43.07	-19.84	-43.05	-22.43	-64.02
5.81	-27.31	-43.25	-19.85	-43.75	-19.85	-43.75	-22.5	-64.92
5.91	-27.44	-44.14	-19.87	-44.5	-19.87	-44.47	-22.56	-65.94
6.01	-27.55	-44.97	-19.89	-45.21	-19.89	-45.18	-22.63	-67.01
6.11	-27.65	-45.59	-19.91	-45.94	-19.91	-45.93	-22.72	-68.05
6.21	-27.7	-46.35	-19.93	-46.64	-19.93	-46.63	-22.82	-68.92
6.31	-27.76	-47.22	-19.95	-47.35	-19.95	-47.33	-22.9	-69.77
6.41	-27.82	-48.16	-19.97	-48.05	-19.97	-48.04	-23	-70.69
6.51	-27.89	-49.33	-19.99	-48.73	-19.99	-48.72	-23.08	-71.49
6.61	-28	-50.35	-20.01	-49.44	-20.01	-49.43	-23.16	-72.43
6.71	-28.1	-51.32	-20.03	-50.15	-20.03	-50.11	-23.24	-73.37
6.81	-28.21	-52.16	-20.05	-50.81	-20.05	-50.8	-23.34	-74.36
6.91	-28.27	-53.08	-20.07	-51.51	-20.07	-51.47	-23.43	-75.38
7.01	-28.33	-53.98	-20.09	-52.18	-20.09	-52.19	-23.54	-76.19
7.11	-28.39	-54.93	-20.11	-52.86	-20.11	-52.87	-23.63	-77.01
7.21	-28.48	-56.06	-20.13	-53.57	-20.13	-53.56	-23.72	-77.67
7.31	-28.57	-56.96	-20.16	-54.3	-20.15	-54.3	-23.78	-78.48
7.41	-28.65	-57.8	-20.19	-55.02	-20.18	-54.99	-23.83	-79.28
7.51	-28.73	-58.79	-20.22	-55.62	-20.21	-55.61	-23.91	-80.29
7.61	-28.82	-59.56	-20.23	-56.31	-20.23	-56.24	-24.01	-81.21
7.71	-28.9	-60.44	-20.25	-56.93	-20.25	-56.9	-24.11	-82.05
7.81	-28.97	-61.32	-20.28	-57.53	-20.28	-57.56	-24.21	-82.89
7.91	-29.1	-62.14	-20.31	-58.21	-20.31	-58.22	-24.3	-83.65
8.01	-29.24	-63.32	-20.33	-58.83	-20.33	-58.85	-24.38	-84.42
8.11	-29.37	-64.4	-20.36	-59.46	-20.36	-59.43	-24.46	-85.46
8.21	-29.52	-65.49	-20.38	-60.09	-20.38	-60.11	-24.54	-86.43
8.31	-29.65	-66.49	-20.41	-60.75	-20.4	-60.71	-24.62	-87.37
8.41	-29.75	-67.53	-20.43	-61.34	-20.43	-61.33	-24.72	-88.36
8.51	-29.85	-68.88	-20.46	-61.93	-20.46	-61.9	-24.81	-89.32
8.61	-29.91	-70.27	-20.49	-62.49	-20.49	-62.46	-24.89	-90.23
8.71	-30	-71.9	-20.51	-63.08	-20.51	-63	-24.98	-91.19
8.81	-30.1	-73.41	-20.54	-63.63	-20.53	-63.58	-25.07	-92.08
8.91	-30.22	-74.99	-20.56	-64.17	-20.55	-64.16	-25.16	-93.17
9.01	-30.37	-76.36	-20.58	-64.75	-20.58	-64.68	-25.25	-94.32
9.11	-30.49	-77.9	-20.6	-65.27	-20.6	-65.22	-25.36	-95.32
9.21	-30.6	-79.27	-20.62	-65.77	-20.61	-65.76	-25.48	-96.48
9.31	-30.7	-80.7	-20.63	-66.34	-20.62	-66.29	-25.59	-97.56
9.41	-30.78	-82.25	-20.64	-66.87	-20.64	-66.82	-25.71	-98.62
9.51	-30.83	-83.75	-20.66	-67.4	-20.66	-67.36	-25.85	-99.75
9.61	-30.98	-85.57	-20.67	-67.95	-20.66	-67.89	-25.98	-100.68
9.71	-31.08	-87.19	-20.68	-68.45	-20.68	-68.4	-26.13	-101.76
9.81	-31.19	-88.81	-20.69	-68.93	-20.69	-68.94	-26.27	-102.78
9.91	-31.31	-90.03	-20.7	-69.52	-20.69	-69.5	-26.43	-103.95
10.01	-31.39	-91.38	-20.7	-70.06	-20.71	-70.01	-26.58	-105.07
10.11	-31.47	-92.77	-20.72	-70.58	-20.71	-70.52	-26.75	-106.27
10.21	-31.56	-94.37	-20.72	-71.06	-20.72	-71.04	-26.95	-107.47
10.31	-31.71	-96.13	-20.72	-71.63	-20.72	-71.58	-27.14	-108.4
10.41	-31.8	-97.99	-20.73	-72.16	-20.72	-72.14	-27.37	-109.27
10.51	-32	-99.86	-20.73	-72.68	-20.72	-72.67	-27.57	-110.09
10.61	-32.15	-102.19	-20.73	-73.25	-20.72	-73.23	-27.77	-110.98
10.71	-32.33	-104.05	-20.73	-73.87	-20.72	-73.78	-27.96	-111.99
10.81	-32.46	-105.98	-20.73	-74.44	-20.72	-74.39	-28.19	-113.04
10.91	-32.56	-108.47	-20.73	-75.02	-20.73	-74.94	-28.41	-114.18
11.01	-32.69	-110.44	-20.73	-75.56	-20.73	-75.5	-28.71	-115.35
11.11	-32.76	-112.71	-20.73	-76.14	-20.74	-76.13	-28.95	-116.03
11.21	-32.87	-114.98	-20.74	-76.73	-20.73	-76.74	-29.2	-116.73
11.31	-32.98	-116.73	-20.75	-77.3	-20.73	-77.31	-29.45	-117.34
11.41	-33.05	-119.15	-20.74	-77.88	-20.73	-77.86	-29.65	-118.02
11.51	-33.11	-120.85	-20.74	-78.48	-20.73	-78.4	-29.93	-118.93
11.61	-33.15	-122.77	-20.74	-79.06	-20.73	-78.96	-30.17	-119.88
11.71	-33.13	-125.06	-20.73	-79.6	-20.75	-79.57	-30.41	-120.95
11.81	-33.19	-127.87	-20.73	-80.16	-20.74	-80.13	-30.79	-121.84
11.91	-33.29	-130.47	-20.74	-80.79	-20.73	-80.78	-31.15	-121.93
12.01	-33.29	-132.57	-20.73	-81.34	-20.74	-81.41	-31.39	-122.24
12.11	-33.23	-134.2	-20.75	-82.05	-20.74	-82.04	-31.7	-122.57
12.21	-33.24	-136.45	-20.76	-82.56	-20.74	-82.53	-31.96	-122.94
12.31	-33.28	-138.5	-20.75	-83.15	-20.74	-83.12	-32.22	-123.67
12.41	-33.19	-140.81	-20.73	-83.81	-20.74	-83.69	-32.44	-123.83
12.51	-33.23	-143.24	-20.74	-84.37	-20.74	-84.25	-32.79	-125.23
12.61	-33.18	-145.51	-20.74	-84.91	-20.74	-84.85	-33.21	-126.01
12.71	-33.24	-148.41	-20.73	-85.52	-20.74	-85.5	-33.62	-126.3
12.81	-33.31	-151.22	-20.75	-86.08	-20.75	-86.13	-34.17	-125.61
12.91	-33.43	-153.86	-20.74	-86.67	-20.73	-86.66	-34.51	-125.35
13.01	-33.38	-155.79	-20.74	-87.34	-20.74	-87.3	-34.98	-124.36
13.11	-33.45	-158.38	-20.74	-87.95	-20.73	-87.92	-35.21	-124.31
13.21	-33.39	-160.14	-20.77	-88.48	-20.77	-88.35	-35.46	-124.7
13.31	-33.17	-162.95	-20.74	-88.98	-20.74	-88.88	-36.09	-126.07
13.41	-33.07	-165.57	-20.73	-89.51	-20.74	-89.5	-36.59	-124.93
13.51	-32.89	-168.26	-20.72	-90.13	-20.73	-90.12	-36.9	-125.51
13.61	-32.8	-170.49	-20.73	-90.73	-20.72	-90.72	-37.5	-124.19
13.71	-32.74	-172.99	-20.7	-91.29	-20.71	-91.31	-38.03	-124.21
13.81	-32.65	-174.32	-20.72	-91.96	-20.71	-91.92	-38.57	-122.9
13.91	-32.51	-176.36	-20.72	-92.61	-20.7	-92.49	-38.91	-122.02
14.01	-32.32	-177.67	-20.71	-93.28	-20.7	-93.19	-39.39	-120.35
14.11	-32.1	-179.79	-20.7	-93.86	-20.71	-93.76	-40.02	-122.26
14.21	-31.88	177.99	-20.71	-94.39	-20.71	-94.27	-40.84	-121.41
14.31	-31.75	175.01	-20.68	-94.9	-20.69	-94.85	-41.68	-118.91
14.41	-31.7	173.65	-20.67	-95.54	-20.68	-95.55	-42.69	-116.02
14.51	-31.55	171.21	-20.68	-96.26	-20.68	-96.2	-43.27	-111.25
14.61	-31.52	170	-20.69	-96.86	-20.68	-96.81	-43.6	-105.84
14.71	-31.38	169.07	-20.68	-97.44	-20.66	-97.27	-43.8	-102.41
14.81	-31.27	168.18	-20.67	-98.16	-20.66	-98	-44.27	-99.58
14.91	-31.04	167.62	-20.68	-98.76	-20.68	-98.62	-44.95	-96.55
15.01	-30.82	165.34	-20.67	-99.23	-20.67	-99.09	-46.15	-89.2
15.11	-30.67	163.21	-20.65	-99.81	-20.66	-99.77	-46.24	-80.78
15.21	-30.63	161.08	-20.65	-100.43	-20.64	-100.41	-46.28	-70.22
15.31	-30.68	159.25	-20.66	-101.07	-20.64	-100.99	-45.85	-63.47
15.41	-30.59	158.03	-20.67	-101.61	-20.65	-101.5	-45.95	-56.75
15.51	-30.47	157.03	-20.66	-102.15	-20.63	-102.03	-45.26	-51.54
15.61	-30.15	155.9	-20.64	-102.79	-20.63	-102.63	-45.22	-48.86
15.71	-29.89	154.46	-20.61	-103.44	-20.62	-103.26	-45.45	-42.3
15.81	-29.65	152.85	-20.63	-104.07	-20.62	-103.94	-45.01	-36.58
15.91	-29.42	151.03	-20.62	-104.57	-20.62	-104.52	-44.51	-32.74
16.01	-29.33	148.51	-20.61	-105.09	-20.6	-105.09	-44.04	-29.26
16.11	-29.26	146.87	-20.6	-105.55	-20.58	-105.57	-43.74	-26.22
16.21	-29.24	145.63	-20.59	-106.26	-20.55	-106.2	-43.65	-24.26
16.31	-29.17	145.62	-20.57	-106.87	-20.55	-106.72	-42.95	-18.02
16.41	-28.95	145.06	-20.55	-107.46	-20.53	-107.29	-42.44	-16.33
16.51	-28.67	143.79	-20.53	-108.16	-20.51	-108.03	-41.99	-15.76
16.61	-28.54	142.19	-20.52	-108.83	-20.5	-108.68	-41.81	-14.46
16.71	-28.45	140.93	-20.5	-109.3	-20.48	-109.32	-42.38	-9.36
16.81	-28.37	139.71	-20.51	-109.95	-20.47	-110	-41.54	-1.7
16.91	-28.36	138.43	-20.5	-110.44	-20.44	-110.44	-40.89	7.45
17.01	-28.38	139.1	-20.47	-111.05	-20.42	-111.15	-38.76	8.55
17.11	-28.19	139.05	-20.47	-111.68	-20.4	-111.75	-36.97	3.97
17.21	-27.93	138.7	-20.44	-112.24	-20.39	-112.45	-36.64	-11.9
17.31	-27.69	137.49	-20.42	-112.74	-20.39	-113.11	-38.41	-16.7
17.41	-27.59	135.83	-20.33	-113.26	-20.36	-113.74	-41.31	-4.61
17.51	-27.55	134.45	-20.31	-114.14	-20.33	-114.54	-38.83	19.02
17.61	-27.53	132.89	-20.27	-114.55	-20.3	-115.09	-36.19	18.36
17.71	-27.64	131.99	-20.22	-115.57	-20.26	-115.81	-34.77	7.24
17.81	-27.6	131.9	-20.21	-116.35	-20.24	-116.53	-34.96	-0.36
17.91	-27.48	131.5	-20.19	-117.31	-20.23	-117.23	-36.12	0.95
18.01	-27.2	130.58	-20.18	-118.06	-20.22	-117.93	-36.05	9.2
18.11	-27.09	128.73	-20.15	-118.76	-20.2	-118.55	-34.93	14.92
18.21	-27.01	127.9	-20.14	-119.57	-20.17	-119.48	-33.69	13.49
18.31	-26.89	126.96	-20.11	-120.36	-20.14	-120.28	-32.83	11.59
18.41	-26.87	126.17	-20.1	-121.03	-20.13	-121.07	-32.62	6.12
18.51	-26.87	126.22	-20.09	-121.99	-20.1	-121.92	-32.48	5.69
18.61	-26.72	126.24	-20.12	-122.77	-20.11	-122.58	-32.58	3.59
18.71	-26.69	126.61	-20.09	-123.46	-20.09	-123.29	-32.61	4.75
18.81	-26.47	126.3	-20.05	-124.26	-20.08	-124.03	-32.46	6.57
18.91	-26.36	125.22	-20.04	-125.17	-20.04	-124.95	-31.95	9.51
19.01	-26.28	124.82	-20.01	-126.04	-20.05	-125.97	-31.27	7.86
19.11	-26.19	124.72	-20.03	-126.78	-20.05	-126.77	-31.01	6.13
19.21	-26.17	124.35	-20.04	-127.5	-20.03	-127.37	-30.86	4.83
19.31	-26.08	124.51	-19.99	-128.42	-19.98	-128.38	-30.77	5.9
19.41	-25.91	124.94	-20.02	-129.58	-20.02	-129.45	-30.3	6.16
19.51	-25.81	124.83	-20.06	-130.48	-20.04	-130.29	-29.89	5.82
19.61	-25.59	124.15	-20.08	-131.14	-20.09	-130.94	-29.62	3.36
19.71	-25.53	123.41	-20.07	-131.78	-20.08	-131.61	-29.58	3.37
19.81	-25.58	122.55	-20.03	-132.66	-20.03	-132.62	-29.16	2.44
19.91	-25.56	122.94	-20.05	-133.63	-20.07	-133.59	-28.99	1.72
20.01	-25.5	123.96	-20.11	-134.45	-20.09	-134.39	-28.56	0.58