!s2p File: Measurements: S11, S21, S12, S22								
# GHz S dB R 50.0								
0.01	-25.23	-0.31	-23.43	-0.3	-23.48	-0.23	-23.91	-1.75
0.11	-25.43	-1.52	-23.58	-1.37	-23.58	-1.37	-24.87	-5.29
0.21	-25.49	-1.86	-23.62	-1.99	-23.62	-1.99	-25.22	-4.97
0.31	-25.5	-2.35	-23.64	-2.61	-23.63	-2.62	-25.32	-4.88
0.41	-25.51	-2.91	-23.64	-3.29	-23.64	-3.3	-25.37	-5.13
0.51	-25.5	-3.41	-23.65	-3.98	-23.64	-3.97	-25.41	-5.54
0.61	-25.51	-3.97	-23.65	-4.69	-23.65	-4.69	-25.44	-6.02
0.71	-25.5	-4.59	-23.65	-5.4	-23.65	-5.41	-25.44	-6.57
0.81	-25.5	-5.14	-23.66	-6.14	-23.66	-6.14	-25.46	-7.19
0.91	-25.51	-5.77	-23.67	-6.86	-23.66	-6.86	-25.48	-7.82
1.01	-25.52	-6.38	-23.67	-7.58	-23.66	-7.56	-25.49	-8.42
1.11	-25.52	-6.98	-23.67	-8.31	-23.67	-8.3	-25.5	-9.12
1.21	-25.53	-7.62	-23.68	-9.02	-23.67	-9.02	-25.51	-9.79
1.31	-25.54	-8.37	-23.68	-9.76	-23.68	-9.74	-25.53	-10.56
1.41	-25.56	-9.15	-23.69	-10.5	-23.68	-10.48	-25.55	-11.37
1.51	-25.58	-9.82	-23.7	-11.22	-23.69	-11.22	-25.58	-11.98
1.61	-25.57	-10.46	-23.7	-11.95	-23.69	-11.94	-25.59	-12.6
1.71	-25.56	-11.26	-23.71	-12.69	-23.7	-12.68	-25.59	-13.36
1.81	-25.55	-12.2	-23.71	-13.4	-23.71	-13.4	-25.6	-14.27
1.91	-25.58	-13.01	-23.72	-14.12	-23.71	-14.13	-25.63	-15.1
2.01	-25.59	-13.79	-23.72	-14.84	-23.72	-14.85	-25.66	-15.89
2.11	-25.6	-14.5	-23.73	-15.58	-23.73	-15.56	-25.7	-16.71
2.21	-25.61	-15.28	-23.73	-16.29	-23.73	-16.3	-25.72	-17.37
2.31	-25.63	-16.02	-23.75	-17	-23.74	-17.01	-25.75	-18.16
2.41	-25.64	-16.8	-23.75	-17.75	-23.75	-17.73	-25.78	-18.89
2.51	-25.68	-17.49	-23.76	-18.45	-23.76	-18.44	-25.82	-19.66
2.61	-25.7	-18.18	-23.77	-19.19	-23.77	-19.18	-25.87	-20.42
2.71	-25.74	-18.76	-23.78	-19.92	-23.77	-19.88	-25.91	-21.17
2.81	-25.77	-19.32	-23.79	-20.62	-23.78	-20.6	-25.96	-21.85
2.91	-25.79	-19.96	-23.8	-21.34	-23.79	-21.31	-26	-22.54
3.01	-25.81	-20.68	-23.8	-22.02	-23.8	-22.03	-26.04	-23.14
3.11	-25.84	-21.45	-23.81	-22.76	-23.81	-22.76	-26.08	-23.95
3.21	-25.89	-22.19	-23.82	-23.46	-23.82	-23.47	-26.12	-24.6
3.31	-25.93	-22.93	-23.83	-24.2	-23.83	-24.18	-26.18	-25.32
3.41	-25.98	-23.63	-23.84	-24.89	-23.83	-24.89	-26.24	-26.01
3.51	-25.99	-24.38	-23.85	-25.62	-23.84	-25.61	-26.29	-26.6
3.61	-26.03	-25.13	-23.86	-26.33	-23.86	-26.33	-26.34	-27.33
3.71	-26.08	-26.02	-23.87	-27.03	-23.87	-27.05	-26.38	-28.07
3.81	-26.14	-26.97	-23.88	-27.76	-23.88	-27.77	-26.44	-28.91
3.91	-26.2	-27.74	-23.9	-28.47	-23.89	-28.46	-26.51	-29.72
4.01	-26.26	-28.39	-23.91	-29.16	-23.9	-29.22	-26.59	-30.34
4.11	-26.28	-29.06	-23.91	-29.93	-23.92	-29.88	-26.67	-30.91
4.21	-26.31	-29.92	-23.92	-30.6	-23.93	-30.58	-26.71	-31.45
4.31	-26.35	-30.98	-23.94	-31.28	-23.94	-31.31	-26.75	-32.16
4.41	-26.42	-32.02	-23.95	-32.02	-23.95	-31.99	-26.8	-32.97
4.51	-26.5	-32.77	-23.97	-32.68	-23.97	-32.71	-26.87	-33.81
4.61	-26.57	-33.39	-23.98	-33.4	-23.98	-33.4	-26.95	-34.59
4.71	-26.59	-33.97	-23.99	-34.13	-24	-34.11	-27.06	-35.16
4.81	-26.61	-34.71	-24.01	-34.83	-24	-34.8	-27.14	-35.62
4.91	-26.61	-35.65	-24.02	-35.53	-24.02	-35.49	-27.2	-36.04
5.01	-26.65	-36.68	-24.03	-36.24	-24.03	-36.22	-27.25	-36.56
5.11	-26.73	-37.64	-24.05	-36.91	-24.05	-36.89	-27.29	-37.26
5.21	-26.83	-38.39	-24.06	-37.64	-24.06	-37.59	-27.37	-37.97
5.31	-26.91	-39.05	-24.08	-38.3	-24.08	-38.29	-27.46	-38.76
5.41	-26.99	-39.47	-24.1	-39.02	-24.09	-38.98	-27.59	-39.36
5.51	-27.03	-40.14	-24.11	-39.7	-24.1	-39.68	-27.7	-39.74
5.61	-27.09	-41.01	-24.13	-40.42	-24.12	-40.4	-27.79	-39.99
5.71	-27.17	-41.97	-24.14	-41.12	-24.14	-41.04	-27.85	-40.43
5.81	-27.27	-43.05	-24.16	-41.79	-24.16	-41.77	-27.9	-40.83
5.91	-27.39	-43.89	-24.17	-42.47	-24.17	-42.46	-27.96	-41.62
6.01	-27.5	-44.71	-24.19	-43.22	-24.2	-43.17	-28.05	-42.34
6.11	-27.6	-45.38	-24.21	-43.86	-24.22	-43.89	-28.15	-42.87
6.21	-27.66	-46.08	-24.23	-44.51	-24.23	-44.53	-28.26	-43.31
6.31	-27.71	-46.92	-24.25	-45.25	-24.25	-45.22	-28.34	-43.58
6.41	-27.77	-47.94	-24.28	-45.89	-24.27	-45.92	-28.45	-43.91
6.51	-27.84	-49.03	-24.3	-46.56	-24.29	-46.55	-28.51	-44.2
6.61	-27.96	-50.11	-24.31	-47.25	-24.31	-47.22	-28.58	-44.74
6.71	-28.06	-51.04	-24.33	-47.92	-24.33	-47.87	-28.67	-45.33
6.81	-28.17	-51.93	-24.35	-48.61	-24.35	-48.55	-28.78	-45.88
6.91	-28.24	-52.81	-24.38	-49.24	-24.38	-49.18	-28.9	-46.49
7.01	-28.29	-53.7	-24.39	-49.93	-24.39	-49.89	-29.01	-46.73
7.11	-28.36	-54.71	-24.42	-50.53	-24.41	-50.51	-29.1	-46.95
7.21	-28.45	-55.74	-24.43	-51.22	-24.44	-51.18	-29.16	-47.04
7.31	-28.54	-56.65	-24.46	-51.97	-24.45	-51.95	-29.17	-47.59
7.41	-28.63	-57.54	-24.5	-52.66	-24.49	-52.61	-29.2	-48.16
7.51	-28.71	-58.42	-24.53	-53.2	-24.53	-53.16	-29.29	-48.9
7.61	-28.81	-59.23	-24.55	-53.84	-24.55	-53.75	-29.42	-49.36
7.71	-28.89	-60.06	-24.57	-54.42	-24.57	-54.37	-29.53	-49.72
7.81	-28.96	-60.94	-24.6	-55.01	-24.6	-55.01	-29.63	-50.03
7.91	-29.09	-61.84	-24.63	-55.63	-24.63	-55.63	-29.72	-50.28
8.01	-29.23	-62.89	-24.66	-56.22	-24.66	-56.25	-29.8	-50.62
8.11	-29.37	-64	-24.68	-56.79	-24.68	-56.81	-29.88	-51.44
8.21	-29.52	-65.01	-24.71	-57.43	-24.71	-57.43	-29.97	-52.22
8.31	-29.68	-66.01	-24.73	-58.02	-24.74	-58.01	-30.07	-52.91
8.41	-29.75	-67.09	-24.76	-58.58	-24.77	-58.56	-30.19	-53.5
8.51	-29.87	-68.34	-24.8	-59.11	-24.81	-59.07	-30.31	-54.24
8.61	-29.93	-69.73	-24.83	-59.61	-24.83	-59.58	-30.41	-54.79
8.71	-30.02	-71.28	-24.86	-60.13	-24.85	-60.06	-30.53	-55.39
8.81	-30.13	-72.86	-24.88	-60.63	-24.87	-60.58	-30.63	-56.01
8.91	-30.26	-74.38	-24.9	-61.13	-24.89	-61.12	-30.74	-56.91
9.01	-30.41	-75.73	-24.92	-61.68	-24.92	-61.58	-30.9	-57.84
9.11	-30.54	-77.19	-24.94	-62.11	-24.95	-62.07	-31.05	-58.39
9.21	-30.66	-78.48	-24.96	-62.56	-24.96	-62.51	-31.25	-59.24
9.31	-30.75	-79.83	-24.98	-63.04	-24.97	-62.99	-31.42	-59.96
9.41	-30.84	-81.33	-24.99	-63.52	-24.99	-63.5	-31.6	-60.59
9.51	-30.9	-82.87	-25.02	-63.97	-25.01	-63.94	-31.8	-61.15
9.61	-31.03	-84.63	-25.02	-64.42	-25.01	-64.41	-31.99	-61.63
9.71	-31.14	-86.34	-25.03	-64.88	-25.03	-64.85	-32.2	-62.11
9.81	-31.26	-87.81	-25.04	-65.32	-25.04	-65.33	-32.42	-62.76
9.91	-31.37	-89.02	-25.04	-65.83	-25.04	-65.82	-32.68	-63.27
10.01	-31.45	-90.27	-25.05	-66.28	-25.05	-66.24	-32.94	-63.83
10.11	-31.55	-91.54	-25.06	-66.76	-25.05	-66.68	-33.26	-64.38
10.21	-31.64	-93.16	-25.06	-67.14	-25.06	-67.14	-33.59	-64.8
10.31	-31.77	-94.85	-25.05	-67.66	-25.05	-67.6	-33.89	-64.85
10.41	-31.88	-96.69	-25.05	-68.14	-25.05	-68.11	-34.23	-64.36
10.51	-32.09	-98.59	-25.06	-68.55	-25.05	-68.56	-34.5	-64.12
10.61	-32.24	-100.79	-25.05	-69.1	-25.04	-69.07	-34.81	-64.01
10.71	-32.42	-102.67	-25.04	-69.64	-25.04	-69.57	-35.13	-63.98
10.81	-32.56	-104.58	-25.03	-70.23	-25.03	-70.11	-35.57	-63.86
10.91	-32.68	-106.94	-25.03	-70.75	-25.03	-70.62	-35.99	-63.68
11.01	-32.8	-109.06	-25.02	-71.24	-25.03	-71.12	-36.53	-62.55
11.11	-32.9	-111.11	-25.02	-71.75	-25.02	-71.68	-36.88	-61.26
11.21	-32.99	-113.5	-25.03	-72.28	-25.02	-72.29	-37.27	-60.09
11.31	-33.11	-115.21	-25.03	-72.81	-25.01	-72.81	-37.54	-58.31
11.41	-33.2	-117.5	-25.02	-73.34	-25.01	-73.34	-37.85	-57.84
11.51	-33.26	-119.36	-25.02	-73.94	-25.01	-73.8	-38.25	-56.44
11.61	-33.31	-121.19	-25.01	-74.43	-25	-74.31	-38.79	-55.39
11.71	-33.3	-123.54	-24.99	-74.96	-25	-74.94	-39.25	-54.03
11.81	-33.35	-126.26	-24.98	-75.52	-24.99	-75.44	-39.86	-50.69
11.91	-33.47	-128.83	-24.98	-76.08	-24.98	-76.03	-40.09	-45.88
12.01	-33.46	-131.02	-24.98	-76.62	-24.98	-76.66	-40.23	-43.67
12.11	-33.43	-132.78	-24.99	-77.31	-24.98	-77.29	-40.51	-40.35
12.21	-33.43	-134.93	-25	-77.72	-24.98	-77.73	-40.6	-37.71
12.31	-33.45	-137.06	-24.98	-78.31	-24.97	-78.23	-40.83	-35.1
12.41	-33.4	-139.29	-24.95	-78.96	-24.96	-78.82	-41.02	-33.6
12.51	-33.42	-141.83	-24.96	-79.45	-24.96	-79.34	-41.6	-29.35
12.61	-33.41	-144.14	-24.95	-79.96	-24.96	-79.96	-41.82	-23.86
12.71	-33.46	-147.12	-24.94	-80.56	-24.95	-80.53	-41.89	-17.59
12.81	-33.54	-150.04	-24.96	-81.05	-24.96	-81.11	-41.18	-11.4
12.91	-33.72	-152.3	-24.94	-81.61	-24.93	-81.6	-40.98	-8.87
13.01	-33.67	-154.46	-24.95	-82.24	-24.94	-82.23	-40.43	-5.74
13.11	-33.72	-157.17	-24.94	-82.86	-24.93	-82.82	-40.41	-4.62
13.21	-33.67	-158.82	-24.98	-83.32	-24.97	-83.12	-40.32	-2.16
13.31	-33.44	-161.69	-24.93	-83.74	-24.93	-83.61	-40.26	2.99
13.41	-33.34	-164.28	-24.91	-84.19	-24.92	-84.2	-39.77	5.83
13.51	-33.19	-167.33	-24.89	-84.85	-24.9	-84.83	-39.75	8.02
13.61	-33.08	-169.58	-24.89	-85.43	-24.89	-85.42	-39.17	10.1
13.71	-33.06	-172.03	-24.88	-85.93	-24.87	-85.96	-38.88	12.48
13.81	-32.95	-173.32	-24.87	-86.55	-24.86	-86.53	-38.49	13.48
13.91	-32.81	-175.37	-24.87	-87.17	-24.85	-87.02	-38.4	14.64
14.01	-32.6	-176.65	-24.85	-87.9	-24.84	-87.75	-38.09	15.58
14.11	-32.37	-179	-24.84	-88.41	-24.85	-88.29	-38	18.73
14.21	-32.17	178.67	-24.85	-88.83	-24.86	-88.68	-37.59	21.26
14.31	-32.02	175.54	-24.8	-89.31	-24.82	-89.24	-37.18	22.09
14.41	-32.01	174.06	-24.79	-90.02	-24.79	-89.98	-36.69	23.77
14.51	-31.86	171.64	-24.8	-90.66	-24.8	-90.59	-36.39	23.59
14.61	-31.85	170.47	-24.81	-91.23	-24.79	-91.16	-36.12	22.95
14.71	-31.69	169.55	-24.78	-91.76	-24.77	-91.61	-36	22.61
14.81	-31.56	168.84	-24.76	-92.52	-24.76	-92.34	-35.89	23.62
14.91	-31.31	168.09	-24.77	-93.14	-24.77	-92.99	-35.66	25.04
15.01	-31.12	165.66	-24.76	-93.55	-24.77	-93.39	-35.23	26.61
15.11	-30.96	163.47	-24.74	-94.07	-24.75	-94.02	-34.99	26.23
15.21	-30.95	161.33	-24.73	-94.67	-24.72	-94.64	-34.58	26.13
15.31	-30.99	159.48	-24.73	-95.34	-24.71	-95.24	-34.41	25.56
15.41	-30.89	158.4	-24.75	-95.73	-24.72	-95.65	-34.2	26.37
15.51	-30.78	157.26	-24.72	-96.26	-24.7	-96.09	-34	25.77
15.61	-30.45	156.36	-24.7	-96.87	-24.69	-96.66	-33.93	26.15
15.71	-30.17	154.76	-24.66	-97.52	-24.67	-97.33	-33.75	27.67
15.81	-29.91	153.04	-24.67	-98.11	-24.67	-98	-33.54	28.05
15.91	-29.68	151.11	-24.67	-98.58	-24.66	-98.54	-33.3	28.01
16.01	-29.63	148.45	-24.65	-99.04	-24.64	-99.01	-33.15	28.06
16.11	-29.56	146.82	-24.64	-99.4	-24.62	-99.39	-33.01	27.9
16.21	-29.55	145.64	-24.6	-100	-24.57	-99.94	-33.02	28.43
16.31	-29.49	145.72	-24.57	-100.66	-24.54	-100.5	-32.77	29
16.41	-29.25	145.21	-24.55	-101.21	-24.53	-101	-32.65	29.3
16.51	-28.96	143.84	-24.52	-101.92	-24.5	-101.73	-32.55	29.31
16.61	-28.82	142.13	-24.49	-102.54	-24.47	-102.33	-32.49	29.84
16.71	-28.73	140.87	-24.47	-103.01	-24.44	-102.97	-32.54	32.34
16.81	-28.67	139.56	-24.47	-103.61	-24.43	-103.65	-32.03	34.04
16.91	-28.67	138.43	-24.45	-103.97	-24.39	-103.97	-31.65	35.78
17.01	-28.7	139.35	-24.39	-104.63	-24.34	-104.7	-30.98	34.38
17.11	-28.48	139.43	-24.38	-105.29	-24.31	-105.34	-30.48	31.12
17.21	-28.2	139	-24.33	-105.83	-24.29	-106.02	-31.01	24.43
17.31	-27.95	137.59	-24.32	-106.31	-24.3	-106.61	-31.94	27.79
17.41	-27.85	135.95	-24.22	-106.72	-24.24	-107.21	-32.29	37.88
17.51	-27.82	134.57	-24.15	-107.67	-24.18	-108.14	-30.71	42.84
17.61	-27.84	132.97	-24.11	-107.97	-24.15	-108.54	-29.6	39.99
17.71	-27.94	132.28	-24.03	-109.07	-24.09	-109.33	-29.3	33.46
17.81	-27.92	132.22	-24.02	-109.91	-24.04	-110	-29.67	30.74
17.91	-27.77	131.99	-23.98	-110.88	-24.03	-110.77	-30.15	33.98
18.01	-27.46	131.06	-23.95	-111.7	-24	-111.49	-29.81	38.32
18.11	-27.35	128.97	-23.92	-112.39	-23.98	-112.13	-28.99	39.86
18.21	-27.28	128.14	-23.88	-113.27	-23.92	-113.12	-28.46	37.84
18.31	-27.19	127.14	-23.84	-114.17	-23.88	-114.09	-28.02	36.43
18.41	-27.19	126.55	-23.83	-114.79	-23.87	-114.74	-28.11	33.41
18.51	-27.2	126.79	-23.79	-115.81	-23.8	-115.73	-28.03	33.92
18.61	-27.04	126.92	-23.83	-116.64	-23.82	-116.4	-28.09	33.71
18.71	-26.98	127.53	-23.78	-117.31	-23.78	-117.12	-27.96	34.95
18.81	-26.73	127.03	-23.71	-118.2	-23.74	-117.9	-27.77	35.88
18.91	-26.64	126.04	-23.68	-119.15	-23.68	-118.89	-27.35	37.11
19.01	-26.55	125.67	-23.65	-120.11	-23.68	-120.05	-26.97	35.6
19.11	-26.46	125.53	-23.66	-121.03	-23.68	-120.98	-26.78	34.83
19.21	-26.45	125.31	-23.66	-121.68	-23.65	-121.52	-26.7	33.89
19.31	-26.36	125.69	-23.58	-122.69	-23.56	-122.66	-26.59	34.9
19.41	-26.16	126.05	-23.62	-124.1	-23.62	-123.95	-26.23	34.92
19.51	-26.03	125.99	-23.64	-125	-23.63	-124.79	-25.93	34.54
19.61	-25.81	125.12	-23.66	-125.71	-23.67	-125.49	-25.76	32.86
19.71	-25.74	124.46	-23.64	-126.37	-23.65	-126.17	-25.73	33
19.81	-25.79	123.74	-23.55	-127.29	-23.55	-127.21	-25.45	32.29
19.91	-25.8	124.02	-23.57	-128.55	-23.59	-128.51	-25.23	31.92
20.01	-25.71	125.1	-23.62	-129.69	-23.61	-129.59	-24.94	30.86