!s2p File: Measurements: S11, S21, S12, S22								
# GHz S dB R 50.0								
0.01	-15.88	-1.28	-5.35	-0.4	-5.34	-0.4	-25.4	-3.25
0.11	-16.35	-2.3	-5.47	-1.48	-5.46	-1.48	-26.73	-6.52
0.21	-16.47	-2.35	-5.5	-2.3	-5.49	-2.3	-27.11	-6.07
0.31	-16.5	-2.58	-5.51	-3.18	-5.5	-3.18	-27.23	-6.02
0.41	-16.53	-2.88	-5.51	-4.08	-5.51	-4.07	-27.31	-6.39
0.51	-16.53	-3.25	-5.52	-4.99	-5.51	-4.99	-27.35	-6.97
0.61	-16.54	-3.63	-5.52	-5.9	-5.52	-5.9	-27.38	-7.56
0.71	-16.53	-4.08	-5.52	-6.83	-5.52	-6.82	-27.39	-8.27
0.81	-16.53	-4.5	-5.53	-7.75	-5.52	-7.75	-27.41	-9.06
0.91	-16.53	-4.97	-5.53	-8.68	-5.53	-8.67	-27.42	-9.84
1.01	-16.53	-5.43	-5.54	-9.61	-5.53	-9.61	-27.44	-10.66
1.11	-16.52	-5.93	-5.54	-10.54	-5.53	-10.54	-27.44	-11.53
1.21	-16.52	-6.41	-5.54	-11.47	-5.54	-11.46	-27.46	-12.42
1.31	-16.51	-6.96	-5.55	-12.4	-5.54	-12.39	-27.47	-13.41
1.41	-16.52	-7.5	-5.55	-13.34	-5.55	-13.33	-27.5	-14.42
1.51	-16.51	-8.03	-5.55	-14.27	-5.55	-14.26	-27.53	-15.24
1.61	-16.5	-8.55	-5.56	-15.2	-5.56	-15.2	-27.56	-16.17
1.71	-16.49	-9.12	-5.56	-16.13	-5.56	-16.12	-27.56	-17.12
1.81	-16.48	-9.74	-5.57	-17.05	-5.57	-17.05	-27.58	-18.28
1.91	-16.47	-10.33	-5.57	-17.98	-5.57	-17.98	-27.61	-19.31
2.01	-16.47	-10.89	-5.58	-18.92	-5.57	-18.91	-27.65	-20.44
2.11	-16.46	-11.45	-5.58	-19.84	-5.58	-19.84	-27.7	-21.43
2.21	-16.46	-12.03	-5.59	-20.77	-5.59	-20.77	-27.72	-22.42
2.31	-16.45	-12.6	-5.59	-21.69	-5.59	-21.7	-27.77	-23.34
2.41	-16.45	-13.18	-5.6	-22.62	-5.6	-22.61	-27.81	-24.36
2.51	-16.45	-13.73	-5.61	-23.54	-5.6	-23.54	-27.86	-25.29
2.61	-16.45	-14.27	-5.61	-24.46	-5.61	-24.46	-27.91	-26.27
2.71	-16.44	-14.79	-5.62	-25.39	-5.62	-25.38	-27.97	-27.15
2.81	-16.44	-15.31	-5.62	-26.31	-5.62	-26.3	-28.03	-28.18
2.91	-16.43	-15.85	-5.63	-27.23	-5.63	-27.22	-28.09	-29
3.01	-16.43	-16.41	-5.64	-28.15	-5.63	-28.14	-28.14	-29.9
3.11	-16.42	-16.98	-5.64	-29.07	-5.64	-29.07	-28.2	-30.84
3.21	-16.43	-17.56	-5.65	-29.98	-5.65	-29.99	-28.25	-31.8
3.31	-16.42	-18.15	-5.65	-30.92	-5.65	-30.91	-28.33	-32.84
3.41	-16.43	-18.71	-5.66	-31.83	-5.66	-31.83	-28.39	-33.68
3.51	-16.42	-19.29	-5.67	-32.74	-5.67	-32.75	-28.47	-34.56
3.61	-16.42	-19.88	-5.68	-33.66	-5.67	-33.67	-28.55	-35.48
3.71	-16.41	-20.5	-5.68	-34.57	-5.68	-34.59	-28.6	-36.43
3.81	-16.42	-21.14	-5.69	-35.5	-5.69	-35.52	-28.68	-37.57
3.91	-16.42	-21.74	-5.7	-36.43	-5.7	-36.44	-28.78	-38.69
4.01	-16.42	-22.31	-5.7	-37.36	-5.7	-37.36	-28.88	-39.6
4.11	-16.41	-22.89	-5.71	-38.29	-5.71	-38.28	-29	-40.49
4.21	-16.41	-23.52	-5.72	-39.2	-5.72	-39.19	-29.06	-41.21
4.31	-16.41	-24.18	-5.73	-40.1	-5.73	-40.11	-29.12	-42.16
4.41	-16.41	-24.86	-5.73	-41.01	-5.74	-41.03	-29.18	-43.18
4.51	-16.41	-25.45	-5.74	-41.92	-5.74	-41.95	-29.29	-44.33
4.61	-16.42	-26.04	-5.75	-42.86	-5.75	-42.88	-29.4	-45.25
4.71	-16.41	-26.57	-5.76	-43.8	-5.76	-43.79	-29.55	-46.16
4.81	-16.39	-27.18	-5.77	-44.73	-5.77	-44.7	-29.68	-46.87
4.91	-16.38	-27.81	-5.78	-45.64	-5.78	-45.62	-29.78	-47.52
5.01	-16.37	-28.48	-5.78	-46.54	-5.79	-46.53	-29.87	-48.15
5.11	-16.37	-29.11	-5.79	-47.44	-5.8	-47.44	-29.94	-49.11
5.21	-16.38	-29.71	-5.8	-48.36	-5.81	-48.36	-30.05	-49.92
5.31	-16.38	-30.27	-5.82	-49.29	-5.82	-49.28	-30.17	-50.93
5.41	-16.38	-30.81	-5.82	-50.22	-5.83	-50.2	-30.34	-51.82
5.51	-16.37	-31.36	-5.84	-51.13	-5.83	-51.11	-30.51	-52.42
5.61	-16.36	-32.03	-5.84	-52.05	-5.84	-52.04	-30.64	-52.81
5.71	-16.36	-32.67	-5.85	-52.97	-5.85	-52.95	-30.74	-53.42
5.81	-16.37	-33.34	-5.86	-53.87	-5.87	-53.86	-30.86	-53.98
5.91	-16.37	-33.94	-5.88	-54.79	-5.88	-54.78	-30.92	-54.96
6.01	-16.38	-34.58	-5.88	-55.71	-5.89	-55.7	-31.04	-55.91
6.11	-16.38	-35.15	-5.9	-56.63	-5.9	-56.61	-31.17	-56.73
6.21	-16.36	-35.8	-5.91	-57.53	-5.91	-57.53	-31.34	-57.36
6.31	-16.35	-36.45	-5.92	-58.45	-5.92	-58.43	-31.46	-57.81
6.41	-16.34	-37.15	-5.94	-59.34	-5.93	-59.35	-31.64	-58.42
6.51	-16.33	-37.89	-5.95	-60.24	-5.95	-60.26	-31.76	-58.83
6.61	-16.34	-38.59	-5.96	-61.18	-5.96	-61.16	-31.91	-59.68
6.71	-16.33	-39.27	-5.97	-62.09	-5.97	-62.08	-32.05	-60.45
6.81	-16.33	-39.95	-5.98	-63	-5.98	-62.97	-32.22	-61.36
6.91	-16.32	-40.65	-5.99	-63.89	-6	-63.88	-32.39	-62.23
7.01	-16.31	-41.38	-6.01	-64.79	-6.01	-64.79	-32.58	-62.73
7.11	-16.3	-42.13	-6.02	-65.66	-6.02	-65.69	-32.73	-63.22
7.21	-16.29	-42.85	-6.03	-66.59	-6.04	-66.61	-32.9	-63.27
7.31	-16.29	-43.53	-6.05	-67.54	-6.05	-67.53	-32.95	-63.73
7.41	-16.27	-44.27	-6.07	-68.45	-6.07	-68.42	-32.96	-64.73
7.51	-16.26	-45.01	-6.08	-69.33	-6.08	-69.31	-33.14	-65.91
7.61	-16.25	-45.72	-6.09	-70.24	-6.1	-70.2	-33.38	-66.61
7.71	-16.24	-46.46	-6.11	-71.12	-6.11	-71.09	-33.55	-67.41
7.81	-16.23	-47.21	-6.12	-71.95	-6.13	-72	-33.76	-67.95
7.91	-16.23	-47.95	-6.14	-72.88	-6.15	-72.89	-33.9	-68.21
8.01	-16.23	-48.77	-6.15	-73.77	-6.16	-73.78	-34.04	-69.25
8.11	-16.24	-49.57	-6.17	-74.66	-6.18	-74.65	-34.2	-70.38
8.21	-16.25	-50.36	-6.19	-75.54	-6.19	-75.54	-34.32	-71.73
8.31	-16.25	-51.15	-6.2	-76.44	-6.21	-76.41	-34.52	-73.1
8.41	-16.24	-52.02	-6.21	-77.29	-6.23	-77.27	-34.7	-74.48
8.51	-16.25	-52.87	-6.23	-78.16	-6.24	-78.15	-34.93	-76.17
8.61	-16.24	-53.84	-6.25	-79.04	-6.26	-79.01	-35.16	-77.63
8.71	-16.25	-54.8	-6.26	-79.91	-6.28	-79.85	-35.41	-79.15
8.81	-16.26	-55.69	-6.29	-80.76	-6.29	-80.71	-35.65	-80.64
8.91	-16.28	-56.64	-6.3	-81.6	-6.3	-81.58	-35.88	-82.45
9.01	-16.29	-57.51	-6.31	-82.48	-6.32	-82.39	-36.16	-85.11
9.11	-16.31	-58.41	-6.32	-83.29	-6.33	-83.25	-36.56	-87.24
9.21	-16.32	-59.32	-6.34	-84.14	-6.34	-84.11	-37	-89.58
9.31	-16.34	-60.23	-6.35	-85.01	-6.36	-84.96	-37.42	-92.11
9.41	-16.36	-61.14	-6.36	-85.85	-6.37	-85.79	-37.84	-94.56
9.51	-16.37	-62.01	-6.38	-86.7	-6.38	-86.67	-38.41	-97.34
9.61	-16.39	-62.93	-6.39	-87.56	-6.39	-87.5	-38.98	-99.91
9.71	-16.42	-63.85	-6.4	-88.39	-6.4	-88.35	-39.59	-102.88
9.81	-16.44	-64.67	-6.4	-89.21	-6.41	-89.21	-40.35	-106.52
9.91	-16.46	-65.48	-6.42	-90.09	-6.42	-90.05	-41.12	-110.49
10.01	-16.47	-66.32	-6.42	-90.96	-6.43	-90.89	-41.83	-115.38
10.11	-16.49	-67.14	-6.44	-91.82	-6.44	-91.74	-42.85	-121.46
10.21	-16.51	-68	-6.45	-92.64	-6.45	-92.61	-43.91	-128.6
10.31	-16.55	-68.85	-6.45	-93.51	-6.46	-93.45	-44.97	-136.34
10.41	-16.58	-69.66	-6.46	-94.35	-6.47	-94.32	-46.51	-145.47
10.51	-16.62	-70.46	-6.47	-95.2	-6.48	-95.2	-47.57	-157.74
10.61	-16.66	-71.3	-6.48	-96.09	-6.48	-96.07	-48.44	-173.29
10.71	-16.69	-72.09	-6.48	-97	-6.49	-96.91	-48.54	172.53
10.81	-16.72	-72.89	-6.49	-97.87	-6.5	-97.78	-47.85	154.73
10.91	-16.75	-73.85	-6.5	-98.76	-6.51	-98.66	-46.71	142.34
11.01	-16.79	-74.62	-6.5	-99.64	-6.52	-99.55	-45.28	128.76
11.11	-16.81	-75.42	-6.51	-100.48	-6.53	-100.45	-44.35	119.1
11.21	-16.85	-76.21	-6.53	-101.35	-6.53	-101.33	-43.13	112.07
11.31	-16.87	-76.94	-6.54	-102.22	-6.54	-102.22	-42.22	105.59
11.41	-16.89	-77.78	-6.54	-103.14	-6.55	-103.1	-41.36	100.76
11.51	-16.9	-78.58	-6.56	-104.06	-6.56	-103.93	-40.41	97.05
11.61	-16.92	-79.38	-6.57	-104.92	-6.57	-104.81	-39.49	94.27
11.71	-16.94	-80.26	-6.56	-105.81	-6.59	-105.71	-38.8	91.56
11.81	-16.96	-81.11	-6.57	-106.67	-6.6	-106.57	-37.91	88.89
11.91	-17	-81.86	-6.59	-107.55	-6.6	-107.49	-37.2	84.82
12.01	-17	-82.7	-6.6	-108.39	-6.62	-108.42	-36.69	81.89
12.11	-17.01	-83.46	-6.62	-109.33	-6.62	-109.28	-36.14	79.97
12.21	-17.01	-84.28	-6.64	-110.21	-6.63	-110.15	-35.61	78.09
12.31	-17.02	-85.12	-6.64	-111.17	-6.65	-111.05	-35.18	76.07
12.41	-17.02	-86.07	-6.64	-112.11	-6.66	-111.9	-34.8	74.55
12.51	-17.06	-86.97	-6.66	-112.97	-6.67	-112.78	-34.28	73.81
12.61	-17.07	-87.83	-6.67	-113.79	-6.69	-113.68	-33.79	72.2
12.71	-17.12	-88.65	-6.67	-114.66	-6.7	-114.59	-33.33	70.13
12.81	-17.14	-89.36	-6.69	-115.54	-6.71	-115.53	-32.77	67.97
12.91	-17.17	-90.02	-6.71	-116.43	-6.72	-116.38	-32.48	66.02
13.01	-17.17	-90.95	-6.72	-117.37	-6.72	-117.29	-32.05	64.12
13.11	-17.2	-91.7	-6.74	-118.32	-6.74	-118.2	-31.81	62.58
13.21	-17.19	-92.58	-6.76	-119.2	-6.77	-119	-31.52	62.2
13.31	-17.22	-93.67	-6.76	-120.05	-6.77	-119.87	-31.07	61.2
13.41	-17.23	-94.7	-6.77	-120.93	-6.79	-120.83	-30.73	59.36
13.51	-17.27	-95.66	-6.78	-121.81	-6.8	-121.69	-30.56	58.57
13.61	-17.28	-96.53	-6.79	-122.63	-6.81	-122.58	-30.2	57.02
13.71	-17.3	-97.51	-6.8	-123.53	-6.81	-123.48	-29.86	56.1
13.81	-17.31	-98.35	-6.83	-124.49	-6.83	-124.41	-29.62	54.5
13.91	-17.33	-99.25	-6.85	-125.42	-6.84	-125.22	-29.41	53.5
14.01	-17.33	-100.21	-6.86	-126.33	-6.86	-126.14	-29.18	52.2
14.11	-17.34	-101.32	-6.86	-127.2	-6.88	-127	-28.96	51.99
14.21	-17.36	-102.32	-6.88	-128.12	-6.9	-127.9	-28.65	51.18
14.31	-17.41	-103.37	-6.89	-128.94	-6.91	-128.79	-28.38	49.69
14.41	-17.42	-104.03	-6.9	-129.79	-6.92	-129.7	-28.12	48.48
14.51	-17.43	-104.93	-6.92	-130.76	-6.93	-130.63	-27.91	47.32
14.61	-17.42	-105.78	-6.95	-131.66	-6.94	-131.49	-27.7	45.9
14.71	-17.42	-106.79	-6.97	-132.54	-6.96	-132.32	-27.53	44.65
14.81	-17.41	-107.72	-6.98	-133.48	-6.98	-133.21	-27.38	43.89
14.91	-17.38	-108.86	-7	-134.37	-7	-134.12	-27.2	43.14
15.01	-17.41	-109.91	-7	-135.21	-7.02	-134.97	-26.93	42.49
15.11	-17.45	-110.96	-7.01	-136.08	-7.03	-135.91	-26.75	40.96
15.21	-17.48	-111.6	-7.03	-136.94	-7.04	-136.82	-26.53	39.72
15.31	-17.49	-112.38	-7.06	-137.84	-7.05	-137.67	-26.37	38.66
15.41	-17.47	-113.33	-7.08	-138.72	-7.07	-138.54	-26.17	37.83
15.51	-17.47	-114.39	-7.11	-139.58	-7.09	-139.38	-26.02	36.59
15.61	-17.48	-115.79	-7.12	-140.52	-7.12	-140.27	-25.9	35.89
15.71	-17.51	-116.99	-7.12	-141.39	-7.14	-141.1	-25.75	35.45
15.81	-17.54	-118.13	-7.14	-142.25	-7.15	-142	-25.59	34.54
15.91	-17.56	-119.15	-7.16	-143.11	-7.17	-142.93	-25.44	33.64
16.01	-17.6	-120.11	-7.18	-143.94	-7.18	-143.8	-25.28	32.75
16.11	-17.6	-121.13	-7.2	-144.76	-7.2	-144.64	-25.14	31.9
16.21	-17.61	-122.04	-7.23	-145.67	-7.21	-145.51	-25.03	31.16
16.31	-17.59	-123.08	-7.25	-146.53	-7.23	-146.27	-24.84	30.49
16.41	-17.58	-124.33	-7.26	-147.36	-7.25	-147.07	-24.72	29.62
16.51	-17.6	-125.65	-7.27	-148.27	-7.26	-148.01	-24.61	28.84
16.61	-17.64	-126.82	-7.29	-149.16	-7.28	-148.89	-24.52	28.16
16.71	-17.66	-127.88	-7.31	-149.89	-7.3	-149.75	-24.44	28.03
16.81	-17.68	-128.67	-7.33	-150.76	-7.3	-150.64	-24.2	27.84
16.91	-17.68	-129.64	-7.36	-151.59	-7.32	-151.47	-23.98	27.65
17.01	-17.63	-130.5	-7.38	-152.33	-7.34	-152.27	-23.64	26.49
17.11	-17.59	-131.7	-7.41	-153.16	-7.35	-153.08	-23.37	24.48
17.21	-17.58	-133.11	-7.41	-153.9	-7.37	-153.94	-23.45	21.47
17.31	-17.62	-134.54	-7.4	-154.73	-7.39	-154.85	-23.67	21.51
17.41	-17.67	-135.73	-7.39	-155.47	-7.4	-155.7	-23.77	23.43
17.51	-17.71	-136.66	-7.38	-156.41	-7.4	-156.61	-23.26	24.71
17.61	-17.74	-137.47	-7.38	-157.14	-7.42	-157.45	-22.76	23.54
17.71	-17.75	-138.24	-7.38	-158.22	-7.42	-158.27	-22.5	20.3
17.81	-17.72	-139.16	-7.41	-159.1	-7.43	-159.1	-22.52	18.3
17.91	-17.71	-140.28	-7.42	-160.17	-7.45	-159.97	-22.63	18.24
18.01	-17.75	-141.77	-7.44	-161.12	-7.47	-160.86	-22.51	18.95
18.11	-17.81	-142.82	-7.45	-162.03	-7.49	-161.71	-22.23	19.09
18.21	-17.84	-143.98	-7.47	-162.86	-7.5	-162.62	-21.96	17.89
18.31	-17.85	-145.01	-7.47	-163.73	-7.5	-163.51	-21.74	16.72
18.41	-17.87	-146.05	-7.49	-164.59	-7.51	-164.41	-21.65	14.83
18.51	-17.83	-147.16	-7.51	-165.43	-7.52	-165.2	-21.58	14.11
18.61	-17.82	-148.08	-7.55	-166.38	-7.54	-166.05	-21.54	13.02
18.71	-17.76	-149.29	-7.55	-167.23	-7.55	-166.93	-21.48	12.57
18.81	-17.77	-150.73	-7.56	-168.17	-7.57	-167.84	-21.39	12.38
18.91	-17.81	-151.9	-7.58	-169.09	-7.57	-168.77	-21.21	12.22
19.01	-17.84	-153.06	-7.57	-169.94	-7.59	-169.7	-21.02	11.15
19.11	-17.84	-153.94	-7.59	-170.74	-7.6	-170.58	-20.91	10.09
19.21	-17.83	-154.84	-7.62	-171.67	-7.61	-171.41	-20.81	9.05
19.31	-17.8	-156.06	-7.64	-172.51	-7.62	-172.31	-20.74	8.51
19.41	-17.78	-157.22	-7.65	-173.48	-7.64	-173.23	-20.58	8.13
19.51	-17.76	-158.44	-7.68	-174.42	-7.66	-174.1	-20.43	7.39
19.61	-17.83	-159.75	-7.69	-175.31	-7.69	-175	-20.3	6.19
19.71	-17.83	-160.66	-7.7	-176.18	-7.7	-175.89	-20.24	5.4
19.81	-17.88	-161.57	-7.72	-177	-7.71	-176.8	-20.11	4.24
19.91	-17.87	-162.24	-7.72	-177.88	-7.72	-177.69	-20.03	3.63
20.01	-17.86	-163.18	-7.75	-178.76	-7.73	-178.55	-19.88	2.71