!s2p File: Measurements: S11, S21, S12, S22								
# GHz S dB R 50.0								
0.01	-15.87	-0.79	-13.74	-0.34	-13.74	-0.32	-37.57	-7.38
0.11	-16.15	-1.84	-13.86	-1.46	-13.86	-1.46	-41.8	-29.98
0.21	-16.23	-2.3	-13.9	-2.18	-13.9	-2.17	-44.7	-29.15
0.31	-16.25	-2.84	-13.91	-2.94	-13.91	-2.93	-46.12	-23.6
0.41	-16.27	-3.41	-13.92	-3.73	-13.92	-3.72	-46.93	-18.81
0.51	-16.28	-4.03	-13.93	-4.54	-13.92	-4.53	-47.48	-14.59
0.61	-16.28	-4.63	-13.93	-5.36	-13.93	-5.35	-47.85	-11.45
0.71	-16.28	-5.29	-13.93	-6.18	-13.93	-6.18	-48.01	-8.03
0.81	-16.29	-5.94	-13.94	-7.02	-13.93	-7.01	-48.14	-5.17
0.91	-16.29	-6.61	-13.94	-7.85	-13.94	-7.84	-48.39	-2.61
1.01	-16.29	-7.28	-13.94	-8.68	-13.94	-8.67	-48.44	0.38
1.11	-16.3	-7.96	-13.95	-9.51	-13.94	-9.52	-48.56	2.31
1.21	-16.3	-8.65	-13.95	-10.34	-13.95	-10.34	-48.57	4.35
1.31	-16.3	-9.39	-13.95	-11.19	-13.95	-11.18	-48.69	5.66
1.41	-16.31	-10.12	-13.96	-12.02	-13.95	-12.02	-48.94	6.38
1.51	-16.32	-10.84	-13.96	-12.86	-13.96	-12.86	-49.1	10.19
1.61	-16.32	-11.55	-13.96	-13.7	-13.96	-13.71	-49.03	13.1
1.71	-16.31	-12.28	-13.97	-14.53	-13.96	-14.53	-49.06	12.97
1.81	-16.31	-13.11	-13.97	-15.37	-13.97	-15.36	-49.13	13.18
1.91	-16.32	-13.86	-13.98	-16.19	-13.97	-16.2	-49.43	14.31
2.01	-16.32	-14.61	-13.98	-17.05	-13.98	-17.04	-49.71	15.81
2.11	-16.33	-15.35	-13.99	-17.88	-13.98	-17.87	-49.98	18.16
2.21	-16.33	-16.1	-13.99	-18.7	-13.99	-18.71	-50.14	20.92
2.31	-16.34	-16.84	-14	-19.54	-13.99	-19.55	-50.27	23.4
2.41	-16.35	-17.58	-14	-20.37	-14	-20.38	-50.43	27.15
2.51	-16.36	-18.3	-14	-21.21	-14	-21.21	-50.6	30.03
2.61	-16.37	-19.02	-14.01	-22.05	-14.01	-22.04	-50.83	34.03
2.71	-16.38	-19.71	-14.01	-22.86	-14.01	-22.88	-50.85	38.71
2.81	-16.39	-20.4	-14.02	-23.71	-14.02	-23.71	-50.82	43.9
2.91	-16.4	-21.11	-14.03	-24.53	-14.02	-24.53	-50.7	48.68
3.01	-16.41	-21.84	-14.03	-25.36	-14.03	-25.35	-50.29	52.64
3.11	-16.43	-22.6	-14.04	-26.19	-14.03	-26.19	-50.23	56.62
3.21	-16.44	-23.32	-14.04	-27.02	-14.04	-27.03	-49.84	60.34
3.31	-16.46	-24.08	-14.05	-27.86	-14.04	-27.86	-49.52	65.19
3.41	-16.48	-24.8	-14.05	-28.68	-14.05	-28.68	-49.14	68.49
3.51	-16.49	-25.55	-14.06	-29.51	-14.05	-29.52	-48.58	72.18
3.61	-16.5	-26.3	-14.06	-30.33	-14.06	-30.36	-48.18	75.54
3.71	-16.52	-27.08	-14.07	-31.16	-14.07	-31.19	-47.88	77.96
3.81	-16.54	-27.89	-14.08	-32	-14.08	-32.02	-47.59	80.6
3.91	-16.56	-28.65	-14.08	-32.83	-14.08	-32.85	-47.22	84.31
4.01	-16.58	-29.37	-14.09	-33.67	-14.09	-33.69	-46.54	87.51
4.11	-16.59	-30.12	-14.09	-34.54	-14.09	-34.52	-45.95	88.96
4.21	-16.6	-30.87	-14.1	-35.35	-14.1	-35.35	-45.42	89.59
4.31	-16.62	-31.71	-14.11	-36.15	-14.11	-36.17	-45.05	90.03
4.41	-16.64	-32.55	-14.11	-36.98	-14.12	-37	-44.81	90.91
4.51	-16.67	-33.29	-14.12	-37.8	-14.12	-37.83	-44.51	93.29
4.61	-16.7	-34.03	-14.13	-38.65	-14.13	-38.68	-44.04	95.01
4.71	-16.71	-34.72	-14.14	-39.51	-14.14	-39.49	-43.41	96.65
4.81	-16.72	-35.45	-14.15	-40.35	-14.15	-40.32	-42.82	96.78
4.91	-16.73	-36.25	-14.15	-41.16	-14.15	-41.16	-42.36	96.14
5.01	-16.74	-37.05	-14.16	-41.99	-14.16	-41.98	-41.94	96.11
5.11	-16.77	-37.86	-14.17	-42.81	-14.17	-42.81	-41.69	95.75
5.21	-16.8	-38.59	-14.18	-43.63	-14.18	-43.64	-41.33	96.1
5.31	-16.83	-39.3	-14.19	-44.47	-14.19	-44.47	-40.98	97.2
5.41	-16.86	-39.97	-14.2	-45.31	-14.2	-45.3	-40.48	97.96
5.51	-16.88	-40.66	-14.21	-46.13	-14.2	-46.14	-39.91	98.24
5.61	-16.9	-41.42	-14.21	-46.97	-14.22	-46.98	-39.47	97.33
5.71	-16.93	-42.22	-14.22	-47.81	-14.22	-47.8	-39.13	96.61
5.81	-16.96	-43.01	-14.23	-48.62	-14.23	-48.62	-38.83	95.88
5.91	-17	-43.81	-14.24	-49.46	-14.24	-49.46	-38.67	95.58
6.01	-17.04	-44.56	-14.25	-50.3	-14.26	-50.29	-38.4	95.86
6.11	-17.07	-45.29	-14.27	-51.14	-14.26	-51.13	-38.1	95.75
6.21	-17.09	-46.02	-14.28	-51.94	-14.28	-51.96	-37.72	95.46
6.31	-17.11	-46.74	-14.29	-52.77	-14.29	-52.78	-37.38	94.83
6.41	-17.13	-47.57	-14.3	-53.59	-14.3	-53.6	-37.03	94.26
6.51	-17.16	-48.39	-14.31	-54.39	-14.31	-54.43	-36.76	93.35
6.61	-17.19	-49.21	-14.32	-55.25	-14.32	-55.23	-36.53	93.04
6.71	-17.23	-50.02	-14.33	-56.08	-14.34	-56.07	-36.3	92.84
6.81	-17.26	-50.77	-14.35	-56.89	-14.35	-56.88	-36.05	92.8
6.91	-17.28	-51.57	-14.36	-57.7	-14.36	-57.69	-35.77	92.87
7.01	-17.31	-52.31	-14.37	-58.52	-14.38	-58.52	-35.49	92.27
7.11	-17.33	-53.1	-14.38	-59.31	-14.39	-59.34	-35.22	91.57
7.21	-17.36	-53.93	-14.39	-60.15	-14.4	-60.17	-34.99	90.36
7.31	-17.38	-54.68	-14.41	-61.01	-14.41	-61.01	-34.88	89.55
7.41	-17.41	-55.47	-14.43	-61.84	-14.43	-61.83	-34.81	88.82
7.51	-17.44	-56.27	-14.45	-62.63	-14.45	-62.62	-34.65	88.73
7.61	-17.46	-57	-14.45	-63.45	-14.46	-63.41	-34.41	88.71
7.71	-17.49	-57.78	-14.47	-64.24	-14.48	-64.22	-34.18	88.15
7.81	-17.51	-58.55	-14.48	-64.99	-14.5	-65.04	-33.95	87.78
7.91	-17.55	-59.28	-14.5	-65.83	-14.51	-65.84	-33.76	87
8.01	-17.59	-60.13	-14.52	-66.63	-14.53	-66.64	-33.61	86.46
8.11	-17.63	-60.96	-14.54	-67.41	-14.55	-67.4	-33.47	86.37
8.21	-17.68	-61.8	-14.56	-68.21	-14.56	-68.21	-33.36	86.17
8.31	-17.72	-62.58	-14.57	-69.03	-14.58	-69	-33.21	86.09
8.41	-17.75	-63.39	-14.58	-69.78	-14.6	-69.77	-33.05	85.95
8.51	-17.78	-64.27	-14.61	-70.57	-14.62	-70.55	-32.9	85.78
8.61	-17.8	-65.15	-14.63	-71.32	-14.63	-71.31	-32.75	85.71
8.71	-17.84	-66.14	-14.64	-72.09	-14.65	-72.04	-32.59	85.44
8.81	-17.87	-67.02	-14.66	-72.83	-14.66	-72.8	-32.46	85.2
8.91	-17.91	-67.95	-14.68	-73.58	-14.68	-73.56	-32.34	85.3
9.01	-17.96	-68.83	-14.69	-74.35	-14.69	-74.28	-32.18	85.59
9.11	-18	-69.72	-14.7	-75.07	-14.71	-75.03	-31.98	85.52
9.21	-18.04	-70.64	-14.72	-75.81	-14.72	-75.78	-31.78	85.61
9.31	-18.08	-71.52	-14.73	-76.56	-14.73	-76.51	-31.61	85.67
9.41	-18.11	-72.43	-14.74	-77.29	-14.74	-77.25	-31.41	85.61
9.51	-18.14	-73.35	-14.75	-78.04	-14.76	-78	-31.21	85.46
9.61	-18.19	-74.25	-14.77	-78.77	-14.77	-78.73	-31.01	85.24
9.71	-18.23	-75.2	-14.77	-79.5	-14.78	-79.46	-30.79	85.15
9.81	-18.28	-76.09	-14.78	-80.21	-14.79	-80.21	-30.58	85.1
9.91	-18.32	-76.89	-14.79	-80.97	-14.79	-80.94	-30.35	85.04
10.01	-18.36	-77.76	-14.79	-81.72	-14.8	-81.69	-30.15	84.84
10.11	-18.4	-78.61	-14.81	-82.46	-14.81	-82.41	-29.91	84.7
10.21	-18.45	-79.46	-14.82	-83.17	-14.82	-83.15	-29.65	84.58
10.31	-18.5	-80.35	-14.82	-83.93	-14.82	-83.88	-29.43	84.14
10.41	-18.55	-81.23	-14.82	-84.66	-14.83	-84.64	-29.17	83.49
10.51	-18.62	-82.14	-14.83	-85.39	-14.84	-85.39	-28.95	82.8
10.61	-18.68	-83.12	-14.84	-86.17	-14.84	-86.15	-28.73	82.33
10.71	-18.74	-83.97	-14.84	-86.98	-14.85	-86.89	-28.55	81.86
10.81	-18.8	-84.85	-14.84	-87.76	-14.85	-87.67	-28.32	81.5
10.91	-18.86	-85.82	-14.85	-88.52	-14.85	-88.43	-28.1	81.24
11.01	-18.92	-86.68	-14.85	-89.27	-14.86	-89.21	-27.83	80.73
11.11	-18.97	-87.57	-14.85	-90.03	-14.87	-90	-27.63	79.89
11.21	-19.02	-88.54	-14.87	-90.8	-14.87	-90.79	-27.42	79.25
11.31	-19.07	-89.4	-14.88	-91.57	-14.87	-91.57	-27.24	78.33
11.41	-19.13	-90.35	-14.88	-92.37	-14.88	-92.35	-27.08	77.64
11.51	-19.17	-91.16	-14.88	-93.19	-14.88	-93.06	-26.9	77.14
11.61	-19.23	-92.04	-14.89	-93.94	-14.88	-93.83	-26.72	76.69
11.71	-19.26	-92.91	-14.88	-94.74	-14.9	-94.67	-26.53	76.07
11.81	-19.32	-93.89	-14.89	-95.5	-14.91	-95.43	-26.31	75.43
11.91	-19.39	-94.8	-14.9	-96.28	-14.9	-96.24	-26.11	74.3
12.01	-19.42	-95.75	-14.9	-97.04	-14.91	-97.08	-25.98	73.47
12.11	-19.46	-96.66	-14.92	-97.9	-14.92	-97.87	-25.82	72.66
12.21	-19.51	-97.52	-14.94	-98.66	-14.92	-98.62	-25.68	71.79
12.31	-19.56	-98.38	-14.94	-99.49	-14.94	-99.41	-25.55	71.14
12.41	-19.6	-99.3	-14.93	-100.34	-14.94	-100.17	-25.44	70.35
12.51	-19.66	-100.18	-14.95	-101.09	-14.95	-100.96	-25.27	70.05
12.61	-19.7	-101.06	-14.95	-101.82	-14.96	-101.75	-25.1	69.31
12.71	-19.77	-102.03	-14.95	-102.61	-14.97	-102.56	-24.91	68.58
12.81	-19.84	-102.96	-14.97	-103.39	-14.98	-103.4	-24.71	67.33
12.91	-19.92	-103.8	-14.98	-104.18	-14.98	-104.14	-24.61	66.4
13.01	-19.98	-104.72	-14.99	-105.05	-14.98	-104.97	-24.45	65.34
13.11	-20.07	-105.54	-15	-105.89	-14.99	-105.8	-24.38	64.51
13.21	-20.09	-106.3	-15.03	-106.67	-15.03	-106.47	-24.27	63.96
13.31	-20.14	-107.47	-15.01	-107.34	-15.02	-107.22	-24.09	63.46
13.41	-20.19	-108.51	-15.01	-108.12	-15.03	-108.05	-23.95	62.48
13.51	-20.25	-109.62	-15.02	-108.92	-15.04	-108.84	-23.87	61.98
13.61	-20.29	-110.66	-15.03	-109.67	-15.04	-109.66	-23.71	60.94
13.71	-20.37	-111.64	-15.03	-110.47	-15.04	-110.42	-23.59	60.26
13.81	-20.4	-112.58	-15.05	-111.3	-15.05	-111.26	-23.48	59.38
13.91	-20.47	-113.59	-15.06	-112.15	-15.06	-111.98	-23.4	58.62
14.01	-20.5	-114.51	-15.07	-112.98	-15.06	-112.82	-23.3	57.84
14.11	-20.54	-115.51	-15.07	-113.74	-15.09	-113.59	-23.19	57.55
14.21	-20.58	-116.59	-15.09	-114.53	-15.1	-114.34	-23.04	56.89
14.31	-20.66	-117.8	-15.08	-115.24	-15.1	-115.14	-22.92	56.06
14.41	-20.7	-118.59	-15.09	-116.02	-15.1	-115.98	-22.78	55.3
14.51	-20.77	-119.74	-15.11	-116.93	-15.11	-116.84	-22.68	54.35
14.61	-20.81	-120.53	-15.13	-117.74	-15.12	-117.6	-22.6	53.41
14.71	-20.84	-121.54	-15.14	-118.51	-15.13	-118.31	-22.54	52.55
14.81	-20.87	-122.28	-15.14	-119.36	-15.14	-119.14	-22.46	52.02
14.91	-20.85	-123.33	-15.16	-120.19	-15.17	-119.98	-22.36	51.5
15.01	-20.92	-124.39	-15.16	-120.88	-15.18	-120.69	-22.21	50.85
15.11	-20.98	-125.59	-15.17	-121.64	-15.18	-121.54	-22.13	49.94
15.21	-21.06	-126.5	-15.18	-122.42	-15.18	-122.36	-22	49.02
15.31	-21.14	-127.17	-15.21	-123.26	-15.19	-123.11	-21.93	48.23
15.41	-21.19	-128.13	-15.23	-124.02	-15.21	-123.86	-21.83	47.5
15.51	-21.23	-128.96	-15.24	-124.78	-15.22	-124.59	-21.76	46.63
15.61	-21.25	-130.29	-15.26	-125.58	-15.24	-125.37	-21.71	46.07
15.71	-21.28	-131.49	-15.25	-126.37	-15.25	-126.12	-21.62	45.62
15.81	-21.32	-132.67	-15.26	-127.14	-15.27	-126.94	-21.52	45.06
15.91	-21.36	-133.96	-15.27	-127.9	-15.27	-127.79	-21.43	44.24
16.01	-21.46	-135.05	-15.3	-128.61	-15.29	-128.51	-21.35	43.54
16.11	-21.52	-136.06	-15.31	-129.29	-15.3	-129.23	-21.28	42.81
16.21	-21.59	-136.81	-15.33	-130.1	-15.29	-129.96	-21.25	42.27
16.31	-21.57	-137.54	-15.33	-130.86	-15.31	-130.65	-21.15	41.74
16.41	-21.56	-138.76	-15.33	-131.59	-15.32	-131.34	-21.08	41.14
16.51	-21.58	-140.16	-15.34	-132.41	-15.32	-132.19	-21.03	40.48
16.61	-21.63	-141.25	-15.34	-133.18	-15.33	-132.98	-20.96	40.03
16.71	-21.65	-142.34	-15.36	-133.8	-15.33	-133.75	-20.93	39.97
16.81	-21.71	-143.38	-15.37	-134.62	-15.33	-134.57	-20.75	39.62
16.91	-21.76	-144.26	-15.4	-135.31	-15.34	-135.23	-20.64	39.4
17.01	-21.72	-144.75	-15.39	-135.98	-15.34	-135.98	-20.43	38.41
17.11	-21.69	-145.81	-15.42	-136.74	-15.35	-136.72	-20.28	36.85
17.21	-21.64	-147.03	-15.4	-137.37	-15.36	-137.48	-20.42	34.78
17.31	-21.68	-148.37	-15.4	-138.03	-15.38	-138.28	-20.58	35.19
17.41	-21.71	-149.53	-15.36	-138.65	-15.37	-139.01	-20.59	37.08
17.51	-21.74	-150.64	-15.34	-139.55	-15.36	-139.89	-20.15	37.66
17.61	-21.85	-151.48	-15.33	-140.16	-15.36	-140.6	-19.79	36.39
17.71	-21.87	-152.1	-15.31	-141.2	-15.35	-141.34	-19.66	33.74
17.81	-21.87	-152.86	-15.32	-142.03	-15.34	-142.11	-19.73	32.28
17.91	-21.87	-153.86	-15.32	-143.05	-15.35	-142.93	-19.83	32.39
18.01	-21.86	-155.64	-15.32	-143.97	-15.36	-143.74	-19.73	32.93
18.11	-21.97	-156.58	-15.33	-144.77	-15.37	-144.49	-19.48	32.87
18.21	-21.95	-157.88	-15.33	-145.57	-15.36	-145.37	-19.3	31.77
18.31	-21.96	-159.22	-15.32	-146.42	-15.35	-146.26	-19.13	30.83
18.41	-21.99	-160.23	-15.34	-147.17	-15.35	-147.09	-19.12	29.19
18.51	-21.95	-161.25	-15.34	-147.99	-15.34	-147.83	-19.09	28.8
18.61	-21.95	-162.26	-15.37	-148.89	-15.36	-148.61	-19.08	28.06
18.71	-21.87	-162.91	-15.36	-149.64	-15.35	-149.41	-19.04	27.83
18.81	-21.81	-164.5	-15.34	-150.54	-15.35	-150.24	-18.97	27.59
18.91	-21.82	-165.58	-15.34	-151.42	-15.34	-151.16	-18.82	27.48
19.01	-21.79	-167.01	-15.33	-152.26	-15.35	-152.11	-18.68	26.58
19.11	-21.76	-168.09	-15.34	-153.07	-15.35	-153	-18.6	25.81
19.21	-21.76	-169.07	-15.36	-153.92	-15.35	-153.73	-18.53	24.87
19.31	-21.7	-170.34	-15.34	-154.74	-15.33	-154.62	-18.51	24.63
19.41	-21.66	-171.59	-15.36	-155.83	-15.35	-155.67	-18.37	24.36
19.51	-21.61	-172.66	-15.38	-156.73	-15.37	-156.44	-18.25	23.75
19.61	-21.62	-174.33	-15.39	-157.56	-15.39	-157.3	-18.16	22.64
19.71	-21.62	-175.24	-15.39	-158.38	-15.39	-158.15	-18.13	22.16
19.81	-21.61	-176.36	-15.37	-159.1	-15.37	-159.01	-18.04	21.41
19.91	-21.61	-177.29	-15.36	-160.15	-15.37	-160.01	-17.94	20.95
20.01	-21.53	-178.4	-15.39	-161.11	-15.37	-160.99	-17.81	20.23