!s2p File: Measurements: S11, S21, S12, S22								
# GHz S dB R 50.0								
0.01	-25.28	-0.21	-25.37	-0.29	-25.37	-0.28	-45.69	-15.59
0.11	-25.47	-1.51	-25.51	-1.39	-25.5	-1.38	-49.03	-98.7
0.21	-25.53	-1.86	-25.55	-1.95	-25.55	-1.95	-50.35	-142.19
0.31	-25.54	-2.32	-25.56	-2.56	-25.56	-2.57	-50.44	-167.03
0.41	-25.55	-2.89	-25.57	-3.23	-25.57	-3.22	-49.93	175.41
0.51	-25.54	-3.41	-25.57	-3.91	-25.58	-3.89	-49.33	162.61
0.61	-25.55	-3.93	-25.58	-4.57	-25.58	-4.58	-48.59	152.2
0.71	-25.54	-4.56	-25.58	-5.29	-25.58	-5.31	-47.92	144.01
0.81	-25.54	-5.13	-25.59	-6.01	-25.58	-5.98	-47.29	137.63
0.91	-25.56	-5.72	-25.59	-6.69	-25.59	-6.7	-46.5	132.35
1.01	-25.56	-6.33	-25.6	-7.4	-25.59	-7.41	-45.83	126.96
1.11	-25.57	-6.93	-25.6	-8.11	-25.59	-8.11	-45.24	123.18
1.21	-25.58	-7.59	-25.61	-8.82	-25.6	-8.8	-44.69	119.15
1.31	-25.58	-8.33	-25.61	-9.51	-25.61	-9.5	-44.16	116.2
1.41	-25.6	-9.1	-25.62	-10.24	-25.61	-10.24	-43.65	114.3
1.51	-25.63	-9.78	-25.62	-10.98	-25.61	-10.94	-43.03	111.69
1.61	-25.61	-10.43	-25.63	-11.66	-25.62	-11.68	-42.48	108.7
1.71	-25.6	-11.2	-25.63	-12.4	-25.62	-12.38	-42.16	106.27
1.81	-25.6	-12.15	-25.64	-13.09	-25.63	-13.11	-41.88	104.72
1.91	-25.61	-12.98	-25.65	-13.79	-25.64	-13.8	-41.54	103.13
2.01	-25.63	-13.71	-25.65	-14.51	-25.65	-14.49	-41.17	101.96
2.11	-25.64	-14.42	-25.65	-15.21	-25.66	-15.19	-40.76	100.57
2.21	-25.66	-15.17	-25.67	-15.92	-25.66	-15.9	-40.41	99.13
2.31	-25.67	-15.97	-25.67	-16.65	-25.67	-16.63	-40.03	97.8
2.41	-25.68	-16.72	-25.68	-17.34	-25.68	-17.31	-39.72	96.47
2.51	-25.72	-17.42	-25.68	-18.01	-25.68	-18.02	-39.39	95.38
2.61	-25.74	-18.11	-25.7	-18.72	-25.69	-18.72	-39.06	94.71
2.71	-25.78	-18.67	-25.71	-19.41	-25.7	-19.42	-38.71	93.69
2.81	-25.81	-19.25	-25.71	-20.13	-25.71	-20.12	-38.39	92.84
2.91	-25.83	-19.86	-25.72	-20.82	-25.71	-20.82	-38.08	91.95
3.01	-25.86	-20.58	-25.73	-21.55	-25.73	-21.52	-37.74	90.73
3.11	-25.88	-21.34	-25.74	-22.25	-25.73	-22.24	-37.5	89.71
3.21	-25.93	-22.15	-25.75	-22.95	-25.74	-22.93	-37.22	88.93
3.31	-25.98	-22.85	-25.76	-23.65	-25.75	-23.62	-36.92	88.29
3.41	-26.02	-23.5	-25.76	-24.32	-25.76	-24.31	-36.62	87.51
3.51	-26.04	-24.27	-25.77	-25.01	-25.77	-25.04	-36.35	86.56
3.61	-26.07	-25.05	-25.79	-25.73	-25.78	-25.73	-36.09	85.9
3.71	-26.12	-25.92	-25.8	-26.42	-25.8	-26.43	-35.9	84.97
3.81	-26.18	-26.85	-25.81	-27.13	-25.81	-27.1	-35.71	84.36
3.91	-26.25	-27.62	-25.82	-27.79	-25.82	-27.8	-35.51	84.08
4.01	-26.3	-28.25	-25.83	-28.5	-25.83	-28.51	-35.23	83.59
4.11	-26.32	-28.95	-25.84	-29.25	-25.84	-29.19	-34.95	83.08
4.21	-26.35	-29.78	-25.85	-29.91	-25.86	-29.89	-34.7	81.78
4.31	-26.4	-30.85	-25.87	-30.6	-25.87	-30.56	-34.54	80.76
4.41	-26.46	-31.92	-25.88	-31.31	-25.88	-31.26	-34.4	79.96
4.51	-26.54	-32.65	-25.9	-31.96	-25.9	-31.92	-34.26	79.51
4.61	-26.62	-33.27	-25.91	-32.65	-25.91	-32.65	-34.07	79.29
4.71	-26.65	-33.83	-25.92	-33.36	-25.92	-33.34	-33.83	79.01
4.81	-26.65	-34.55	-25.94	-34.07	-25.93	-34.01	-33.55	78.28
4.91	-26.66	-35.52	-25.95	-34.76	-25.95	-34.69	-33.33	77.21
5.01	-26.69	-36.52	-25.96	-35.43	-25.96	-35.37	-33.13	76.22
5.11	-26.78	-37.53	-25.97	-36.09	-25.98	-36.07	-33.01	75.23
5.21	-26.88	-38.29	-25.99	-36.78	-25.99	-36.8	-32.86	74.7
5.31	-26.96	-38.94	-26.01	-37.48	-26.01	-37.45	-32.71	74.4
5.41	-27.04	-39.37	-26.02	-38.17	-26.02	-38.15	-32.52	74.27
5.51	-27.09	-40	-26.04	-38.84	-26.04	-38.83	-32.25	73.77
5.61	-27.14	-40.87	-26.06	-39.57	-26.06	-39.53	-32	72.95
5.71	-27.22	-41.82	-26.07	-40.23	-26.07	-40.18	-31.84	71.96
5.81	-27.32	-42.92	-26.09	-40.88	-26.09	-40.86	-31.67	70.97
5.91	-27.44	-43.79	-26.11	-41.59	-26.1	-41.58	-31.58	70.11
6.01	-27.56	-44.55	-26.13	-42.25	-26.13	-42.21	-31.45	69.55
6.11	-27.66	-45.24	-26.16	-42.94	-26.15	-42.93	-31.3	69.04
6.21	-27.72	-45.9	-26.18	-43.58	-26.17	-43.59	-31.1	68.47
6.31	-27.77	-46.84	-26.19	-44.26	-26.19	-44.26	-30.92	67.68
6.41	-27.83	-47.74	-26.22	-44.9	-26.21	-44.92	-30.73	67.02
6.51	-27.9	-48.92	-26.24	-45.55	-26.24	-45.56	-30.57	66.09
6.61	-28.02	-49.97	-26.26	-46.22	-26.25	-46.2	-30.45	65.29
6.71	-28.13	-50.92	-26.28	-46.89	-26.28	-46.87	-30.33	64.6
6.81	-28.23	-51.82	-26.3	-47.55	-26.3	-47.49	-30.2	64.11
6.91	-28.31	-52.62	-26.33	-48.17	-26.33	-48.14	-30.07	63.69
7.01	-28.36	-53.55	-26.35	-48.82	-26.35	-48.78	-29.91	63.01
7.11	-28.42	-54.54	-26.37	-49.47	-26.37	-49.42	-29.76	62.18
7.21	-28.51	-55.57	-26.39	-50.1	-26.39	-50.09	-29.6	61.2
7.31	-28.6	-56.53	-26.42	-50.87	-26.41	-50.83	-29.51	60.05
7.41	-28.7	-57.4	-26.47	-51.5	-26.46	-51.48	-29.44	59.04
7.51	-28.78	-58.28	-26.5	-52.07	-26.49	-52.01	-29.37	58.36
7.61	-28.87	-59.08	-26.51	-52.66	-26.52	-52.58	-29.25	57.88
7.71	-28.96	-59.9	-26.54	-53.26	-26.54	-53.18	-29.12	57.29
7.81	-29.03	-60.79	-26.57	-53.8	-26.58	-53.78	-28.99	56.61
7.91	-29.17	-61.62	-26.61	-54.42	-26.61	-54.38	-28.86	55.8
8.01	-29.3	-62.76	-26.64	-54.99	-26.64	-54.96	-28.78	55
8.11	-29.44	-63.8	-26.67	-55.56	-26.67	-55.49	-28.73	54.27
8.21	-29.61	-64.87	-26.7	-56.13	-26.7	-56.11	-28.68	53.65
8.31	-29.75	-65.83	-26.73	-56.72	-26.73	-56.61	-28.62	53
8.41	-29.85	-66.88	-26.76	-57.18	-26.77	-57.16	-28.55	52.56
8.51	-29.96	-68.1	-26.8	-57.67	-26.81	-57.62	-28.49	52.04
8.61	-30.03	-69.51	-26.84	-58.13	-26.84	-58.07	-28.41	51.45
8.71	-30.11	-71.05	-26.86	-58.59	-26.86	-58.54	-28.34	50.8
8.81	-30.22	-72.56	-26.89	-59.06	-26.89	-59.02	-28.28	50.18
8.91	-30.35	-74.16	-26.91	-59.49	-26.91	-59.46	-28.25	49.6
9.01	-30.5	-75.46	-26.94	-60	-26.95	-59.86	-28.21	49.3
9.11	-30.65	-76.9	-26.97	-60.38	-26.97	-60.3	-28.14	48.91
9.21	-30.77	-78.31	-26.98	-60.77	-26.98	-60.73	-28.08	48.64
9.31	-30.86	-79.51	-27	-61.21	-27	-61.14	-28.02	48.31
9.41	-30.94	-81.03	-27.01	-61.64	-27.02	-61.58	-27.96	47.9
9.51	-31	-82.58	-27.04	-62.01	-27.04	-61.98	-27.88	47.6
9.61	-31.14	-84.34	-27.04	-62.46	-27.04	-62.34	-27.8	47.17
9.71	-31.25	-86.04	-27.05	-62.76	-27.06	-62.72	-27.72	46.91
9.81	-31.39	-87.46	-27.06	-63.17	-27.06	-63.16	-27.65	46.7
9.91	-31.49	-88.59	-27.06	-63.67	-27.06	-63.56	-27.57	46.51
10.01	-31.59	-89.87	-27.07	-64.03	-27.07	-63.95	-27.5	46.25
10.11	-31.68	-91.14	-27.08	-64.44	-27.07	-64.37	-27.41	46.16
10.21	-31.77	-92.77	-27.08	-64.8	-27.07	-64.74	-27.3	46.13
10.31	-31.89	-94.49	-27.07	-65.25	-27.06	-65.14	-27.2	45.85
10.41	-32.02	-96.33	-27.06	-65.64	-27.06	-65.58	-27.05	45.49
10.51	-32.21	-98.29	-27.06	-66.06	-27.05	-65.99	-26.94	45.13
10.61	-32.38	-100.53	-27.04	-66.47	-27.04	-66.44	-26.83	44.8
10.71	-32.56	-102.41	-27.02	-67.05	-27.03	-66.94	-26.74	44.44
10.81	-32.69	-104.25	-27.02	-67.56	-27.02	-67.46	-26.63	44.35
10.91	-32.81	-106.63	-27.02	-68.03	-27.02	-67.93	-26.53	44.14
11.01	-32.95	-108.8	-27	-68.5	-27.01	-68.38	-26.38	44.07
11.11	-33.05	-110.89	-27	-68.96	-27	-68.9	-26.26	43.59
11.21	-33.14	-113.2	-27	-69.46	-26.99	-69.44	-26.14	43.21
11.31	-33.27	-115	-26.99	-69.93	-26.98	-69.95	-26.01	42.59
11.41	-33.35	-117.37	-26.99	-70.48	-26.98	-70.41	-25.94	42.01
11.51	-33.42	-119.04	-26.97	-70.99	-26.97	-70.87	-25.85	41.68
11.61	-33.47	-121.02	-26.96	-71.48	-26.94	-71.36	-25.75	41.43
11.71	-33.47	-123.3	-26.93	-71.99	-26.95	-71.89	-25.65	41.07
11.81	-33.53	-126.11	-26.91	-72.46	-26.94	-72.39	-25.52	40.84
11.91	-33.66	-128.55	-26.93	-73.02	-26.92	-72.94	-25.36	40.17
12.01	-33.63	-130.93	-26.9	-73.54	-26.91	-73.58	-25.28	39.42
12.11	-33.58	-132.67	-26.92	-74.26	-26.92	-74.22	-25.17	38.97
12.21	-33.6	-134.75	-26.93	-74.63	-26.91	-74.56	-25.08	38.26
12.31	-33.63	-136.95	-26.91	-75.15	-26.9	-75.03	-25.01	37.64
12.41	-33.57	-139.16	-26.88	-75.82	-26.89	-75.59	-24.95	36.97
12.51	-33.6	-142.09	-26.88	-76.28	-26.89	-76.09	-24.88	36.88
12.61	-33.56	-144.12	-26.86	-76.73	-26.87	-76.65	-24.77	36.5
12.71	-33.63	-147.22	-26.85	-77.35	-26.86	-77.32	-24.64	36.15
12.81	-33.71	-150.07	-26.87	-77.79	-26.87	-77.76	-24.45	35.35
12.91	-33.89	-152.57	-26.84	-78.28	-26.83	-78.26	-24.39	34.55
13.01	-33.83	-154.77	-26.86	-78.91	-26.84	-78.85	-24.25	33.78
13.11	-33.89	-157.22	-26.84	-79.51	-26.83	-79.42	-24.21	32.93
13.21	-33.85	-159.07	-26.88	-79.9	-26.88	-79.72	-24.16	32.44
13.31	-33.6	-162.02	-26.82	-80.28	-26.82	-80.14	-24.08	32.23
13.41	-33.5	-164.67	-26.79	-80.7	-26.81	-80.64	-23.96	31.59
13.51	-33.37	-167.7	-26.76	-81.35	-26.78	-81.29	-23.92	31.12
13.61	-33.27	-169.87	-26.77	-81.88	-26.77	-81.86	-23.79	30.39
13.71	-33.22	-172.53	-26.74	-82.38	-26.74	-82.38	-23.73	29.86
13.81	-33.12	-173.79	-26.73	-82.98	-26.73	-82.94	-23.64	29.11
13.91	-32.96	-175.74	-26.72	-83.66	-26.7	-83.46	-23.61	28.42
14.01	-32.76	-177.2	-26.7	-84.25	-26.7	-84.1	-23.55	27.77
14.11	-32.5	-179.39	-26.69	-84.77	-26.71	-84.64	-23.51	27.59
14.21	-32.34	178.26	-26.69	-85.14	-26.72	-84.97	-23.41	27.21
14.31	-32.14	175.14	-26.64	-85.58	-26.65	-85.47	-23.32	26.58
14.41	-32.12	173.57	-26.63	-86.28	-26.63	-86.27	-23.22	26.21
14.51	-31.99	171.15	-26.63	-86.99	-26.63	-86.9	-23.14	25.31
14.61	-31.97	169.99	-26.63	-87.57	-26.61	-87.38	-23.09	24.41
14.71	-31.83	169.07	-26.59	-88.03	-26.58	-87.79	-23.07	23.63
14.81	-31.71	168.35	-26.58	-88.75	-26.57	-88.54	-23.05	23.12
14.91	-31.45	167.66	-26.59	-89.41	-26.58	-89.21	-23	22.8
15.01	-31.25	165.33	-26.58	-89.72	-26.58	-89.54	-22.89	22.48
15.11	-31.08	163.04	-26.54	-90.2	-26.55	-90.11	-22.84	21.68
15.21	-31.05	160.91	-26.52	-90.86	-26.52	-90.71	-22.73	20.99
15.31	-31.09	159.01	-26.53	-91.46	-26.51	-91.35	-22.69	20.2
15.41	-31	157.79	-26.54	-91.84	-26.52	-91.69	-22.64	19.7
15.51	-30.9	156.74	-26.5	-92.32	-26.48	-92.16	-22.6	18.96
15.61	-30.59	155.78	-26.48	-92.89	-26.46	-92.61	-22.59	18.34
15.71	-30.31	154.3	-26.43	-93.55	-26.43	-93.32	-22.56	18.1
15.81	-30.03	152.54	-26.44	-94.14	-26.43	-93.99	-22.51	17.73
15.91	-29.79	150.59	-26.42	-94.56	-26.43	-94.48	-22.44	17.01
16.01	-29.73	147.95	-26.41	-94.94	-26.4	-94.85	-22.41	16.4
16.11	-29.63	146.37	-26.39	-95.22	-26.37	-95.18	-22.38	15.72
16.21	-29.66	145.1	-26.33	-95.83	-26.3	-95.73	-22.41	15.15
16.31	-29.6	145.13	-26.3	-96.45	-26.27	-96.25	-22.36	14.85
16.41	-29.35	144.76	-26.25	-97.04	-26.24	-96.79	-22.34	14.4
16.51	-29.08	143.46	-26.23	-97.68	-26.21	-97.49	-22.33	13.8
16.61	-28.94	141.84	-26.18	-98.26	-26.16	-98.06	-22.33	13.43
16.71	-28.82	140.53	-26.15	-98.73	-26.12	-98.73	-22.41	13.44
16.81	-28.77	139.16	-26.14	-99.36	-26.11	-99.31	-22.29	13.68
16.91	-28.77	138.09	-26.11	-99.63	-26.06	-99.58	-22.24	13.82
17.01	-28.81	138.81	-26.04	-100.33	-25.98	-100.36	-22.03	13.43
17.11	-28.58	139.01	-26.03	-101.03	-25.94	-101.04	-21.83	12.23
17.21	-28.34	138.72	-25.97	-101.54	-25.92	-101.76	-21.92	9.21
17.31	-28.1	137.25	-25.95	-101.96	-25.92	-102.26	-22.26	9.15
17.41	-27.98	135.67	-25.82	-102.4	-25.84	-102.87	-22.56	11.33
17.51	-27.92	134.33	-25.76	-103.4	-25.76	-103.83	-22.2	13.82
17.61	-27.95	132.66	-25.7	-103.72	-25.73	-104.19	-21.75	13.58
17.71	-28.05	132.01	-25.59	-104.78	-25.64	-105.03	-21.5	10.83
17.81	-28.03	131.9	-25.56	-105.68	-25.59	-105.76	-21.6	8.85
17.91	-27.89	131.68	-25.52	-106.64	-25.56	-106.51	-21.87	8.81
18.01	-27.58	130.76	-25.47	-107.52	-25.51	-107.26	-21.92	10.15
18.11	-27.48	128.62	-25.44	-108.21	-25.48	-107.97	-21.68	11.22
18.21	-27.4	127.89	-25.37	-109.15	-25.41	-108.96	-21.47	10.69
18.31	-27.3	126.89	-25.34	-110.15	-25.37	-109.97	-21.28	10.29
18.41	-27.31	126.3	-25.31	-110.75	-25.33	-110.67	-21.27	8.39
18.51	-27.3	126.56	-25.25	-111.9	-25.25	-111.76	-21.29	8.4
18.61	-27.15	126.7	-25.29	-112.84	-25.26	-112.52	-21.33	7.77
18.71	-27.1	127.3	-25.22	-113.56	-25.21	-113.3	-21.34	7.94
18.81	-26.86	126.97	-25.13	-114.37	-25.16	-114.14	-21.31	8.11
18.91	-26.77	126.02	-25.09	-115.47	-25.08	-115.13	-21.22	8.75
19.01	-26.64	125.71	-25.03	-116.59	-25.06	-116.47	-21.04	8.38
19.11	-26.57	125.54	-25.06	-117.61	-25.08	-117.49	-20.96	7.91
19.21	-26.55	125.32	-25.05	-118.22	-25.03	-118.1	-20.9	7.11
19.31	-26.46	125.7	-24.93	-119.45	-24.92	-119.37	-20.94	7.32
19.41	-26.25	126.03	-24.99	-121.04	-24.99	-120.89	-20.79	7.68
19.51	-26.13	126.08	-25	-122.03	-24.97	-121.75	-20.67	7.59
19.61	-25.9	125.27	-25.01	-122.82	-25.03	-122.59	-20.55	6.59
19.71	-25.84	124.65	-24.99	-123.47	-24.99	-123.25	-20.56	6.39
19.81	-25.89	123.98	-24.86	-124.58	-24.86	-124.5	-20.45	6.11
19.91	-25.85	124.28	-24.89	-126.11	-24.91	-126.01	-20.34	5.99
20.01	-25.75	125.31	-24.95	-127.44	-24.93	-127.3	-20.17	5.58