!s2p File: Measurements: S11, S21, S12, S22								
# GHz S dB R 50.0								
0.01	-13.22	-1.29	-2.83	-0.45	-2.83	-0.45	-14.51	-1.53
0.11	-13.64	-2.42	-2.96	-1.52	-2.95	-1.52	-15.05	-3.17
0.21	-13.75	-2.85	-2.99	-2.38	-2.98	-2.37	-15.19	-3.7
0.31	-13.78	-3.42	-3	-3.28	-2.99	-3.28	-15.23	-4.41
0.41	-13.8	-4.05	-3	-4.2	-3	-4.19	-15.26	-5.24
0.51	-13.81	-4.76	-3.01	-5.14	-3.01	-5.14	-15.27	-6.15
0.61	-13.82	-5.46	-3.01	-6.08	-3.01	-6.08	-15.29	-7.09
0.71	-13.82	-6.23	-3.02	-7.03	-3.01	-7.03	-15.29	-8.07
0.81	-13.83	-6.96	-3.02	-7.99	-3.02	-7.99	-15.3	-9.05
0.91	-13.84	-7.74	-3.02	-8.94	-3.02	-8.94	-15.31	-10.05
1.01	-13.84	-8.51	-3.03	-9.9	-3.03	-9.9	-15.32	-11.07
1.11	-13.85	-9.31	-3.03	-10.86	-3.03	-10.86	-15.32	-12.1
1.21	-13.86	-10.09	-3.04	-11.81	-3.03	-11.81	-15.34	-13.13
1.31	-13.86	-10.93	-3.04	-12.78	-3.04	-12.77	-15.34	-14.19
1.41	-13.87	-11.76	-3.04	-13.75	-3.04	-13.74	-15.36	-15.28
1.51	-13.88	-12.59	-3.05	-14.7	-3.05	-14.7	-15.37	-16.3
1.61	-13.89	-13.39	-3.05	-15.66	-3.05	-15.66	-15.38	-17.35
1.71	-13.88	-14.23	-3.06	-16.61	-3.06	-16.61	-15.39	-18.4
1.81	-13.89	-15.11	-3.06	-17.57	-3.06	-17.57	-15.41	-19.53
1.91	-13.9	-15.96	-3.07	-18.53	-3.07	-18.53	-15.42	-20.59
2.01	-13.91	-16.8	-3.08	-19.49	-3.07	-19.49	-15.45	-21.7
2.11	-13.92	-17.63	-3.08	-20.44	-3.08	-20.44	-15.47	-22.76
2.21	-13.93	-18.48	-3.09	-21.4	-3.09	-21.4	-15.49	-23.84
2.31	-13.94	-19.32	-3.1	-22.35	-3.09	-22.35	-15.51	-24.88
2.41	-13.95	-20.16	-3.1	-23.3	-3.1	-23.3	-15.53	-25.95
2.51	-13.96	-20.97	-3.11	-24.25	-3.11	-24.25	-15.56	-27.01
2.61	-13.98	-21.79	-3.12	-25.21	-3.11	-25.21	-15.58	-28.08
2.71	-13.99	-22.57	-3.12	-26.15	-3.12	-26.15	-15.61	-29.09
2.81	-14.01	-23.36	-3.13	-27.11	-3.13	-27.1	-15.63	-30.16
2.91	-14.02	-24.17	-3.14	-28.05	-3.13	-28.05	-15.66	-31.18
3.01	-14.04	-24.99	-3.14	-29	-3.14	-29	-15.69	-32.21
3.11	-14.05	-25.81	-3.15	-29.94	-3.15	-29.94	-15.72	-33.25
3.21	-14.08	-26.65	-3.16	-30.89	-3.16	-30.89	-15.75	-34.32
3.31	-14.09	-27.47	-3.17	-31.84	-3.16	-31.84	-15.78	-35.39
3.41	-14.12	-28.31	-3.17	-32.78	-3.17	-32.79	-15.81	-36.43
3.51	-14.13	-29.12	-3.18	-33.72	-3.18	-33.73	-15.84	-37.45
3.61	-14.15	-29.96	-3.19	-34.66	-3.19	-34.68	-15.88	-38.51
3.71	-14.17	-30.81	-3.2	-35.61	-3.2	-35.63	-15.91	-39.55
3.81	-14.19	-31.68	-3.21	-36.56	-3.21	-36.58	-15.94	-40.63
3.91	-14.22	-32.51	-3.22	-37.51	-3.21	-37.52	-15.99	-41.74
4.01	-14.25	-33.34	-3.22	-38.47	-3.22	-38.47	-16.03	-42.79
4.11	-14.26	-34.13	-3.23	-39.42	-3.23	-39.41	-16.07	-43.86
4.21	-14.28	-34.99	-3.24	-40.35	-3.24	-40.35	-16.11	-44.84
4.31	-14.3	-35.86	-3.25	-41.27	-3.25	-41.3	-16.14	-45.89
4.41	-14.33	-36.76	-3.26	-42.22	-3.26	-42.24	-16.18	-46.94
4.51	-14.36	-37.58	-3.27	-43.16	-3.27	-43.18	-16.22	-48.05
4.61	-14.39	-38.4	-3.28	-44.12	-3.28	-44.13	-16.27	-49.08
4.71	-14.41	-39.16	-3.29	-45.07	-3.29	-45.07	-16.32	-50.13
4.81	-14.42	-39.95	-3.3	-46.03	-3.3	-46	-16.37	-51.12
4.91	-14.44	-40.77	-3.31	-46.96	-3.31	-46.94	-16.42	-52.11
5.01	-14.46	-41.64	-3.32	-47.88	-3.32	-47.88	-16.46	-53.07
5.11	-14.49	-42.46	-3.33	-48.8	-3.33	-48.81	-16.5	-54.13
5.21	-14.52	-43.28	-3.34	-49.74	-3.34	-49.75	-16.55	-55.13
5.31	-14.55	-44.05	-3.35	-50.7	-3.36	-50.7	-16.59	-56.21
5.41	-14.58	-44.81	-3.36	-51.65	-3.37	-51.63	-16.65	-57.23
5.51	-14.6	-45.53	-3.38	-52.58	-3.37	-52.56	-16.71	-58.21
5.61	-14.62	-46.38	-3.39	-53.52	-3.39	-53.51	-16.76	-59.13
5.71	-14.65	-47.2	-3.4	-54.47	-3.4	-54.44	-16.81	-60.12
5.81	-14.68	-48.08	-3.41	-55.38	-3.41	-55.37	-16.86	-61.09
5.91	-14.72	-48.88	-3.42	-56.32	-3.42	-56.31	-16.9	-62.14
6.01	-14.75	-49.73	-3.43	-57.26	-3.44	-57.25	-16.95	-63.2
6.11	-14.79	-50.48	-3.45	-58.21	-3.45	-58.19	-17	-64.25
6.21	-14.81	-51.27	-3.46	-59.13	-3.46	-59.13	-17.06	-65.24
6.31	-14.83	-52.08	-3.47	-60.06	-3.48	-60.04	-17.11	-66.16
6.41	-14.85	-52.92	-3.49	-60.97	-3.49	-60.98	-17.17	-67.2
6.51	-14.87	-53.8	-3.5	-61.89	-3.5	-61.91	-17.23	-68.16
6.61	-14.9	-54.68	-3.52	-62.85	-3.52	-62.83	-17.28	-69.19
6.71	-14.93	-55.51	-3.53	-63.78	-3.53	-63.76	-17.34	-70.23
6.81	-14.95	-56.35	-3.55	-64.71	-3.55	-64.68	-17.4	-71.28
6.91	-14.97	-57.19	-3.56	-65.61	-3.56	-65.6	-17.46	-72.35
7.01	-15	-58.07	-3.57	-66.53	-3.58	-66.54	-17.52	-73.33
7.11	-15.02	-58.92	-3.59	-67.41	-3.59	-67.45	-17.58	-74.32
7.21	-15.04	-59.81	-3.6	-68.37	-3.61	-68.4	-17.65	-75.27
7.31	-15.07	-60.62	-3.62	-69.33	-3.62	-69.32	-17.69	-76.16
7.41	-15.09	-61.47	-3.64	-70.26	-3.64	-70.23	-17.72	-77.24
7.51	-15.11	-62.35	-3.65	-71.16	-3.65	-71.13	-17.78	-78.37
7.61	-15.13	-63.2	-3.66	-72.09	-3.67	-72.05	-17.85	-79.4
7.71	-15.15	-64.04	-3.68	-72.97	-3.69	-72.94	-17.92	-80.45
7.81	-15.17	-64.94	-3.69	-73.81	-3.7	-73.88	-17.98	-81.46
7.91	-15.2	-65.81	-3.71	-74.77	-3.72	-74.79	-18.04	-82.38
8.01	-15.23	-66.79	-3.73	-75.68	-3.74	-75.69	-18.09	-83.51
8.11	-15.27	-67.75	-3.75	-76.59	-3.75	-76.59	-18.15	-84.55
8.21	-15.31	-68.69	-3.77	-77.5	-3.77	-77.49	-18.2	-85.67
8.31	-15.34	-69.61	-3.78	-78.42	-3.79	-78.38	-18.26	-86.8
8.41	-15.36	-70.55	-3.79	-79.27	-3.81	-79.26	-18.32	-87.94
8.51	-15.39	-71.59	-3.81	-80.17	-3.82	-80.16	-18.38	-89.15
8.61	-15.41	-72.65	-3.83	-81.06	-3.84	-81.04	-18.44	-90.31
8.71	-15.45	-73.76	-3.85	-81.96	-3.86	-81.9	-18.52	-91.49
8.81	-15.49	-74.8	-3.88	-82.83	-3.87	-82.78	-18.58	-92.62
8.91	-15.53	-75.91	-3.89	-83.69	-3.89	-83.67	-18.64	-93.85
9.01	-15.58	-76.93	-3.9	-84.58	-3.91	-84.5	-18.71	-95.15
9.11	-15.62	-77.98	-3.91	-85.41	-3.92	-85.37	-18.79	-96.39
9.21	-15.67	-79.03	-3.93	-86.29	-3.93	-86.26	-18.89	-97.66
9.31	-15.72	-80.1	-3.95	-87.18	-3.95	-87.12	-18.98	-98.93
9.41	-15.76	-81.15	-3.96	-88.03	-3.96	-87.98	-19.05	-100.18
9.51	-15.81	-82.14	-3.98	-88.9	-3.98	-88.87	-19.16	-101.48
9.61	-15.87	-83.24	-3.99	-89.8	-3.99	-89.72	-19.26	-102.64
9.71	-15.93	-84.29	-4	-90.63	-4	-90.59	-19.36	-103.92
9.81	-15.98	-85.27	-4.01	-91.46	-4.01	-91.47	-19.47	-105.21
9.91	-16.05	-86.23	-4.02	-92.36	-4.02	-92.33	-19.58	-106.47
10.01	-16.1	-87.18	-4.03	-93.25	-4.04	-93.18	-19.69	-107.75
10.11	-16.16	-88.15	-4.05	-94.14	-4.05	-94.04	-19.81	-109.04
10.21	-16.22	-89.13	-4.06	-94.96	-4.06	-94.93	-19.94	-110.39
10.31	-16.3	-90.13	-4.07	-95.85	-4.07	-95.79	-20.06	-111.59
10.41	-16.36	-91.09	-4.08	-96.71	-4.08	-96.68	-20.2	-112.72
10.51	-16.45	-92.06	-4.09	-97.56	-4.09	-97.58	-20.33	-113.97
10.61	-16.52	-93.08	-4.1	-98.48	-4.1	-98.46	-20.46	-115.19
10.71	-16.6	-94	-4.11	-99.4	-4.11	-99.31	-20.58	-116.4
10.81	-16.67	-94.92	-4.12	-100.29	-4.12	-100.19	-20.72	-117.77
10.91	-16.74	-96.03	-4.13	-101.18	-4.13	-101.08	-20.85	-119.16
11.01	-16.83	-96.97	-4.13	-102.07	-4.15	-101.99	-21.01	-120.5
11.11	-16.89	-97.84	-4.15	-102.92	-4.16	-102.9	-21.16	-121.65
11.21	-16.97	-98.78	-4.17	-103.8	-4.17	-103.8	-21.31	-122.99
11.31	-17.04	-99.61	-4.18	-104.67	-4.18	-104.69	-21.46	-124.2
11.41	-17.1	-100.57	-4.18	-105.6	-4.19	-105.58	-21.61	-125.4
11.51	-17.16	-101.44	-4.2	-106.54	-4.2	-106.41	-21.76	-126.72
11.61	-17.24	-102.29	-4.21	-107.41	-4.21	-107.3	-21.91	-128.07
11.71	-17.29	-103.24	-4.21	-108.3	-4.24	-108.22	-22.03	-129.36
11.81	-17.36	-104.15	-4.22	-109.16	-4.25	-109.08	-22.23	-130.85
11.91	-17.45	-105.01	-4.24	-110.04	-4.25	-110	-22.43	-131.94
12.01	-17.5	-105.9	-4.25	-110.89	-4.27	-110.95	-22.59	-133.08
12.11	-17.56	-106.66	-4.27	-111.83	-4.27	-111.81	-22.75	-134.35
12.21	-17.6	-107.49	-4.29	-112.72	-4.28	-112.68	-22.89	-135.71
12.31	-17.66	-108.36	-4.3	-113.69	-4.3	-113.58	-23.07	-136.94
12.41	-17.7	-109.33	-4.3	-114.63	-4.31	-114.41	-23.22	-138.27
12.51	-17.77	-110.33	-4.32	-115.5	-4.33	-115.31	-23.38	-139.88
12.61	-17.83	-111.22	-4.33	-116.33	-4.34	-116.23	-23.58	-141.29
12.71	-17.92	-112.17	-4.33	-117.2	-4.36	-117.15	-23.77	-142.48
12.81	-18	-112.84	-4.35	-118.06	-4.37	-118.08	-24.01	-143.96
12.91	-18.08	-113.66	-4.38	-118.96	-4.38	-118.93	-24.19	-145.13
13.01	-18.13	-114.64	-4.38	-119.91	-4.38	-119.85	-24.41	-146.45
13.11	-18.22	-115.4	-4.4	-120.87	-4.4	-120.77	-24.57	-147.86
13.21	-18.24	-116.24	-4.43	-121.76	-4.43	-121.56	-24.72	-149.6
13.31	-18.32	-117.41	-4.42	-122.6	-4.43	-122.43	-24.98	-151.44
13.41	-18.36	-118.41	-4.43	-123.49	-4.45	-123.41	-25.2	-152.72
13.51	-18.44	-119.53	-4.45	-124.37	-4.47	-124.27	-25.33	-154.14
13.61	-18.49	-120.33	-4.46	-125.18	-4.48	-125.16	-25.59	-155.76
13.71	-18.56	-121.47	-4.47	-126.09	-4.48	-126.07	-25.82	-157.69
13.81	-18.62	-122.32	-4.5	-127.05	-4.5	-127.01	-26.05	-159.03
13.91	-18.69	-123.18	-4.52	-127.99	-4.51	-127.81	-26.23	-160.75
14.01	-18.73	-124.09	-4.53	-128.89	-4.53	-128.73	-26.46	-162.19
14.11	-18.77	-125.13	-4.53	-129.78	-4.55	-129.6	-26.62	-164.49
14.21	-18.84	-126.2	-4.55	-130.69	-4.57	-130.49	-26.84	-166.67
14.31	-18.93	-127.41	-4.56	-131.53	-4.58	-131.4	-27.16	-168.42
14.41	-19.01	-127.94	-4.57	-132.38	-4.59	-132.31	-27.42	-170.26
14.51	-19.05	-128.84	-4.6	-133.33	-4.6	-133.22	-27.64	-172.13
14.61	-19.09	-129.57	-4.63	-134.22	-4.62	-134.1	-27.91	-173.97
14.71	-19.13	-130.58	-4.64	-135.1	-4.63	-134.92	-28.17	-175.71
14.81	-19.17	-131.33	-4.65	-136.05	-4.65	-135.81	-28.35	-177.8
14.91	-19.15	-132.31	-4.67	-136.95	-4.67	-136.72	-28.56	179.84
15.01	-19.23	-133.52	-4.67	-137.79	-4.69	-137.57	-28.82	177.08
15.11	-19.3	-134.63	-4.68	-138.66	-4.7	-138.53	-29.12	175.2
15.21	-19.41	-135.18	-4.71	-139.51	-4.71	-139.45	-29.45	172.91
15.31	-19.48	-135.94	-4.73	-140.41	-4.73	-140.29	-29.69	170.68
15.41	-19.49	-136.76	-4.75	-141.29	-4.74	-141.17	-29.93	167.61
15.51	-19.51	-137.73	-4.78	-142.18	-4.75	-142.02	-30.2	165.61
15.61	-19.55	-139.27	-4.79	-143.12	-4.78	-142.89	-30.39	162.84
15.71	-19.62	-140.52	-4.79	-144.01	-4.8	-143.73	-30.5	159.5
15.81	-19.69	-141.62	-4.81	-144.86	-4.82	-144.65	-30.73	156.93
15.91	-19.74	-142.54	-4.83	-145.72	-4.84	-145.58	-30.91	153.79
16.01	-19.82	-143.63	-4.85	-146.55	-4.85	-146.46	-31.12	150.57
16.11	-19.85	-144.64	-4.87	-147.36	-4.86	-147.3	-31.27	147.4
16.21	-19.93	-145.65	-4.9	-148.29	-4.87	-148.19	-31.39	144.15
16.31	-19.95	-146.48	-4.91	-149.16	-4.89	-148.95	-31.6	140.11
16.41	-19.97	-147.63	-4.92	-150.01	-4.91	-149.76	-31.74	137.24
16.51	-20	-148.99	-4.93	-150.93	-4.92	-150.7	-31.8	134.34
16.61	-20.1	-150.28	-4.95	-151.85	-4.94	-151.61	-31.81	131.27
16.71	-20.15	-151.27	-4.97	-152.57	-4.96	-152.48	-31.68	128.11
16.81	-20.24	-151.89	-4.98	-153.45	-4.96	-153.38	-31.59	122.87
16.91	-20.28	-152.82	-5.02	-154.28	-4.98	-154.21	-31.39	117.85
17.01	-20.3	-153.38	-5.03	-155.04	-4.99	-155.02	-31.51	110.83
17.11	-20.28	-154.26	-5.06	-155.87	-5	-155.83	-31.97	104.39
17.21	-20.3	-155.68	-5.06	-156.63	-5.02	-156.71	-32.96	103.88
17.31	-20.36	-157.23	-5.06	-157.49	-5.04	-157.63	-32.62	107.28
17.41	-20.45	-158.6	-5.04	-158.25	-5.05	-158.5	-31.63	108.46
17.51	-20.55	-159.36	-5.04	-159.2	-5.06	-159.42	-30.66	100.16
17.61	-20.65	-160.2	-5.03	-159.96	-5.07	-160.28	-30.48	91.91
17.71	-20.75	-160.63	-5.04	-161.03	-5.08	-161.12	-30.97	84.43
17.81	-20.75	-161.21	-5.06	-161.91	-5.09	-161.97	-31.39	82.46
17.91	-20.77	-162.08	-5.07	-162.98	-5.1	-162.83	-31.1	83.84
18.01	-20.83	-163.58	-5.09	-163.92	-5.12	-163.7	-30.44	81.88
18.11	-20.95	-164.72	-5.1	-164.86	-5.14	-164.57	-29.78	78.35
18.21	-21.03	-165.85	-5.12	-165.68	-5.15	-165.49	-29.55	72.6
18.31	-21.08	-166.74	-5.12	-166.57	-5.15	-166.38	-29.41	68.41
18.41	-21.14	-167.85	-5.14	-167.44	-5.16	-167.3	-29.56	64.91
18.51	-21.16	-168.72	-5.16	-168.29	-5.17	-168.13	-29.38	63.09
18.61	-21.19	-169.15	-5.19	-169.24	-5.19	-168.98	-29.39	61.1
18.71	-21.15	-170.04	-5.2	-170.11	-5.19	-169.88	-29.2	60.12
18.81	-21.18	-171.34	-5.21	-171.06	-5.22	-170.79	-28.8	59.03
18.91	-21.24	-172.52	-5.22	-171.99	-5.22	-171.71	-28.33	57.08
19.01	-21.33	-173.54	-5.22	-172.84	-5.24	-172.66	-28.15	53.49
19.11	-21.36	-174.1	-5.24	-173.66	-5.25	-173.53	-28.07	51.16
19.21	-21.41	-174.7	-5.27	-174.58	-5.26	-174.38	-27.9	49.33
19.31	-21.39	-175.65	-5.28	-175.42	-5.27	-175.29	-27.67	47.94
19.41	-21.37	-176.44	-5.29	-176.39	-5.29	-176.19	-27.36	46.15
19.51	-21.37	-177.45	-5.32	-177.36	-5.31	-177.09	-27.08	44.11
19.61	-21.47	-178.76	-5.33	-178.25	-5.34	-177.99	-26.93	41.64
19.71	-21.51	-179.48	-5.33	-179.14	-5.34	-178.89	-26.85	40.46
19.81	-21.65	179.77	-5.35	-179.98	-5.35	-179.84	-26.69	38.06
19.91	-21.68	179.71	-5.36	179.13	-5.36	179.28	-26.55	37.06
20.01	-21.68	179.08	-5.38	178.26	-5.37	178.41	-26.28	34.79