!s2p File: Measurements: S11, S21, S12, S22								
# GHz S dB R 50.0								
0.01	-25.37	0.1	-32.46	-0.62	-32.46	-0.31	-23.93	-1.49
0.11	-25.54	-1.49	-32.6	-1.29	-32.59	-1.29	-24.77	-4.09
0.21	-25.6	-1.84	-32.65	-1.73	-32.65	-1.7	-25.05	-3.37
0.31	-25.61	-2.31	-32.66	-2.23	-32.65	-2.18	-25.14	-2.91
0.41	-25.61	-2.9	-32.67	-2.75	-32.68	-2.74	-25.18	-2.74
0.51	-25.61	-3.43	-32.67	-3.25	-32.68	-3.26	-25.2	-2.63
0.61	-25.61	-4.01	-32.68	-3.85	-32.68	-3.87	-25.22	-2.66
0.71	-25.61	-4.6	-32.68	-4.42	-32.68	-4.43	-25.23	-2.72
0.81	-25.61	-5.17	-32.69	-4.97	-32.69	-4.99	-25.22	-2.86
0.91	-25.62	-5.8	-32.7	-5.6	-32.69	-5.56	-25.23	-2.99
1.01	-25.62	-6.38	-32.7	-6.13	-32.69	-6.13	-25.23	-3.08
1.11	-25.64	-7.01	-32.7	-6.69	-32.7	-6.76	-25.22	-3.26
1.21	-25.65	-7.68	-32.7	-7.28	-32.7	-7.3	-25.21	-3.45
1.31	-25.65	-8.45	-32.71	-7.92	-32.7	-7.88	-25.21	-3.72
1.41	-25.67	-9.2	-32.71	-8.48	-32.71	-8.48	-25.21	-3.99
1.51	-25.69	-9.9	-32.72	-9.03	-32.71	-9.1	-25.22	-4.12
1.61	-25.68	-10.53	-32.72	-9.68	-32.72	-9.67	-25.2	-4.26
1.71	-25.67	-11.35	-32.73	-10.26	-32.72	-10.19	-25.18	-4.58
1.81	-25.67	-12.32	-32.73	-10.87	-32.74	-10.83	-25.17	-4.93
1.91	-25.68	-13.13	-32.74	-11.4	-32.74	-11.4	-25.17	-5.27
2.01	-25.7	-13.91	-32.74	-11.99	-32.75	-12.01	-25.17	-5.57
2.11	-25.71	-14.6	-32.75	-12.58	-32.75	-12.58	-25.18	-5.85
2.21	-25.73	-15.4	-32.75	-13.18	-32.75	-13.11	-25.17	-6.09
2.31	-25.74	-16.15	-32.77	-13.76	-32.76	-13.81	-25.17	-6.36
2.41	-25.75	-16.94	-32.78	-14.32	-32.77	-14.34	-25.16	-6.66
2.51	-25.78	-17.69	-32.77	-14.94	-32.78	-14.93	-25.16	-6.91
2.61	-25.82	-18.35	-32.78	-15.46	-32.78	-15.49	-25.17	-7.18
2.71	-25.86	-18.93	-32.79	-16.13	-32.78	-16.06	-25.17	-7.4
2.81	-25.88	-19.48	-32.81	-16.71	-32.81	-16.65	-25.17	-7.66
2.91	-25.91	-20.12	-32.81	-17.26	-32.81	-17.23	-25.17	-7.85
3.01	-25.93	-20.85	-32.82	-17.84	-32.81	-17.84	-25.17	-8
3.11	-25.96	-21.64	-32.84	-18.42	-32.82	-18.39	-25.16	-8.32
3.21	-26.01	-22.37	-32.84	-19.01	-32.84	-18.96	-25.15	-8.53
3.31	-26.05	-23.13	-32.85	-19.62	-32.84	-19.51	-25.17	-8.79
3.41	-26.1	-23.84	-32.86	-20.17	-32.84	-20.15	-25.16	-8.98
3.51	-26.11	-24.56	-32.86	-20.71	-32.86	-20.76	-25.16	-9.16
3.61	-26.16	-25.38	-32.87	-21.35	-32.88	-21.35	-25.16	-9.45
3.71	-26.2	-26.3	-32.89	-21.96	-32.89	-21.93	-25.15	-9.77
3.81	-26.25	-27.22	-32.9	-22.54	-32.91	-22.52	-25.15	-10.1
3.91	-26.33	-28	-32.92	-23.1	-32.91	-23.09	-25.17	-10.44
4.01	-26.39	-28.65	-32.93	-23.64	-32.92	-23.68	-25.18	-10.59
4.11	-26.4	-29.3	-32.94	-24.19	-32.94	-24.21	-25.19	-10.75
4.21	-26.43	-30.16	-32.95	-24.82	-32.94	-24.77	-25.16	-10.89
4.31	-26.49	-31.26	-32.96	-25.43	-32.96	-25.33	-25.14	-11.26
4.41	-26.55	-32.37	-32.97	-25.95	-32.99	-25.99	-25.13	-11.68
4.51	-26.64	-33.13	-33	-26.49	-33	-26.49	-25.15	-12.07
4.61	-26.72	-33.71	-33	-27.1	-33	-27.09	-25.17	-12.36
4.71	-26.74	-34.24	-33.03	-27.71	-33.02	-27.61	-25.19	-12.49
4.81	-26.74	-34.98	-33.04	-28.27	-33.04	-28.14	-25.18	-12.56
4.91	-26.75	-35.98	-33.05	-28.82	-33.06	-28.82	-25.15	-12.71
5.01	-26.79	-37.07	-33.07	-29.4	-33.07	-29.35	-25.14	-12.92
5.11	-26.87	-38.09	-33.09	-29.96	-33.09	-29.9	-25.11	-13.35
5.21	-26.98	-38.88	-33.1	-30.52	-33.1	-30.51	-25.12	-13.65
5.31	-27.06	-39.48	-33.13	-31.14	-33.11	-31.07	-25.13	-13.96
5.41	-27.14	-39.93	-33.14	-31.66	-33.14	-31.62	-25.16	-14.15
5.51	-27.18	-40.6	-33.15	-32.19	-33.15	-32.22	-25.17	-14.15
5.61	-27.23	-41.47	-33.19	-32.8	-33.19	-32.69	-25.15	-14.19
5.71	-27.32	-42.49	-33.22	-33.48	-33.21	-33.29	-25.13	-14.39
5.81	-27.43	-43.6	-33.22	-33.9	-33.22	-33.9	-25.1	-14.63
5.91	-27.56	-44.48	-33.24	-34.45	-33.25	-34.52	-25.08	-15.09
6.01	-27.68	-45.28	-33.27	-35.05	-33.28	-35.05	-25.09	-15.45
6.11	-27.78	-45.93	-33.31	-35.66	-33.3	-35.58	-25.1	-15.7
6.21	-27.83	-46.69	-33.32	-36.21	-33.33	-36.15	-25.1	-15.81
6.31	-27.88	-47.56	-33.35	-36.75	-33.35	-36.72	-25.07	-15.95
6.41	-27.95	-48.62	-33.4	-37.2	-33.39	-37.16	-25.07	-16.05
6.51	-28.03	-49.71	-33.42	-37.64	-33.42	-37.64	-25.03	-16.25
6.61	-28.15	-50.81	-33.45	-38.2	-33.46	-38.19	-25.03	-16.58
6.71	-28.26	-51.71	-33.47	-38.77	-33.47	-38.66	-25.02	-16.92
6.81	-28.36	-52.61	-33.51	-39.2	-33.5	-39.21	-25.02	-17.17
6.91	-28.42	-53.48	-33.54	-39.69	-33.54	-39.6	-25.04	-17.43
7.01	-28.49	-54.47	-33.56	-40.14	-33.56	-40.2	-25.02	-17.57
7.11	-28.56	-55.5	-33.61	-40.66	-33.6	-40.67	-25.01	-17.77
7.21	-28.66	-56.58	-33.6	-41.2	-33.62	-41.14	-24.96	-17.92
7.31	-28.76	-57.64	-33.64	-41.97	-33.64	-41.86	-24.92	-18.39
7.41	-28.86	-58.47	-33.75	-42.45	-33.72	-42.32	-24.89	-18.84
7.51	-28.94	-59.35	-33.77	-42.6	-33.78	-42.58	-24.89	-19.29
7.61	-29.04	-60.1	-33.8	-43.06	-33.81	-42.9	-24.89	-19.53
7.71	-29.11	-61.02	-33.83	-43.47	-33.83	-43.41	-24.89	-19.78
7.81	-29.21	-61.95	-33.87	-43.68	-33.89	-43.8	-24.88	-19.96
7.91	-29.35	-62.8	-33.92	-44.18	-33.93	-44.05	-24.85	-20.21
8.01	-29.5	-63.99	-33.97	-44.52	-33.96	-44.47	-24.83	-20.55
8.11	-29.64	-64.95	-33.99	-44.77	-33.99	-44.73	-24.84	-21.06
8.21	-29.81	-66.06	-34.04	-45.25	-34.03	-45.09	-24.84	-21.53
8.31	-29.97	-67.09	-34.07	-45.47	-34.07	-45.48	-24.84	-21.94
8.41	-30.05	-68.14	-34.13	-45.78	-34.13	-45.7	-24.86	-22.29
8.51	-30.16	-69.45	-34.19	-45.99	-34.19	-45.84	-24.86	-22.67
8.61	-30.23	-70.87	-34.21	-46.05	-34.22	-45.92	-24.86	-23.06
8.71	-30.32	-72.49	-34.23	-46.19	-34.23	-46.08	-24.86	-23.41
8.81	-30.44	-74.17	-34.25	-46.4	-34.26	-46.29	-24.85	-23.82
8.91	-30.58	-75.71	-34.26	-46.53	-34.27	-46.49	-24.87	-24.34
9.01	-30.75	-77.11	-34.33	-46.73	-34.32	-46.64	-24.9	-24.77
9.11	-30.89	-78.6	-34.33	-46.75	-34.34	-46.68	-24.91	-25.11
9.21	-31.02	-79.95	-34.36	-46.76	-34.34	-46.7	-24.94	-25.48
9.31	-31.12	-81.23	-34.34	-46.93	-34.33	-46.79	-24.97	-25.78
9.41	-31.2	-82.79	-34.33	-47.02	-34.32	-47.01	-24.99	-26.12
9.51	-31.25	-84.35	-34.36	-47.09	-34.36	-46.97	-25.01	-26.41
9.61	-31.39	-86.11	-34.31	-47.17	-34.31	-47.04	-25.02	-26.66
9.71	-31.52	-87.82	-34.32	-47.25	-34.31	-47.2	-25.05	-26.88
9.81	-31.63	-89.37	-34.31	-47.39	-34.31	-47.33	-25.08	-27.19
9.91	-31.77	-90.48	-34.27	-47.66	-34.29	-47.58	-25.12	-27.42
10.01	-31.84	-91.77	-34.28	-47.77	-34.28	-47.67	-25.15	-27.61
10.11	-31.91	-93.11	-34.26	-47.69	-34.24	-47.72	-25.2	-27.75
10.21	-32.02	-94.78	-34.21	-47.81	-34.2	-47.71	-25.25	-27.82
10.31	-32.13	-96.61	-34.15	-48.09	-34.16	-47.96	-25.27	-27.88
10.41	-32.27	-98.5	-34.13	-48.27	-34.13	-48.16	-25.29	-27.74
10.51	-32.49	-100.52	-34.1	-48.39	-34.1	-48.32	-25.28	-27.84
10.61	-32.63	-102.79	-34.04	-48.86	-34.03	-48.64	-25.3	-27.91
10.71	-32.82	-104.61	-34	-49.17	-34	-49.04	-25.33	-28.04
10.81	-32.95	-106.58	-33.98	-49.54	-33.97	-49.46	-25.37	-28.01
10.91	-33.05	-109.15	-33.94	-49.89	-33.94	-49.72	-25.41	-28.01
11.01	-33.19	-111.42	-33.89	-50.17	-33.89	-49.92	-25.46	-27.74
11.11	-33.27	-113.72	-33.85	-50.52	-33.86	-50.44	-25.44	-27.68
11.21	-33.4	-116.06	-33.83	-50.95	-33.82	-50.93	-25.45	-27.62
11.31	-33.52	-117.71	-33.81	-51.26	-33.8	-51.21	-25.42	-27.6
11.41	-33.6	-120.12	-33.77	-51.62	-33.75	-51.53	-25.41	-27.85
11.51	-33.65	-121.69	-33.73	-51.97	-33.72	-51.8	-25.44	-27.84
11.61	-33.65	-123.74	-33.68	-52.41	-33.67	-52.22	-25.46	-27.88
11.71	-33.63	-126.23	-33.64	-52.65	-33.66	-52.67	-25.48	-27.86
11.81	-33.68	-129.12	-33.6	-53.16	-33.6	-53.1	-25.5	-27.59
11.91	-33.81	-131.92	-33.58	-53.75	-33.56	-53.56	-25.45	-27.27
12.01	-33.81	-134.1	-33.53	-54.14	-33.53	-54	-25.42	-27.54
12.11	-33.75	-135.77	-33.56	-54.74	-33.56	-54.69	-25.41	-27.39
12.21	-33.73	-137.82	-33.52	-54.74	-33.52	-54.7	-25.36	-27.61
12.31	-33.75	-139.95	-33.47	-55.1	-33.46	-55.11	-25.37	-27.81
12.41	-33.61	-142.27	-33.42	-55.83	-33.43	-55.66	-25.35	-28.06
12.51	-33.61	-145.31	-33.41	-56.17	-33.4	-56.04	-25.4	-28.07
12.61	-33.6	-147.68	-33.37	-56.59	-33.37	-56.48	-25.39	-27.83
12.71	-33.64	-151.01	-33.32	-57.07	-33.35	-57.03	-25.4	-27.63
12.81	-33.77	-153.99	-33.34	-57.31	-33.33	-57.28	-25.3	-27.2
12.91	-33.94	-156.24	-33.25	-57.84	-33.25	-57.85	-25.26	-27.45
13.01	-33.9	-158.28	-33.29	-58.26	-33.27	-58.17	-25.18	-27.3
13.11	-33.92	-160.65	-33.24	-58.8	-33.24	-58.59	-25.15	-27.82
13.21	-33.81	-162.46	-33.28	-58.69	-33.27	-58.51	-25.15	-28.02
13.31	-33.55	-165.4	-33.14	-59.12	-33.14	-58.97	-25.18	-27.79
13.41	-33.42	-168.11	-33.08	-59.31	-33.09	-59.35	-25.13	-27.74
13.51	-33.26	-171.14	-33.03	-60.19	-33.04	-60.1	-25.14	-27.98
13.61	-33.15	-173.48	-33.01	-60.63	-33.03	-60.6	-25.07	-27.92
13.71	-33.15	-175.82	-32.96	-61.04	-32.95	-60.97	-25.06	-27.96
13.81	-33.07	-177.02	-32.91	-61.46	-32.91	-61.47	-25.01	-28.09
13.91	-32.88	-178.78	-32.88	-62.03	-32.87	-61.95	-25	-28.45
14.01	-32.64	-179.98	-32.85	-62.86	-32.84	-62.71	-24.97	-28.59
14.11	-32.33	177.64	-32.82	-63.27	-32.84	-63.05	-25.02	-28.64
14.21	-32.11	175.32	-32.79	-63.27	-32.82	-63.09	-24.99	-28.44
14.31	-31.96	172	-32.67	-63.82	-32.69	-63.7	-24.95	-28.45
14.41	-31.93	170.26	-32.64	-64.68	-32.66	-64.58	-24.92	-28.27
14.51	-31.84	167.94	-32.64	-65.13	-32.65	-65.04	-24.84	-28.55
14.61	-31.85	166.75	-32.63	-65.58	-32.6	-65.52	-24.79	-28.88
14.71	-31.7	166.22	-32.54	-66.24	-32.52	-65.85	-24.75	-29.43
14.81	-31.54	165.68	-32.53	-66.82	-32.52	-66.71	-24.76	-29.68
14.91	-31.28	164.95	-32.53	-67.44	-32.52	-67.21	-24.77	-29.77
15.01	-31.03	162.51	-32.47	-67.47	-32.5	-67.29	-24.74	-29.48
15.11	-30.9	160.14	-32.43	-67.94	-32.43	-67.82	-24.69	-29.86
15.21	-30.87	157.91	-32.36	-68.54	-32.37	-68.59	-24.61	-29.77
15.31	-30.93	155.94	-32.35	-69.25	-32.34	-69.11	-24.56	-30.3
15.41	-30.88	154.99	-32.33	-69.25	-32.33	-69.08	-24.56	-30.34
15.51	-30.75	154.4	-32.26	-69.63	-32.23	-69.49	-24.51	-30.65
15.61	-30.4	153.5	-32.2	-70.15	-32.19	-70.02	-24.51	-31.02
15.71	-30.05	152.08	-32.11	-70.96	-32.12	-70.76	-24.54	-31.1
15.81	-29.77	150.21	-32.13	-71.48	-32.13	-71.37	-24.53	-31.17
15.91	-29.52	147.95	-32.08	-71.8	-32.09	-71.7	-24.47	-31.37
16.01	-29.47	145.21	-32	-72.05	-32.02	-72.02	-24.45	-31.8
16.11	-29.45	143.53	-31.94	-72.11	-31.93	-72.15	-24.42	-32.13
16.21	-29.46	142.49	-31.82	-72.9	-31.78	-72.79	-24.47	-32.75
16.31	-29.41	142.79	-31.75	-73.73	-31.73	-73.44	-24.46	-32.65
16.41	-29.15	142.34	-31.68	-74.26	-31.65	-73.95	-24.47	-33.01
16.51	-28.83	141.01	-31.63	-75.06	-31.6	-74.83	-24.45	-33.42
16.61	-28.69	139.16	-31.55	-75.65	-31.52	-75.52	-24.48	-33.81
16.71	-28.61	137.65	-31.46	-76.22	-31.44	-76.24	-24.65	-34.28
16.81	-28.57	136.44	-31.46	-76.76	-31.44	-76.78	-24.69	-33.22
16.91	-28.62	135.26	-31.36	-76.93	-31.29	-76.92	-24.76	-32.48
17.01	-28.66	136.42	-31.24	-77.98	-31.18	-78.04	-24.53	-31.41
17.11	-28.43	136.79	-31.2	-78.72	-31.12	-78.85	-24.22	-31.19
17.21	-28.13	136.45	-31.13	-79.4	-31.07	-79.65	-23.91	-34.82
17.31	-27.82	134.95	-31.08	-79.6	-31.05	-79.97	-24.31	-37.41
17.41	-27.72	132.87	-30.88	-80.38	-30.91	-80.76	-25.01	-37.57
17.51	-27.71	131.34	-30.78	-81.74	-30.81	-82.14	-25.18	-32.73
17.61	-27.76	129.72	-30.7	-81.77	-30.73	-82.39	-24.75	-29.81
17.71	-27.89	128.95	-30.53	-83.36	-30.6	-83.55	-24.18	-31.42
17.81	-27.85	129.1	-30.49	-84.28	-30.52	-84.55	-24.09	-34.16
17.91	-27.74	128.91	-30.43	-85.65	-30.46	-85.44	-24.49	-36.01
18.01	-27.39	127.9	-30.34	-86.48	-30.38	-86.45	-24.85	-34.7
18.11	-27.26	125.78	-30.28	-87.4	-30.32	-87.07	-24.88	-31.9
18.21	-27.23	124.55	-30.18	-88.84	-30.23	-88.57	-24.64	-30.95
18.31	-27.15	123.46	-30.14	-89.94	-30.19	-89.84	-24.43	-30.22
18.41	-27.21	122.86	-30.08	-90.56	-30.12	-90.52	-24.24	-32.3
18.51	-27.26	123.2	-29.98	-92.2	-29.99	-92.24	-24.34	-32.47
18.61	-27.11	123.65	-30.02	-93.32	-30.02	-93.02	-24.43	-33.42
18.71	-27.05	124.35	-29.93	-94.25	-29.93	-93.98	-24.58	-33.04
18.81	-26.79	123.8	-29.78	-95.35	-29.81	-94.96	-24.67	-32.52
18.91	-26.69	122.49	-29.7	-96.68	-29.71	-96.4	-24.74	-31.14
19.01	-26.65	121.89	-29.65	-98.31	-29.68	-98.13	-24.58	-30.24
19.11	-26.61	121.81	-29.7	-99.69	-29.71	-99.55	-24.49	-30.13
19.21	-26.64	121.52	-29.65	-100.26	-29.63	-99.97	-24.41	-30.79
19.31	-26.6	121.95	-29.45	-102.06	-29.44	-101.95	-24.61	-30.8
19.41	-26.41	122.67	-29.57	-104.31	-29.57	-104.06	-24.61	-29.17
19.51	-26.31	122.56	-29.55	-105.5	-29.54	-105.21	-24.56	-28.05
19.61	-26.08	121.8	-29.6	-106.45	-29.61	-106.17	-24.31	-28.07
19.71	-26.02	120.92	-29.55	-107.14	-29.54	-106.94	-24.36	-28.47
19.81	-26.18	119.8	-29.28	-108.91	-29.29	-108.85	-24.32	-28
19.91	-26.25	120.37	-29.38	-111.37	-29.38	-111.21	-24.25	-27.12
20.01	-26.29	121.93	-29.49	-113.36	-29.46	-113.19	-24.07	-26.35