!s2p File: Measurements: S11, S21, S12, S22								
# GHz S dB R 50.0								
0.01	-14.88	-1.33	-3.81	-0.42	-3.8	-0.42	-19.73	-2.02
0.11	-15.35	-2.42	-3.93	-1.54	-3.93	-1.53	-20.57	-4.86
0.21	-15.47	-2.55	-3.96	-2.38	-3.96	-2.38	-20.83	-5.14
0.31	-15.51	-2.84	-3.98	-3.26	-3.97	-3.26	-20.91	-5.68
0.41	-15.53	-3.2	-3.98	-4.18	-3.98	-4.17	-20.96	-6.46
0.51	-15.54	-3.68	-3.99	-5.11	-3.98	-5.1	-20.98	-7.4
0.61	-15.55	-4.12	-3.99	-6.04	-3.99	-6.04	-21	-8.38
0.71	-15.54	-4.66	-3.99	-6.99	-3.99	-6.98	-21.01	-9.42
0.81	-15.54	-5.16	-4	-7.94	-3.99	-7.93	-21.02	-10.52
0.91	-15.54	-5.7	-4	-8.88	-4	-8.87	-21.03	-11.6
1.01	-15.54	-6.24	-4	-9.83	-4	-9.83	-21.04	-12.72
1.11	-15.54	-6.82	-4.01	-10.78	-4	-10.78	-21.05	-13.86
1.21	-15.54	-7.39	-4.01	-11.73	-4.01	-11.72	-21.06	-15.02
1.31	-15.53	-8.01	-4.01	-12.69	-4.01	-12.68	-21.07	-16.22
1.41	-15.53	-8.62	-4.02	-13.64	-4.01	-13.64	-21.09	-17.47
1.51	-15.53	-9.24	-4.02	-14.6	-4.02	-14.59	-21.11	-18.58
1.61	-15.53	-9.83	-4.03	-15.54	-4.02	-15.55	-21.13	-19.77
1.71	-15.51	-10.46	-4.03	-16.5	-4.03	-16.49	-21.14	-20.99
1.81	-15.51	-11.16	-4.04	-17.44	-4.03	-17.44	-21.15	-22.3
1.91	-15.5	-11.8	-4.04	-18.39	-4.04	-18.39	-21.17	-23.53
2.01	-15.5	-12.47	-4.05	-19.36	-4.04	-19.35	-21.2	-24.82
2.11	-15.49	-13.1	-4.05	-20.3	-4.05	-20.29	-21.23	-26.06
2.21	-15.49	-13.74	-4.06	-21.25	-4.05	-21.25	-21.26	-27.3
2.31	-15.49	-14.39	-4.06	-22.2	-4.06	-22.2	-21.29	-28.49
2.41	-15.48	-15.03	-4.07	-23.14	-4.06	-23.14	-21.32	-29.74
2.51	-15.48	-15.66	-4.07	-24.09	-4.07	-24.09	-21.35	-30.94
2.61	-15.48	-16.3	-4.08	-25.03	-4.08	-25.03	-21.38	-32.19
2.71	-15.48	-16.89	-4.09	-25.98	-4.08	-25.97	-21.42	-33.38
2.81	-15.48	-17.49	-4.09	-26.92	-4.09	-26.92	-21.46	-34.63
2.91	-15.48	-18.11	-4.1	-27.87	-4.09	-27.86	-21.5	-35.8
3.01	-15.48	-18.74	-4.1	-28.81	-4.1	-28.8	-21.54	-36.99
3.11	-15.47	-19.4	-4.11	-29.75	-4.1	-29.75	-21.57	-38.22
3.21	-15.48	-20.05	-4.11	-30.69	-4.11	-30.7	-21.61	-39.46
3.31	-15.48	-20.71	-4.12	-31.65	-4.12	-31.64	-21.66	-40.73
3.41	-15.49	-21.36	-4.13	-32.58	-4.12	-32.58	-21.7	-41.98
3.51	-15.48	-22.03	-4.13	-33.52	-4.13	-33.53	-21.75	-43.2
3.61	-15.48	-22.69	-4.14	-34.45	-4.14	-34.47	-21.8	-44.39
3.71	-15.48	-23.37	-4.15	-35.4	-4.15	-35.42	-21.84	-45.69
3.81	-15.48	-24.1	-4.16	-36.35	-4.15	-36.36	-21.88	-46.99
3.91	-15.49	-24.77	-4.16	-37.29	-4.16	-37.31	-21.95	-48.37
4.01	-15.5	-25.41	-4.17	-38.25	-4.17	-38.25	-22	-49.63
4.11	-15.49	-26.09	-4.17	-39.2	-4.17	-39.19	-22.07	-50.9
4.21	-15.49	-26.77	-4.18	-40.13	-4.18	-40.13	-22.12	-52.09
4.31	-15.49	-27.5	-4.19	-41.05	-4.19	-41.08	-22.16	-53.36
4.41	-15.49	-28.28	-4.19	-41.99	-4.2	-42.01	-22.2	-54.61
4.51	-15.5	-28.95	-4.21	-42.93	-4.21	-42.97	-22.26	-56.05
4.61	-15.51	-29.63	-4.22	-43.89	-4.21	-43.92	-22.33	-57.33
4.71	-15.5	-30.23	-4.22	-44.85	-4.22	-44.85	-22.41	-58.67
4.81	-15.49	-30.91	-4.23	-45.81	-4.23	-45.79	-22.49	-59.88
4.91	-15.48	-31.61	-4.24	-46.74	-4.24	-46.73	-22.55	-61.08
5.01	-15.48	-32.34	-4.24	-47.66	-4.25	-47.66	-22.61	-62.24
5.11	-15.48	-33.06	-4.26	-48.6	-4.26	-48.59	-22.66	-63.52
5.21	-15.49	-33.74	-4.26	-49.53	-4.27	-49.54	-22.73	-64.81
5.31	-15.5	-34.38	-4.28	-50.49	-4.28	-50.49	-22.79	-66.21
5.41	-15.5	-35.02	-4.29	-51.44	-4.29	-51.43	-22.89	-67.53
5.51	-15.49	-35.63	-4.3	-52.38	-4.29	-52.37	-22.97	-68.8
5.61	-15.49	-36.38	-4.3	-53.33	-4.31	-53.31	-23.05	-69.93
5.71	-15.49	-37.08	-4.31	-54.28	-4.31	-54.25	-23.12	-71.17
5.81	-15.5	-37.86	-4.32	-55.19	-4.33	-55.19	-23.19	-72.37
5.91	-15.51	-38.55	-4.34	-56.14	-4.34	-56.13	-23.24	-73.7
6.01	-15.52	-39.27	-4.34	-57.08	-4.35	-57.08	-23.31	-75.14
6.11	-15.53	-39.93	-4.36	-58.04	-4.36	-58.02	-23.37	-76.48
6.21	-15.52	-40.65	-4.37	-58.96	-4.37	-58.96	-23.47	-77.81
6.31	-15.51	-41.36	-4.38	-59.89	-4.38	-59.89	-23.54	-79
6.41	-15.5	-42.15	-4.39	-60.82	-4.39	-60.83	-23.63	-80.37
6.51	-15.5	-42.96	-4.4	-61.74	-4.41	-61.77	-23.71	-81.62
6.61	-15.51	-43.74	-4.42	-62.7	-4.42	-62.69	-23.79	-83.02
6.71	-15.51	-44.52	-4.43	-63.64	-4.43	-63.63	-23.86	-84.39
6.81	-15.5	-45.26	-4.44	-64.57	-4.44	-64.55	-23.94	-85.91
6.91	-15.5	-46.06	-4.45	-65.49	-4.46	-65.48	-24.02	-87.39
7.01	-15.5	-46.86	-4.46	-66.41	-4.47	-66.43	-24.12	-88.74
7.11	-15.49	-47.67	-4.48	-67.31	-4.48	-67.35	-24.2	-90.06
7.21	-15.49	-48.51	-4.49	-68.27	-4.5	-68.3	-24.3	-91.32
7.31	-15.49	-49.25	-4.51	-69.24	-4.51	-69.24	-24.34	-92.51
7.41	-15.48	-50.07	-4.52	-70.17	-4.52	-70.15	-24.36	-93.93
7.51	-15.48	-50.9	-4.54	-71.09	-4.54	-71.08	-24.44	-95.58
7.61	-15.47	-51.7	-4.55	-72.03	-4.55	-72	-24.54	-97.11
7.71	-15.47	-52.52	-4.56	-72.92	-4.57	-72.91	-24.62	-98.63
7.81	-15.45	-53.36	-4.57	-73.78	-4.59	-73.84	-24.7	-100.11
7.91	-15.46	-54.2	-4.59	-74.75	-4.6	-74.77	-24.78	-101.37
8.01	-15.47	-55.15	-4.61	-75.66	-4.62	-75.68	-24.83	-102.99
8.11	-15.49	-56.02	-4.63	-76.58	-4.63	-76.58	-24.9	-104.56
8.21	-15.5	-56.93	-4.65	-77.49	-4.65	-77.5	-24.93	-106.18
8.31	-15.5	-57.8	-4.65	-78.43	-4.66	-78.4	-24.99	-107.9
8.41	-15.5	-58.74	-4.67	-79.29	-4.68	-79.29	-25.03	-109.58
8.51	-15.51	-59.72	-4.68	-80.2	-4.7	-80.19	-25.09	-111.47
8.61	-15.51	-60.75	-4.71	-81.1	-4.72	-81.09	-25.13	-113.3
8.71	-15.53	-61.85	-4.72	-82.02	-4.73	-81.95	-25.19	-115.1
8.81	-15.54	-62.82	-4.74	-82.89	-4.75	-82.85	-25.24	-116.93
8.91	-15.57	-63.86	-4.76	-83.76	-4.76	-83.75	-25.28	-118.86
9.01	-15.59	-64.85	-4.77	-84.67	-4.78	-84.59	-25.31	-120.94
9.11	-15.61	-65.85	-4.78	-85.5	-4.79	-85.47	-25.37	-123.06
9.21	-15.63	-66.86	-4.8	-86.39	-4.8	-86.37	-25.45	-125.2
9.31	-15.66	-67.87	-4.81	-87.29	-4.81	-87.24	-25.5	-127.39
9.41	-15.68	-68.85	-4.82	-88.16	-4.83	-88.12	-25.55	-129.52
9.51	-15.71	-69.85	-4.84	-89.04	-4.84	-89.01	-25.62	-131.78
9.61	-15.74	-70.85	-4.85	-89.93	-4.85	-89.88	-25.7	-133.95
9.71	-15.77	-71.86	-4.86	-90.79	-4.87	-90.75	-25.76	-136.25
9.81	-15.8	-72.82	-4.87	-91.63	-4.87	-91.65	-25.85	-138.64
9.91	-15.84	-73.71	-4.88	-92.55	-4.89	-92.51	-25.91	-140.98
10.01	-15.86	-74.66	-4.88	-93.44	-4.9	-93.38	-25.95	-143.33
10.11	-15.89	-75.57	-4.9	-94.34	-4.91	-94.26	-26.03	-145.89
10.21	-15.93	-76.52	-4.91	-95.17	-4.91	-95.16	-26.09	-148.56
10.31	-15.98	-77.47	-4.92	-96.08	-4.93	-96.03	-26.18	-150.91
10.41	-16.01	-78.36	-4.93	-96.95	-4.94	-96.93	-26.29	-153.4
10.51	-16.07	-79.29	-4.94	-97.82	-4.94	-97.83	-26.37	-155.86
10.61	-16.11	-80.25	-4.95	-98.74	-4.95	-98.73	-26.44	-158.47
10.71	-16.16	-81.12	-4.95	-99.68	-4.97	-99.6	-26.48	-160.78
10.81	-16.2	-82.04	-4.96	-100.59	-4.97	-100.49	-26.51	-163.48
10.91	-16.24	-83.07	-4.97	-101.49	-4.98	-101.4	-26.53	-166.16
11.01	-16.3	-83.98	-4.98	-102.4	-5	-102.32	-26.58	-169.05
11.11	-16.33	-84.83	-4.99	-103.27	-5.01	-103.23	-26.65	-171.55
11.21	-16.38	-85.74	-5.01	-104.15	-5.01	-104.16	-26.68	-174.34
11.31	-16.41	-86.58	-5.02	-105.05	-5.02	-105.06	-26.73	-176.82
11.41	-16.45	-87.52	-5.02	-106	-5.03	-105.96	-26.76	-179.39
11.51	-16.48	-88.39	-5.04	-106.95	-5.04	-106.82	-26.76	177.91
11.61	-16.51	-89.27	-5.05	-107.83	-5.05	-107.72	-26.76	175.26
11.71	-16.54	-90.18	-5.04	-108.73	-5.08	-108.66	-26.75	172.85
11.81	-16.58	-91.14	-5.06	-109.63	-5.09	-109.54	-26.73	169.92
11.91	-16.63	-91.98	-5.08	-110.52	-5.09	-110.48	-26.78	167.07
12.01	-16.65	-92.89	-5.09	-111.39	-5.1	-111.43	-26.82	164.64
12.11	-16.67	-93.72	-5.11	-112.35	-5.11	-112.31	-26.79	162.22
12.21	-16.68	-94.58	-5.13	-113.25	-5.12	-113.21	-26.75	159.63
12.31	-16.71	-95.48	-5.13	-114.24	-5.14	-114.13	-26.74	157.24
12.41	-16.73	-96.5	-5.13	-115.2	-5.15	-114.99	-26.69	155.11
12.51	-16.77	-97.5	-5.15	-116.09	-5.17	-115.91	-26.58	152.49
12.61	-16.8	-98.45	-5.16	-116.94	-5.18	-116.83	-26.54	149.91
12.71	-16.85	-99.35	-5.16	-117.83	-5.19	-117.77	-26.52	147.39
12.81	-16.9	-100.12	-5.18	-118.72	-5.2	-118.72	-26.48	144.43
12.91	-16.94	-100.95	-5.21	-119.64	-5.21	-119.6	-26.47	142.22
13.01	-16.96	-101.95	-5.21	-120.61	-5.22	-120.53	-26.42	139.55
13.11	-17.01	-102.79	-5.23	-121.58	-5.23	-121.47	-26.36	137.54
13.21	-17.01	-103.72	-5.26	-122.49	-5.27	-122.29	-26.22	135.49
13.31	-17.05	-104.87	-5.25	-123.36	-5.27	-123.18	-26.1	132.76
13.41	-17.07	-105.98	-5.26	-124.27	-5.29	-124.17	-26.06	130.38
13.51	-17.13	-107.04	-5.28	-125.17	-5.31	-125.06	-25.97	128.76
13.61	-17.14	-107.98	-5.29	-126.01	-5.31	-125.96	-25.89	126.25
13.71	-17.18	-109.09	-5.3	-126.94	-5.31	-126.89	-25.75	123.86
13.81	-17.21	-110	-5.33	-127.91	-5.34	-127.85	-25.71	121.79
13.91	-17.26	-110.95	-5.35	-128.88	-5.35	-128.67	-25.61	120
14.01	-17.27	-111.96	-5.36	-129.79	-5.36	-129.61	-25.52	117.91
14.11	-17.28	-113.1	-5.37	-130.7	-5.39	-130.5	-25.35	116.26
14.21	-17.32	-114.21	-5.38	-131.64	-5.41	-131.42	-25.19	114.18
14.31	-17.38	-115.35	-5.4	-132.49	-5.42	-132.35	-25.12	111.84
14.41	-17.42	-116.05	-5.41	-133.36	-5.43	-133.27	-25.03	109.84
14.51	-17.43	-117.03	-5.43	-134.33	-5.44	-134.2	-24.91	108.01
14.61	-17.44	-117.94	-5.46	-135.25	-5.46	-135.1	-24.84	106.05
14.71	-17.46	-119.04	-5.48	-136.16	-5.47	-135.94	-24.77	104.27
14.81	-17.47	-119.94	-5.49	-137.12	-5.49	-136.85	-24.65	102.77
14.91	-17.45	-121.09	-5.51	-138.04	-5.52	-137.78	-24.52	101.19
15.01	-17.5	-122.28	-5.51	-138.9	-5.53	-138.65	-24.35	99.26
15.11	-17.54	-123.44	-5.53	-139.8	-5.54	-139.63	-24.3	97.41
15.21	-17.6	-124.14	-5.55	-140.67	-5.56	-140.56	-24.22	95.49
15.31	-17.63	-124.98	-5.58	-141.58	-5.57	-141.43	-24.11	93.91
15.41	-17.63	-126.02	-5.6	-142.49	-5.59	-142.32	-23.98	92.2
15.51	-17.63	-127.09	-5.62	-143.39	-5.61	-143.19	-23.92	90.56
15.61	-17.65	-128.6	-5.64	-144.35	-5.64	-144.09	-23.8	89.3
15.71	-17.7	-129.91	-5.64	-145.26	-5.65	-144.94	-23.65	88.04
15.81	-17.75	-131.06	-5.66	-146.12	-5.67	-145.88	-23.54	86.63
15.91	-17.77	-132.11	-5.68	-147	-5.69	-146.83	-23.44	85.16
16.01	-17.83	-133.25	-5.7	-147.86	-5.71	-147.73	-23.34	83.65
16.11	-17.84	-134.38	-5.72	-148.69	-5.72	-148.59	-23.22	82.29
16.21	-17.88	-135.45	-5.76	-149.63	-5.73	-149.48	-23.13	81
16.31	-17.88	-136.43	-5.77	-150.51	-5.76	-150.27	-22.99	79.51
16.41	-17.89	-137.72	-5.78	-151.38	-5.77	-151.09	-22.9	78.26
16.51	-17.91	-139.11	-5.8	-152.32	-5.79	-152.05	-22.81	77.18
16.61	-17.98	-140.38	-5.82	-153.23	-5.81	-152.96	-22.72	76.12
16.71	-18.01	-141.52	-5.84	-153.98	-5.83	-153.84	-22.59	75.35
16.81	-18.05	-142.31	-5.85	-154.88	-5.84	-154.77	-22.38	73.95
16.91	-18.07	-143.4	-5.89	-155.72	-5.85	-155.61	-22.19	72.72
17.01	-18.07	-144.18	-5.9	-156.5	-5.87	-156.42	-22	70.53
17.11	-18.04	-145.26	-5.93	-157.34	-5.88	-157.26	-21.94	68.03
17.21	-18.05	-146.72	-5.94	-158.12	-5.9	-158.14	-22.16	66.46
17.31	-18.09	-148.23	-5.94	-158.98	-5.92	-159.08	-22.18	67.15
17.41	-18.16	-149.58	-5.92	-159.75	-5.94	-159.96	-21.97	68.36
17.51	-18.22	-150.53	-5.92	-160.71	-5.94	-160.88	-21.48	66.99
17.61	-18.29	-151.49	-5.92	-161.48	-5.95	-161.77	-21.21	64.42
17.71	-18.34	-152.23	-5.92	-162.56	-5.96	-162.61	-21.2	61.26
17.81	-18.32	-153.05	-5.95	-163.46	-5.97	-163.47	-21.29	59.93
17.91	-18.33	-154.09	-5.96	-164.54	-6	-164.35	-21.24	59.98
18.01	-18.38	-155.65	-5.98	-165.51	-6.02	-165.24	-21.03	59.64
18.11	-18.46	-156.79	-6	-166.45	-6.03	-166.12	-20.75	58.57
18.21	-18.5	-158.05	-6.01	-167.28	-6.04	-167.05	-20.61	56.56
18.31	-18.53	-159.14	-6.01	-168.18	-6.04	-167.95	-20.49	54.97
18.41	-18.57	-160.23	-6.04	-169.06	-6.06	-168.89	-20.5	53.19
18.51	-18.57	-161.35	-6.06	-169.92	-6.07	-169.71	-20.43	52.29
18.61	-18.57	-162.07	-6.09	-170.88	-6.09	-170.58	-20.41	51.23
18.71	-18.53	-163.21	-6.1	-171.77	-6.1	-171.49	-20.33	50.59
18.81	-18.55	-164.65	-6.11	-172.73	-6.12	-172.41	-20.19	49.98
18.91	-18.6	-165.84	-6.13	-173.67	-6.13	-173.34	-20.01	49.08
19.01	-18.66	-167.02	-6.13	-174.53	-6.15	-174.3	-19.91	47.52
19.11	-18.67	-167.89	-6.15	-175.36	-6.16	-175.19	-19.86	46.37
19.21	-18.69	-168.75	-6.18	-176.29	-6.17	-176.05	-19.78	45.24
19.31	-18.66	-169.95	-6.19	-177.15	-6.18	-176.96	-19.7	44.39
19.41	-18.65	-170.95	-6.21	-178.13	-6.2	-177.9	-19.55	43.39
19.51	-18.64	-172.18	-6.24	-179.1	-6.22	-178.8	-19.43	42.2
19.61	-18.72	-173.53	-6.25	179.97	-6.25	-179.72	-19.37	40.89
19.71	-18.74	-174.5	-6.25	179.08	-6.26	179.37	-19.31	40.06
19.81	-18.83	-175.5	-6.27	178.23	-6.27	178.43	-19.25	38.71
19.91	-18.85	-175.97	-6.28	177.34	-6.28	177.53	-19.18	37.9
20.01	-18.85	-176.86	-6.31	176.46	-6.29	176.67	-19.07	36.59