!s2p File: Measurements: S11, S21, S12, S22								
# GHz S dB R 50.0								
0.01	-16.22	-1.27	-5.76	-0.36	-5.75	-0.38	-30.35	-4.19
0.11	-16.71	-2.32	-5.87	-1.53	-5.87	-1.53	-32.62	-12.82
0.21	-16.84	-2.27	-5.91	-2.35	-5.91	-2.35	-33.59	-11.31
0.31	-16.87	-2.38	-5.92	-3.22	-5.92	-3.22	-33.92	-9.81
0.41	-16.9	-2.57	-5.93	-4.11	-5.92	-4.11	-34.11	-9.24
0.51	-16.9	-2.84	-5.93	-5.02	-5.93	-5.02	-34.21	-9.03
0.61	-16.9	-3.12	-5.94	-5.95	-5.93	-5.94	-34.3	-9.07
0.71	-16.89	-3.48	-5.94	-6.87	-5.93	-6.87	-34.32	-9.4
0.81	-16.89	-3.82	-5.94	-7.81	-5.94	-7.8	-34.37	-9.77
0.91	-16.88	-4.2	-5.94	-8.73	-5.94	-8.73	-34.42	-10.23
1.01	-16.88	-4.57	-5.95	-9.67	-5.94	-9.67	-34.46	-10.65
1.11	-16.87	-4.98	-5.95	-10.6	-5.95	-10.6	-34.46	-11.31
1.21	-16.86	-5.39	-5.96	-11.53	-5.95	-11.52	-34.52	-11.98
1.31	-16.85	-5.86	-5.96	-12.47	-5.96	-12.47	-34.55	-12.79
1.41	-16.84	-6.33	-5.96	-13.42	-5.96	-13.41	-34.63	-13.69
1.51	-16.83	-6.79	-5.97	-14.35	-5.96	-14.34	-34.7	-14.39
1.61	-16.82	-7.23	-5.97	-15.29	-5.97	-15.29	-34.77	-15
1.71	-16.8	-7.75	-5.97	-16.22	-5.97	-16.22	-34.79	-15.89
1.81	-16.78	-8.29	-5.98	-17.15	-5.98	-17.15	-34.85	-17.12
1.91	-16.77	-8.8	-5.98	-18.08	-5.98	-18.09	-34.92	-18.19
2.01	-16.76	-9.3	-5.99	-19.03	-5.99	-19.02	-35.05	-19.34
2.11	-16.74	-9.81	-5.99	-19.96	-5.99	-19.95	-35.14	-20.32
2.21	-16.73	-10.34	-6	-20.9	-6	-20.89	-35.26	-21.17
2.31	-16.71	-10.84	-6	-21.82	-6	-21.82	-35.38	-22.05
2.41	-16.7	-11.36	-6.01	-22.75	-6.01	-22.75	-35.49	-22.89
2.51	-16.69	-11.85	-6.01	-23.68	-6.01	-23.68	-35.63	-23.75
2.61	-16.68	-12.35	-6.02	-24.61	-6.02	-24.61	-35.79	-24.79
2.71	-16.67	-12.81	-6.03	-25.54	-6.02	-25.54	-35.94	-25.44
2.81	-16.66	-13.27	-6.03	-26.47	-6.03	-26.47	-36.11	-26.34
2.91	-16.64	-13.76	-6.04	-27.39	-6.03	-27.39	-36.3	-27
3.01	-16.63	-14.28	-6.04	-28.32	-6.04	-28.32	-36.46	-27.65
3.11	-16.61	-14.82	-6.05	-29.25	-6.05	-29.25	-36.65	-28.55
3.21	-16.61	-15.36	-6.05	-30.17	-6.05	-30.18	-36.8	-29.37
3.31	-16.59	-15.9	-6.06	-31.12	-6.06	-31.11	-37.05	-30.31
3.41	-16.58	-16.44	-6.06	-32.04	-6.06	-32.04	-37.25	-31.19
3.51	-16.56	-16.97	-6.07	-32.96	-6.07	-32.96	-37.51	-31.78
3.61	-16.55	-17.55	-6.08	-33.88	-6.08	-33.9	-37.73	-32.6
3.71	-16.54	-18.13	-6.08	-34.81	-6.08	-34.83	-37.96	-33.55
3.81	-16.53	-18.74	-6.09	-35.74	-6.09	-35.76	-38.24	-34.82
3.91	-16.52	-19.31	-6.1	-36.68	-6.1	-36.69	-38.58	-36.35
4.01	-16.52	-19.85	-6.1	-37.62	-6.1	-37.62	-38.94	-36.97
4.11	-16.49	-20.41	-6.11	-38.56	-6.11	-38.55	-39.32	-37.79
4.21	-16.48	-21.01	-6.11	-39.47	-6.12	-39.47	-39.64	-37.98
4.31	-16.47	-21.66	-6.12	-40.38	-6.12	-40.4	-39.91	-39.06
4.41	-16.46	-22.31	-6.13	-41.31	-6.13	-41.32	-40.18	-39.92
4.51	-16.45	-22.89	-6.14	-42.23	-6.14	-42.25	-40.62	-41.82
4.61	-16.44	-23.44	-6.15	-43.17	-6.15	-43.19	-41.13	-42.74
4.71	-16.42	-23.99	-6.15	-44.12	-6.16	-44.11	-41.78	-43.46
4.81	-16.39	-24.59	-6.16	-45.06	-6.16	-45.04	-42.4	-43.46
4.91	-16.37	-25.23	-6.17	-45.98	-6.17	-45.96	-42.92	-42.99
5.01	-16.35	-25.9	-6.17	-46.9	-6.18	-46.88	-43.38	-42.66
5.11	-16.34	-26.52	-6.18	-47.8	-6.19	-47.81	-43.84	-43.99
5.21	-16.34	-27.11	-6.19	-48.73	-6.2	-48.74	-44.51	-43.74
5.31	-16.33	-27.68	-6.2	-49.68	-6.21	-49.67	-45.34	-45.3
5.41	-16.32	-28.23	-6.21	-50.61	-6.21	-50.6	-46.45	-45.35
5.51	-16.3	-28.79	-6.22	-51.53	-6.22	-51.52	-47.64	-43.63
5.61	-16.28	-29.45	-6.23	-52.47	-6.23	-52.46	-48.85	-39.71
5.71	-16.27	-30.09	-6.24	-53.41	-6.24	-53.39	-49.9	-37.25
5.81	-16.26	-30.79	-6.25	-54.32	-6.25	-54.31	-50.87	-32.13
5.91	-16.26	-31.4	-6.26	-55.24	-6.26	-55.24	-52.02	-31.49
6.01	-16.25	-32.05	-6.27	-56.18	-6.27	-56.17	-53.74	-29.7
6.11	-16.24	-32.64	-6.28	-57.11	-6.28	-57.1	-56.02	-22.95
6.21	-16.22	-33.3	-6.3	-58.02	-6.3	-58.03	-58.67	-1.87
6.31	-16.2	-33.97	-6.3	-58.95	-6.31	-58.94	-58.79	21.65
6.41	-16.18	-34.7	-6.32	-59.86	-6.32	-59.87	-57.86	50.33
6.51	-16.16	-35.43	-6.33	-60.76	-6.33	-60.79	-55.68	64.15
6.61	-16.16	-36.17	-6.34	-61.72	-6.34	-61.71	-54.04	75.69
6.71	-16.14	-36.87	-6.35	-62.65	-6.35	-62.64	-52.46	82.96
6.81	-16.13	-37.56	-6.36	-63.57	-6.36	-63.55	-50.99	89.69
6.91	-16.11	-38.31	-6.37	-64.47	-6.38	-64.47	-49.49	94.96
7.01	-16.09	-39.05	-6.39	-65.38	-6.39	-65.39	-48.04	96.18
7.11	-16.07	-39.83	-6.4	-66.28	-6.4	-66.31	-47.03	96.4
7.21	-16.06	-40.58	-6.41	-67.22	-6.42	-67.24	-45.93	95.15
7.31	-16.04	-41.3	-6.43	-68.18	-6.43	-68.17	-45.52	93.66
7.41	-16.02	-42.05	-6.44	-69.1	-6.44	-69.08	-45.29	94.95
7.51	-16	-42.83	-6.46	-70	-6.46	-69.98	-44.59	97.43
7.61	-15.98	-43.58	-6.47	-70.93	-6.47	-70.89	-43.66	98.39
7.71	-15.96	-44.35	-6.48	-71.82	-6.49	-71.79	-42.94	98.51
7.81	-15.94	-45.15	-6.49	-72.67	-6.51	-72.72	-42.32	98.3
7.91	-15.94	-45.91	-6.51	-73.62	-6.52	-73.63	-41.82	97.38
8.01	-15.93	-46.76	-6.53	-74.52	-6.54	-74.53	-41.35	97.95
8.11	-15.93	-47.6	-6.55	-75.42	-6.55	-75.41	-40.97	98.5
8.21	-15.93	-48.42	-6.57	-76.32	-6.57	-76.32	-40.63	99.66
8.31	-15.93	-49.25	-6.57	-77.24	-6.58	-77.21	-40.17	100.46
8.41	-15.91	-50.13	-6.59	-78.1	-6.6	-78.08	-39.78	101.38
8.51	-15.91	-51.02	-6.6	-79	-6.62	-78.98	-39.33	102.49
8.61	-15.9	-52.02	-6.63	-79.88	-6.64	-79.85	-38.91	103.1
8.71	-15.9	-53.03	-6.64	-80.77	-6.65	-80.71	-38.44	103.47
8.81	-15.91	-53.94	-6.66	-81.62	-6.66	-81.59	-38.06	103.65
8.91	-15.92	-54.92	-6.67	-82.49	-6.68	-82.47	-37.67	104.45
9.01	-15.92	-55.8	-6.69	-83.38	-6.69	-83.3	-37.24	105.75
9.11	-15.93	-56.75	-6.7	-84.21	-6.71	-84.17	-36.72	105.8
9.21	-15.94	-57.7	-6.71	-85.07	-6.72	-85.05	-36.2	106.16
9.31	-15.95	-58.63	-6.73	-85.96	-6.73	-85.91	-35.73	106.29
9.41	-15.96	-59.57	-6.74	-86.81	-6.74	-86.76	-35.31	106.08
9.51	-15.97	-60.5	-6.75	-87.68	-6.76	-87.65	-34.82	105.98
9.61	-15.99	-61.45	-6.77	-88.55	-6.77	-88.49	-34.39	105.31
9.71	-16	-62.41	-6.77	-89.4	-6.78	-89.35	-33.94	104.91
9.81	-16.01	-63.27	-6.78	-90.23	-6.79	-90.23	-33.49	104.4
9.91	-16.03	-64.13	-6.79	-91.12	-6.8	-91.09	-33.07	103.94
10.01	-16.04	-65.02	-6.8	-92.01	-6.81	-91.94	-32.66	103.42
10.11	-16.05	-65.89	-6.81	-92.89	-6.82	-92.81	-32.2	102.77
10.21	-16.07	-66.79	-6.82	-93.71	-6.83	-93.69	-31.78	102.09
10.31	-16.09	-67.67	-6.83	-94.59	-6.84	-94.54	-31.43	101.05
10.41	-16.11	-68.54	-6.84	-95.45	-6.85	-95.43	-31.03	99.67
10.51	-16.15	-69.39	-6.85	-96.31	-6.86	-96.32	-30.68	98.56
10.61	-16.18	-70.3	-6.86	-97.22	-6.86	-97.2	-30.35	97.52
10.71	-16.21	-71.14	-6.86	-98.15	-6.87	-98.06	-30.08	96.55
10.81	-16.23	-72.01	-6.87	-99.04	-6.88	-98.95	-29.73	95.77
10.91	-16.25	-72.98	-6.88	-99.93	-6.89	-99.84	-29.41	95.1
11.01	-16.29	-73.83	-6.88	-100.83	-6.9	-100.74	-29.06	93.94
11.11	-16.31	-74.69	-6.89	-101.68	-6.91	-101.64	-28.79	92.75
11.21	-16.33	-75.56	-6.91	-102.56	-6.92	-102.55	-28.49	91.59
11.31	-16.35	-76.33	-6.92	-103.45	-6.92	-103.45	-28.24	90.37
11.41	-16.36	-77.24	-6.92	-104.38	-6.93	-104.34	-28.02	89.27
11.51	-16.38	-78.12	-6.94	-105.33	-6.94	-105.18	-27.76	88.3
11.61	-16.39	-78.97	-6.95	-106.19	-6.95	-106.08	-27.51	87.52
11.71	-16.4	-79.88	-6.94	-107.1	-6.97	-107.01	-27.3	86.47
11.81	-16.42	-80.82	-6.95	-107.98	-6.98	-107.88	-27.02	85.51
11.91	-16.46	-81.64	-6.98	-108.87	-6.99	-108.81	-26.78	84.01
12.01	-16.46	-82.53	-6.98	-109.73	-7	-109.75	-26.6	82.68
12.11	-16.46	-83.36	-7	-110.67	-7.01	-110.63	-26.4	81.73
12.21	-16.46	-84.22	-7.02	-111.58	-7.01	-111.52	-26.21	80.65
12.31	-16.47	-85.16	-7.03	-112.55	-7.03	-112.43	-26.05	79.65
12.41	-16.47	-86.17	-7.03	-113.51	-7.04	-113.29	-25.9	78.75
12.51	-16.5	-87.13	-7.05	-114.38	-7.06	-114.2	-25.69	78.06
12.61	-16.51	-88.02	-7.05	-115.22	-7.07	-115.11	-25.49	77.07
12.71	-16.55	-88.93	-7.06	-116.11	-7.08	-116.03	-25.29	75.91
12.81	-16.58	-89.7	-7.07	-117	-7.09	-116.98	-25.07	74.48
12.91	-16.6	-90.46	-7.1	-117.91	-7.1	-117.84	-24.94	73.29
13.01	-16.6	-91.45	-7.1	-118.87	-7.11	-118.77	-24.75	71.99
13.11	-16.63	-92.25	-7.12	-119.84	-7.12	-119.71	-24.65	71.08
13.21	-16.62	-93.21	-7.15	-120.73	-7.15	-120.51	-24.5	70.47
13.31	-16.65	-94.35	-7.14	-121.59	-7.16	-121.4	-24.28	69.58
13.41	-16.66	-95.41	-7.15	-122.49	-7.17	-122.38	-24.13	68.36
13.51	-16.7	-96.45	-7.17	-123.38	-7.19	-123.25	-24.04	67.58
13.61	-16.7	-97.37	-7.18	-124.23	-7.2	-124.16	-23.86	66.43
13.71	-16.72	-98.41	-7.19	-125.15	-7.2	-125.07	-23.69	65.56
13.81	-16.74	-99.35	-7.22	-126.11	-7.22	-126.02	-23.58	64.38
13.91	-16.75	-100.31	-7.24	-127.07	-7.24	-126.85	-23.47	63.58
14.01	-16.75	-101.37	-7.25	-127.99	-7.25	-127.78	-23.35	62.57
14.11	-16.76	-102.49	-7.25	-128.88	-7.27	-128.66	-23.22	62.12
14.21	-16.78	-103.6	-7.27	-129.81	-7.29	-129.57	-23.05	61.3
14.31	-16.84	-104.69	-7.28	-130.65	-7.3	-130.48	-22.91	60.16
14.41	-16.84	-105.4	-7.29	-131.52	-7.31	-131.41	-22.78	59.18
14.51	-16.86	-106.37	-7.32	-132.5	-7.33	-132.35	-22.66	58.18
14.61	-16.85	-107.27	-7.35	-133.41	-7.34	-133.23	-22.56	57.05
14.71	-16.84	-108.35	-7.36	-134.3	-7.36	-134.07	-22.47	56.07
14.81	-16.84	-109.35	-7.38	-135.26	-7.38	-134.98	-22.38	55.35
14.91	-16.82	-110.49	-7.4	-136.17	-7.4	-135.91	-22.28	54.67
15.01	-16.85	-111.65	-7.4	-137.02	-7.42	-136.78	-22.11	53.89
15.11	-16.88	-112.74	-7.41	-137.91	-7.43	-137.73	-22.02	52.74
15.21	-16.92	-113.47	-7.43	-138.78	-7.44	-138.65	-21.9	51.64
15.31	-16.93	-114.32	-7.47	-139.7	-7.46	-139.5	-21.81	50.73
15.41	-16.92	-115.31	-7.49	-140.6	-7.48	-140.4	-21.69	49.88
15.51	-16.91	-116.43	-7.51	-141.48	-7.49	-141.25	-21.61	48.92
15.61	-16.92	-117.86	-7.53	-142.43	-7.52	-142.15	-21.53	48.23
15.71	-16.95	-119.15	-7.53	-143.32	-7.54	-143	-21.44	47.64
15.81	-16.99	-120.33	-7.55	-144.18	-7.56	-143.91	-21.35	46.9
15.91	-17.02	-121.4	-7.57	-145.07	-7.58	-144.87	-21.25	46.05
16.01	-17.06	-122.44	-7.59	-145.91	-7.59	-145.75	-21.16	45.19
16.11	-17.06	-123.48	-7.62	-146.74	-7.61	-146.61	-21.08	44.37
16.21	-17.07	-124.48	-7.65	-147.67	-7.62	-147.48	-21.01	43.63
16.31	-17.05	-125.56	-7.67	-148.53	-7.65	-148.25	-20.91	42.98
16.41	-17.05	-126.86	-7.67	-149.38	-7.67	-149.07	-20.83	42.2
16.51	-17.07	-128.23	-7.69	-150.3	-7.68	-150.02	-20.77	41.47
16.61	-17.12	-129.45	-7.71	-151.21	-7.7	-150.91	-20.7	40.85
16.71	-17.13	-130.53	-7.73	-151.93	-7.72	-151.79	-20.66	40.62
16.81	-17.16	-131.42	-7.75	-152.83	-7.73	-152.69	-20.49	40.11
16.91	-17.16	-132.43	-7.79	-153.66	-7.74	-153.53	-20.35	39.72
17.01	-17.12	-133.32	-7.8	-154.41	-7.76	-154.33	-20.13	38.56
17.11	-17.08	-134.55	-7.84	-155.26	-7.77	-155.15	-19.99	36.88
17.21	-17.09	-136.01	-7.84	-155.98	-7.79	-156.03	-20.11	34.9
17.31	-17.12	-137.44	-7.83	-156.82	-7.82	-156.94	-20.24	35.1
17.41	-17.17	-138.74	-7.82	-157.57	-7.83	-157.81	-20.24	36.54
17.51	-17.22	-139.67	-7.81	-158.51	-7.83	-158.72	-19.84	36.82
17.61	-17.26	-140.57	-7.81	-159.27	-7.84	-159.58	-19.51	35.49
17.71	-17.27	-141.37	-7.81	-160.36	-7.85	-160.4	-19.37	32.83
17.81	-17.25	-142.32	-7.84	-161.24	-7.87	-161.25	-19.43	31.35
17.91	-17.25	-143.5	-7.85	-162.34	-7.88	-162.13	-19.5	31.34
18.01	-17.28	-145	-7.87	-163.32	-7.91	-163.03	-19.39	31.62
18.11	-17.35	-146.15	-7.88	-164.24	-7.92	-163.89	-19.17	31.37
18.21	-17.38	-147.34	-7.9	-165.07	-7.93	-164.81	-19	30.17
18.31	-17.4	-148.38	-7.9	-165.96	-7.93	-165.71	-18.85	29.09
18.41	-17.41	-149.46	-7.93	-166.84	-7.95	-166.63	-18.82	27.49
18.51	-17.39	-150.6	-7.95	-167.67	-7.96	-167.43	-18.78	26.87
18.61	-17.38	-151.55	-7.99	-168.63	-7.98	-168.28	-18.76	25.98
18.71	-17.33	-152.77	-7.99	-169.49	-7.99	-169.17	-18.72	25.57
18.81	-17.34	-154.27	-8	-170.45	-8.01	-170.11	-18.64	25.28
18.91	-17.38	-155.5	-8.02	-171.39	-8.01	-171.03	-18.51	24.92
19.01	-17.42	-156.66	-8.02	-172.24	-8.04	-171.99	-18.38	23.87
19.11	-17.42	-157.58	-8.04	-173.05	-8.04	-172.87	-18.32	22.96
19.21	-17.42	-158.51	-8.06	-173.99	-8.05	-173.71	-18.24	22.05
19.31	-17.39	-159.78	-8.08	-174.85	-8.07	-174.62	-18.2	21.5
19.41	-17.38	-160.93	-8.1	-175.82	-8.09	-175.56	-18.08	20.97
19.51	-17.36	-162.22	-8.13	-176.78	-8.11	-176.44	-17.97	20.15
19.61	-17.42	-163.56	-8.13	-177.69	-8.14	-177.36	-17.89	19.08
19.71	-17.45	-164.56	-8.14	-178.58	-8.15	-178.26	-17.86	18.44
19.81	-17.5	-165.49	-8.16	-179.4	-8.16	-179.18	-17.78	17.35
19.91	-17.5	-166.18	-8.17	179.7	-8.17	179.92	-17.72	16.78
20.01	-17.49	-167.13	-8.2	178.83	-8.17	179.06	-17.61	15.85