!s2p File: Measurements: S11, S21, S12, S22								
# GHz S dB R 50.0								
0.01	-15.6	-0.73	-17.24	-0.35	-17.24	-0.36	-32.18	-3.48
0.11	-15.84	-1.79	-17.37	-1.4	-17.36	-1.4	-34.36	-9.73
0.21	-15.92	-2.3	-17.41	-2.06	-17.4	-2.06	-35.14	-7.03
0.31	-15.95	-2.88	-17.42	-2.77	-17.42	-2.78	-35.39	-4.66
0.41	-15.96	-3.48	-17.43	-3.53	-17.42	-3.5	-35.52	-2.97
0.51	-15.97	-4.12	-17.43	-4.28	-17.43	-4.26	-35.58	-1.59
0.61	-15.97	-4.76	-17.44	-5.04	-17.43	-5.03	-35.62	-0.57
0.71	-15.97	-5.44	-17.44	-5.81	-17.44	-5.81	-35.6	0.46
0.81	-15.97	-6.11	-17.44	-6.59	-17.44	-6.59	-35.57	1.13
0.91	-15.98	-6.8	-17.45	-7.38	-17.44	-7.37	-35.58	1.94
1.01	-15.99	-7.5	-17.45	-8.14	-17.44	-8.15	-35.52	2.83
1.11	-15.99	-8.2	-17.45	-8.93	-17.45	-8.93	-35.48	3.36
1.21	-16	-8.91	-17.46	-9.7	-17.45	-9.71	-35.44	3.93
1.31	-16	-9.67	-17.46	-10.5	-17.46	-10.49	-35.37	4.36
1.41	-16.01	-10.43	-17.46	-11.29	-17.46	-11.28	-35.38	4.56
1.51	-16.01	-11.16	-17.47	-12.08	-17.46	-12.08	-35.33	5.39
1.61	-16.01	-11.89	-17.47	-12.87	-17.47	-12.88	-35.24	6.06
1.71	-16.01	-12.66	-17.47	-13.64	-17.47	-13.65	-35.16	6.01
1.81	-16.01	-13.48	-17.48	-14.42	-17.47	-14.42	-35.09	5.98
1.91	-16.02	-14.28	-17.48	-15.2	-17.48	-15.2	-35.03	5.95
2.01	-16.02	-15.02	-17.49	-16	-17.48	-15.99	-35.03	6.32
2.11	-16.03	-15.78	-17.49	-16.79	-17.49	-16.77	-34.98	6.53
2.21	-16.04	-16.56	-17.5	-17.56	-17.49	-17.56	-34.92	6.77
2.31	-16.05	-17.31	-17.5	-18.34	-17.5	-18.33	-34.86	7.1
2.41	-16.05	-18.09	-17.5	-19.12	-17.5	-19.11	-34.79	7.26
2.51	-16.06	-18.83	-17.51	-19.88	-17.51	-19.89	-34.75	7.44
2.61	-16.08	-19.57	-17.52	-20.68	-17.51	-20.68	-34.72	7.78
2.71	-16.09	-20.27	-17.52	-21.46	-17.52	-21.45	-34.66	7.99
2.81	-16.1	-20.98	-17.53	-22.23	-17.52	-22.22	-34.62	8.28
2.91	-16.12	-21.7	-17.53	-23	-17.53	-23.01	-34.56	8.68
3.01	-16.13	-22.44	-17.54	-23.8	-17.53	-23.78	-34.47	9.05
3.11	-16.14	-23.22	-17.54	-24.56	-17.54	-24.56	-34.4	9.13
3.21	-16.16	-23.98	-17.55	-25.33	-17.54	-25.35	-34.33	9.33
3.31	-16.17	-24.74	-17.55	-26.13	-17.55	-26.12	-34.29	9.58
3.41	-16.19	-25.49	-17.55	-26.9	-17.55	-26.9	-34.21	9.95
3.51	-16.2	-26.25	-17.56	-27.68	-17.56	-27.67	-34.15	10.29
3.61	-16.22	-27.03	-17.57	-28.43	-17.57	-28.46	-34.07	10.35
3.71	-16.24	-27.82	-17.58	-29.22	-17.57	-29.24	-34	10.28
3.81	-16.26	-28.65	-17.58	-30.01	-17.58	-30.03	-33.96	10.2
3.91	-16.28	-29.42	-17.59	-30.78	-17.59	-30.8	-33.96	10.28
4.01	-16.31	-30.16	-17.59	-31.57	-17.59	-31.58	-33.89	10.61
4.11	-16.32	-30.91	-17.6	-32.37	-17.6	-32.35	-33.82	11
4.21	-16.33	-31.72	-17.6	-33.14	-17.61	-33.13	-33.68	11.23
4.31	-16.35	-32.56	-17.61	-33.89	-17.62	-33.91	-33.58	10.86
4.41	-16.37	-33.41	-17.62	-34.68	-17.62	-34.68	-33.51	10.49
4.51	-16.4	-34.17	-17.63	-35.43	-17.63	-35.46	-33.5	10.36
4.61	-16.43	-34.92	-17.64	-36.23	-17.64	-36.25	-33.47	10.41
4.71	-16.45	-35.62	-17.64	-37.03	-17.65	-37.01	-33.42	10.83
4.81	-16.46	-36.36	-17.65	-37.8	-17.65	-37.79	-33.32	11.04
4.91	-16.47	-37.2	-17.66	-38.59	-17.66	-38.58	-33.18	11.18
5.01	-16.48	-38.01	-17.66	-39.36	-17.67	-39.34	-33.08	11.23
5.11	-16.51	-38.83	-17.68	-40.12	-17.68	-40.11	-32.98	10.76
5.21	-16.55	-39.6	-17.69	-40.89	-17.69	-40.9	-32.9	10.64
5.31	-16.58	-40.32	-17.69	-41.68	-17.7	-41.67	-32.88	10.51
5.41	-16.61	-41.01	-17.7	-42.46	-17.7	-42.44	-32.86	10.86
5.51	-16.63	-41.72	-17.71	-43.23	-17.71	-43.23	-32.77	11.41
5.61	-16.65	-42.49	-17.72	-44.02	-17.72	-44	-32.62	11.69
5.71	-16.68	-43.3	-17.73	-44.79	-17.73	-44.78	-32.51	11.49
5.81	-16.72	-44.14	-17.74	-45.55	-17.74	-45.54	-32.37	11.24
5.91	-16.76	-44.94	-17.75	-46.33	-17.75	-46.33	-32.28	10.72
6.01	-16.8	-45.7	-17.76	-47.11	-17.76	-47.11	-32.24	10.44
6.11	-16.84	-46.42	-17.78	-47.91	-17.78	-47.89	-32.18	10.38
6.21	-16.86	-47.17	-17.79	-48.65	-17.79	-48.66	-32.1	10.56
6.31	-16.88	-47.94	-17.8	-49.42	-17.8	-49.42	-31.97	10.47
6.41	-16.91	-48.76	-17.81	-50.18	-17.81	-50.18	-31.87	10.64
6.51	-16.93	-49.62	-17.82	-50.93	-17.83	-50.95	-31.72	10.36
6.61	-16.97	-50.44	-17.83	-51.71	-17.84	-51.71	-31.66	10.07
6.71	-17.01	-51.24	-17.85	-52.49	-17.85	-52.48	-31.59	9.75
6.81	-17.04	-52.03	-17.86	-53.26	-17.86	-53.25	-31.53	9.59
6.91	-17.07	-52.8	-17.87	-54.02	-17.88	-53.99	-31.49	9.51
7.01	-17.1	-53.59	-17.88	-54.76	-17.89	-54.75	-31.39	9.46
7.11	-17.12	-54.39	-17.9	-55.49	-17.9	-55.51	-31.28	9.25
7.21	-17.16	-55.22	-17.91	-56.27	-17.92	-56.28	-31.12	9
7.31	-17.18	-56.01	-17.93	-57.1	-17.93	-57.06	-31.02	8.16
7.41	-17.22	-56.76	-17.95	-57.84	-17.95	-57.84	-30.93	7.35
7.51	-17.24	-57.57	-17.97	-58.58	-17.97	-58.55	-30.89	6.81
7.61	-17.28	-58.33	-17.97	-59.33	-17.98	-59.28	-30.84	6.68
7.71	-17.31	-59.1	-17.99	-60.05	-18	-60.02	-30.77	6.43
7.81	-17.34	-59.88	-18.01	-60.75	-18.02	-60.77	-30.69	6.19
7.91	-17.38	-60.63	-18.03	-61.52	-18.03	-61.5	-30.6	5.9
8.01	-17.42	-61.48	-18.05	-62.25	-18.05	-62.24	-30.52	5.36
8.11	-17.47	-62.28	-18.06	-62.95	-18.07	-62.93	-30.49	4.8
8.21	-17.52	-63.09	-18.08	-63.67	-18.08	-63.67	-30.46	4.13
8.31	-17.56	-63.92	-18.09	-64.42	-18.1	-64.39	-30.43	3.62
8.41	-17.59	-64.72	-18.11	-65.12	-18.12	-65.09	-30.42	3.25
8.51	-17.63	-65.57	-18.13	-65.82	-18.14	-65.8	-30.39	2.82
8.61	-17.66	-66.48	-18.15	-66.5	-18.16	-66.47	-30.35	2.38
8.71	-17.69	-67.42	-18.16	-67.2	-18.17	-67.13	-30.31	1.9
8.81	-17.73	-68.34	-18.18	-67.85	-18.18	-67.83	-30.28	1.47
8.91	-17.77	-69.24	-18.19	-68.53	-18.2	-68.51	-30.28	0.86
9.01	-17.82	-70.11	-18.21	-69.25	-18.21	-69.17	-30.31	0.5
9.11	-17.87	-71.02	-18.22	-69.88	-18.23	-69.82	-30.29	0.32
9.21	-17.91	-71.87	-18.23	-70.54	-18.24	-70.5	-30.3	0.14
9.31	-17.95	-72.77	-18.24	-71.2	-18.25	-71.14	-30.31	-0.16
9.41	-17.99	-73.67	-18.25	-71.87	-18.26	-71.81	-30.29	-0.38
9.51	-18.02	-74.54	-18.27	-72.53	-18.27	-72.5	-30.31	-0.49
9.61	-18.07	-75.47	-18.27	-73.19	-18.27	-73.13	-30.26	-0.6
9.71	-18.11	-76.38	-18.28	-73.84	-18.28	-73.81	-30.26	-0.59
9.81	-18.16	-77.27	-18.28	-74.49	-18.29	-74.46	-30.26	-0.59
9.91	-18.2	-78.06	-18.29	-75.17	-18.29	-75.12	-30.27	-0.5
10.01	-18.24	-78.89	-18.29	-75.87	-18.3	-75.8	-30.27	-0.48
10.11	-18.28	-79.72	-18.3	-76.53	-18.3	-76.45	-30.26	-0.28
10.21	-18.33	-80.56	-18.31	-77.15	-18.31	-77.1	-30.26	0.17
10.31	-18.38	-81.45	-18.3	-77.82	-18.31	-77.77	-30.23	0.32
10.41	-18.43	-82.38	-18.31	-78.49	-18.31	-78.46	-30.14	0.81
10.51	-18.49	-83.24	-18.31	-79.15	-18.31	-79.14	-30.07	0.98
10.61	-18.56	-84.24	-18.31	-79.86	-18.31	-79.83	-30.01	1.13
10.71	-18.62	-85.07	-18.31	-80.6	-18.31	-80.53	-29.97	1.18
10.81	-18.68	-85.93	-18.3	-81.31	-18.31	-81.22	-29.95	1.57
10.91	-18.74	-86.94	-18.31	-82.04	-18.31	-81.95	-29.92	1.91
11.01	-18.8	-87.77	-18.3	-82.73	-18.32	-82.62	-29.85	2.65
11.11	-18.85	-88.68	-18.3	-83.41	-18.32	-83.38	-29.74	2.91
11.21	-18.9	-89.63	-18.31	-84.13	-18.32	-84.11	-29.66	3.1
11.31	-18.96	-90.42	-18.32	-84.84	-18.31	-84.82	-29.53	3.07
11.41	-19.01	-91.4	-18.32	-85.6	-18.31	-85.54	-29.45	2.81
11.51	-19.05	-92.21	-18.32	-86.32	-18.32	-86.22	-29.39	2.99
11.61	-19.1	-93.08	-18.32	-87.02	-18.31	-86.93	-29.34	3.07
11.71	-19.15	-94.02	-18.31	-87.75	-18.33	-87.69	-29.28	3.23
11.81	-19.2	-94.98	-18.31	-88.46	-18.33	-88.37	-29.19	3.7
11.91	-19.27	-95.89	-18.32	-89.19	-18.32	-89.15	-29	3.94
12.01	-19.31	-96.81	-18.32	-89.92	-18.32	-89.94	-28.9	3.47
12.11	-19.35	-97.69	-18.33	-90.74	-18.33	-90.7	-28.78	3.61
12.21	-19.4	-98.55	-18.34	-91.41	-18.33	-91.37	-28.67	3.15
12.31	-19.45	-99.41	-18.34	-92.18	-18.34	-92.1	-28.61	2.92
12.41	-19.49	-100.39	-18.33	-92.97	-18.34	-92.8	-28.54	2.46
12.51	-19.56	-101.29	-18.34	-93.67	-18.35	-93.55	-28.49	2.76
12.61	-19.59	-102.2	-18.34	-94.34	-18.35	-94.26	-28.4	2.98
12.71	-19.67	-103.18	-18.33	-95.07	-18.35	-95.02	-28.28	3.2
12.81	-19.75	-104.04	-18.35	-95.79	-18.36	-95.8	-28.05	3.32
12.91	-19.83	-104.81	-18.36	-96.53	-18.35	-96.49	-27.94	2.71
13.01	-19.88	-105.75	-18.37	-97.34	-18.36	-97.28	-27.76	2.5
13.11	-19.96	-106.52	-18.37	-98.14	-18.37	-98.03	-27.69	1.82
13.21	-20	-107.32	-18.4	-98.8	-18.4	-98.63	-27.63	1.48
13.31	-20.05	-108.5	-18.38	-99.43	-18.38	-99.3	-27.58	1.79
13.41	-20.09	-109.51	-18.37	-100.14	-18.39	-100.08	-27.43	1.59
13.51	-20.16	-110.68	-18.37	-100.87	-18.39	-100.81	-27.4	1.24
13.61	-20.21	-111.62	-18.38	-101.59	-18.39	-101.6	-27.23	1.07
13.71	-20.28	-112.57	-18.38	-102.34	-18.38	-102.29	-27.15	0.82
13.81	-20.31	-113.47	-18.39	-103.12	-18.39	-103.07	-27.03	0.41
13.91	-20.37	-114.46	-18.4	-103.91	-18.39	-103.76	-26.97	-0.18
14.01	-20.4	-115.48	-18.4	-104.71	-18.39	-104.57	-26.89	-0.63
14.11	-20.44	-116.47	-18.4	-105.42	-18.41	-105.29	-26.88	-0.6
14.21	-20.49	-117.59	-18.41	-106.11	-18.42	-105.95	-26.79	-0.5
14.31	-20.58	-118.79	-18.4	-106.77	-18.41	-106.69	-26.67	-0.72
14.41	-20.62	-119.55	-18.39	-107.54	-18.4	-107.53	-26.55	-0.7
14.51	-20.7	-120.67	-18.41	-108.39	-18.41	-108.3	-26.42	-1.34
14.61	-20.74	-121.4	-18.43	-109.16	-18.42	-109.04	-26.32	-2.02
14.71	-20.76	-122.34	-18.43	-109.87	-18.42	-109.69	-26.25	-2.82
14.81	-20.78	-123.17	-18.43	-110.7	-18.43	-110.49	-26.23	-3.2
14.91	-20.78	-124.18	-18.45	-111.46	-18.45	-111.29	-26.19	-3.41
15.01	-20.85	-125.32	-18.44	-112.1	-18.46	-111.93	-26.06	-3.25
15.11	-20.91	-126.43	-18.44	-112.81	-18.46	-112.7	-25.98	-3.86
15.21	-21	-127.27	-18.45	-113.55	-18.45	-113.51	-25.83	-4.16
15.31	-21.09	-127.99	-18.47	-114.35	-18.46	-114.21	-25.74	-4.86
15.41	-21.12	-128.79	-18.49	-115.01	-18.47	-114.88	-25.68	-5.13
15.51	-21.15	-129.73	-18.5	-115.71	-18.47	-115.53	-25.58	-5.78
15.61	-21.18	-130.99	-18.5	-116.48	-18.49	-116.29	-25.56	-6.29
15.71	-21.22	-132.2	-18.48	-117.22	-18.49	-117.01	-25.54	-6.46
15.81	-21.27	-133.5	-18.5	-117.96	-18.5	-117.76	-25.49	-6.6
15.91	-21.32	-134.73	-18.5	-118.65	-18.5	-118.56	-25.39	-7
16.01	-21.43	-135.77	-18.52	-119.3	-18.51	-119.23	-25.33	-7.49
16.11	-21.5	-136.63	-18.53	-119.92	-18.51	-119.87	-25.26	-8.02
16.21	-21.54	-137.29	-18.53	-120.67	-18.5	-120.55	-25.27	-8.73
16.31	-21.51	-138.06	-18.53	-121.44	-18.51	-121.21	-25.2	-8.86
16.41	-21.5	-139.24	-18.53	-122.08	-18.51	-121.86	-25.17	-9.29
16.51	-21.53	-140.66	-18.53	-122.88	-18.51	-122.69	-25.14	-9.81
16.61	-21.59	-141.7	-18.52	-123.6	-18.5	-123.41	-25.12	-10.12
16.71	-21.61	-142.75	-18.53	-124.19	-18.5	-124.17	-25.24	-10.26
16.81	-21.67	-143.72	-18.53	-124.96	-18.5	-124.92	-25.15	-9.46
16.91	-21.72	-144.43	-18.55	-125.61	-18.49	-125.55	-25.09	-8.86
17.01	-21.64	-144.92	-18.53	-126.25	-18.48	-126.26	-24.82	-8.81
17.11	-21.6	-146.06	-18.55	-126.99	-18.48	-126.99	-24.51	-9.48
17.21	-21.57	-147.29	-18.54	-127.58	-18.49	-127.72	-24.39	-13.32
17.31	-21.6	-148.75	-18.53	-128.16	-18.51	-128.45	-24.8	-14.61
17.41	-21.64	-149.82	-18.47	-128.71	-18.48	-129.13	-25.33	-13.18
17.51	-21.69	-150.94	-18.44	-129.66	-18.46	-130.03	-25.15	-8.98
17.61	-21.79	-151.6	-18.42	-130.18	-18.45	-130.64	-24.59	-7.72
17.71	-21.8	-152.17	-18.38	-131.2	-18.43	-131.38	-24.14	-10.38
17.81	-21.78	-152.93	-18.39	-132.01	-18.41	-132.13	-24.14	-12.89
17.91	-21.76	-154.02	-18.36	-133.07	-18.41	-132.95	-24.48	-13.74
18.01	-21.76	-155.82	-18.37	-133.98	-18.42	-133.75	-24.64	-12.18
18.11	-21.87	-156.9	-18.36	-134.72	-18.41	-134.48	-24.48	-10.1
18.21	-21.86	-158.03	-18.35	-135.57	-18.39	-135.39	-24.21	-10.04
18.31	-21.87	-159.28	-18.33	-136.44	-18.37	-136.31	-23.95	-10.02
18.41	-21.89	-160.18	-18.35	-137.17	-18.37	-137.09	-23.81	-12.13
18.51	-21.83	-161.03	-18.34	-138.05	-18.34	-137.88	-23.86	-12.24
18.61	-21.82	-162.19	-18.37	-138.96	-18.36	-138.68	-23.9	-13.09
18.71	-21.72	-162.87	-18.34	-139.68	-18.34	-139.46	-23.95	-12.89
18.81	-21.65	-164.52	-18.31	-140.57	-18.33	-140.28	-23.95	-12.63
18.91	-21.67	-165.7	-18.3	-141.51	-18.3	-141.24	-23.9	-11.61
19.01	-21.63	-167	-18.28	-142.39	-18.3	-142.27	-23.69	-11.5
19.11	-21.62	-168.19	-18.29	-143.27	-18.31	-143.21	-23.58	-11.72
19.21	-21.6	-169.08	-18.31	-144.08	-18.29	-143.92	-23.47	-12.66
19.31	-21.53	-170.33	-18.27	-145.03	-18.25	-144.92	-23.59	-12.7
19.41	-21.49	-171.79	-18.3	-146.28	-18.29	-146.1	-23.49	-11.65
19.51	-21.43	-172.94	-18.32	-147.18	-18.3	-146.88	-23.38	-11.21
19.61	-21.44	-174.66	-18.32	-148.02	-18.33	-147.76	-23.16	-11.77
19.71	-21.45	-175.69	-18.32	-148.87	-18.33	-148.64	-23.16	-12.25
19.81	-21.45	-176.76	-18.28	-149.68	-18.28	-149.53	-23.08	-12.42
19.91	-21.44	-177.75	-18.28	-150.84	-18.29	-150.71	-22.98	-12.01
20.01	-21.38	-178.91	-18.32	-151.94	-18.3	-151.81	-22.77	-11.78