!s2p File: Measurements: S11, S21, S12, S22								
# GHz S dB R 50.0								
0.01	-25.35	0.04	-30.09	-0.49	-30.11	-0.51	-15.48	-1.22
0.11	-25.52	-1.51	-30.21	-1.21	-30.21	-1.2	-15.87	-2.15
0.21	-25.58	-1.87	-30.24	-1.7	-30.24	-1.69	-15.95	-2.62
0.31	-25.59	-2.36	-30.25	-2.3	-30.25	-2.2	-15.98	-3.21
0.41	-25.6	-2.92	-30.27	-2.77	-30.27	-2.76	-16	-3.86
0.51	-25.59	-3.46	-30.27	-3.36	-30.27	-3.38	-16.01	-4.57
0.61	-25.6	-4.01	-30.27	-3.98	-30.28	-3.92	-16.02	-5.31
0.71	-25.59	-4.61	-30.28	-4.55	-30.28	-4.58	-16.02	-6.05
0.81	-25.59	-5.19	-30.28	-5.19	-30.28	-5.19	-16.03	-6.81
0.91	-25.6	-5.78	-30.29	-5.8	-30.29	-5.77	-16.04	-7.56
1.01	-25.61	-6.4	-30.29	-6.39	-30.29	-6.37	-16.04	-8.31
1.11	-25.62	-7.03	-30.29	-6.97	-30.29	-6.97	-16.04	-9.09
1.21	-25.63	-7.71	-30.3	-7.6	-30.3	-7.55	-16.04	-9.86
1.31	-25.64	-8.45	-30.3	-8.17	-30.3	-8.16	-16.05	-10.65
1.41	-25.65	-9.23	-30.31	-8.8	-30.31	-8.81	-16.06	-11.46
1.51	-25.68	-9.93	-30.31	-9.45	-30.31	-9.4	-16.07	-12.21
1.61	-25.67	-10.57	-30.32	-10.04	-30.32	-10.01	-16.07	-12.96
1.71	-25.65	-11.38	-30.33	-10.63	-30.33	-10.65	-16.07	-13.77
1.81	-25.65	-12.32	-30.34	-11.23	-30.33	-11.24	-16.07	-14.61
1.91	-25.67	-13.15	-30.35	-11.86	-30.34	-11.83	-16.08	-15.43
2.01	-25.69	-13.9	-30.34	-12.45	-30.34	-12.44	-16.09	-16.24
2.11	-25.7	-14.63	-30.35	-13.06	-30.35	-13.04	-16.1	-17.04
2.21	-25.71	-15.43	-30.36	-13.66	-30.36	-13.65	-16.11	-17.82
2.31	-25.73	-16.18	-30.38	-14.29	-30.37	-14.26	-16.11	-18.6
2.41	-25.74	-16.97	-30.37	-14.88	-30.38	-14.85	-16.12	-19.39
2.51	-25.77	-17.66	-30.39	-15.49	-30.38	-15.46	-16.13	-20.18
2.61	-25.8	-18.37	-30.4	-16.09	-30.4	-16.05	-16.14	-20.97
2.71	-25.84	-18.91	-30.41	-16.67	-30.4	-16.68	-16.16	-21.74
2.81	-25.87	-19.52	-30.41	-17.3	-30.4	-17.25	-16.17	-22.52
2.91	-25.89	-20.15	-30.43	-17.9	-30.43	-17.87	-16.18	-23.27
3.01	-25.91	-20.84	-30.44	-18.42	-30.43	-18.47	-16.19	-24.02
3.11	-25.95	-21.64	-30.44	-19.04	-30.44	-19.05	-16.2	-24.8
3.21	-25.99	-22.4	-30.45	-19.68	-30.45	-19.65	-16.21	-25.57
3.31	-26.04	-23.14	-30.46	-20.26	-30.46	-20.26	-16.23	-26.34
3.41	-26.08	-23.86	-30.48	-20.87	-30.47	-20.86	-16.24	-27.09
3.51	-26.11	-24.61	-30.49	-21.45	-30.49	-21.41	-16.26	-27.83
3.61	-26.15	-25.38	-30.5	-22.11	-30.49	-22.07	-16.27	-28.6
3.71	-26.19	-26.3	-30.51	-22.67	-30.51	-22.62	-16.28	-29.38
3.81	-26.25	-27.21	-30.53	-23.23	-30.52	-23.21	-16.3	-30.18
3.91	-26.32	-28.02	-30.54	-23.85	-30.54	-23.83	-16.31	-30.96
4.01	-26.38	-28.64	-30.55	-24.4	-30.54	-24.39	-16.33	-31.73
4.11	-26.39	-29.37	-30.56	-25.11	-30.55	-24.98	-16.35	-32.44
4.21	-26.43	-30.22	-30.58	-25.63	-30.57	-25.6	-16.36	-33.18
4.31	-26.47	-31.28	-30.59	-26.15	-30.59	-26.17	-16.37	-33.95
4.41	-26.54	-32.4	-30.6	-26.73	-30.61	-26.77	-16.38	-34.77
4.51	-26.62	-33.14	-30.63	-27.27	-30.63	-27.28	-16.4	-35.57
4.61	-26.7	-33.73	-30.64	-27.9	-30.64	-27.91	-16.42	-36.33
4.71	-26.72	-34.32	-30.65	-28.53	-30.65	-28.48	-16.44	-37.08
4.81	-26.73	-35.04	-30.67	-29.1	-30.67	-29.06	-16.46	-37.78
4.91	-26.74	-36.06	-30.68	-29.69	-30.68	-29.65	-16.47	-38.47
5.01	-26.77	-37.09	-30.69	-30.25	-30.7	-30.25	-16.49	-39.19
5.11	-26.85	-38.1	-30.72	-30.83	-30.72	-30.77	-16.49	-39.96
5.21	-26.96	-38.88	-30.73	-31.38	-30.73	-31.36	-16.51	-40.73
5.31	-27.05	-39.52	-30.75	-31.96	-30.75	-31.93	-16.53	-41.52
5.41	-27.12	-40	-30.78	-32.6	-30.77	-32.51	-16.56	-42.26
5.51	-27.18	-40.63	-30.79	-33.15	-30.78	-33.12	-16.59	-42.94
5.61	-27.23	-41.49	-30.81	-33.76	-30.81	-33.72	-16.61	-43.59
5.71	-27.31	-42.52	-30.84	-34.31	-30.83	-34.2	-16.62	-44.29
5.81	-27.41	-43.63	-30.84	-34.87	-30.84	-34.81	-16.63	-44.98
5.91	-27.54	-44.51	-30.88	-35.43	-30.87	-35.4	-16.64	-45.75
6.01	-27.66	-45.29	-30.89	-35.97	-30.89	-35.88	-16.66	-46.53
6.11	-27.76	-45.98	-30.92	-36.53	-30.92	-36.58	-16.69	-47.28
6.21	-27.82	-46.71	-30.94	-37.05	-30.95	-37.03	-16.71	-47.97
6.31	-27.87	-47.54	-30.97	-37.63	-30.96	-37.58	-16.73	-48.63
6.41	-27.93	-48.61	-31	-38.15	-30.99	-38.15	-16.75	-49.3
6.51	-28.02	-49.75	-31.02	-38.6	-31.02	-38.65	-16.76	-49.96
6.61	-28.13	-50.78	-31.05	-39.17	-31.05	-39.17	-16.78	-50.7
6.71	-28.25	-51.78	-31.08	-39.74	-31.07	-39.65	-16.8	-51.44
6.81	-28.35	-52.68	-31.1	-40.24	-31.1	-40.18	-16.82	-52.19
6.91	-28.42	-53.51	-31.13	-40.7	-31.13	-40.67	-16.85	-52.94
7.01	-28.48	-54.48	-31.15	-41.24	-31.15	-41.23	-16.87	-53.62
7.11	-28.54	-55.5	-31.18	-41.72	-31.17	-41.73	-16.89	-54.27
7.21	-28.64	-56.64	-31.2	-42.19	-31.19	-42.18	-16.91	-54.89
7.31	-28.73	-57.58	-31.23	-42.91	-31.22	-42.84	-16.91	-55.62
7.41	-28.83	-58.44	-31.29	-43.49	-31.29	-43.44	-16.92	-56.34
7.51	-28.92	-59.4	-31.33	-43.74	-31.32	-43.72	-16.93	-57.1
7.61	-29.01	-60.16	-31.35	-44.2	-31.35	-44.09	-16.96	-57.83
7.71	-29.1	-61.07	-31.38	-44.61	-31.38	-44.49	-16.98	-58.52
7.81	-29.18	-62	-31.42	-44.99	-31.41	-44.95	-17.01	-59.21
7.91	-29.32	-62.86	-31.45	-45.46	-31.46	-45.36	-17.03	-59.88
8.01	-29.47	-64.08	-31.48	-45.79	-31.47	-45.81	-17.04	-60.58
8.11	-29.61	-65.14	-31.52	-46.14	-31.51	-46.08	-17.06	-61.35
8.21	-29.78	-66.17	-31.55	-46.6	-31.54	-46.55	-17.08	-62.13
8.31	-29.93	-67.2	-31.57	-46.97	-31.58	-46.98	-17.1	-62.87
8.41	-30.02	-68.24	-31.61	-47.3	-31.62	-47.29	-17.13	-63.6
8.51	-30.15	-69.52	-31.67	-47.54	-31.66	-47.49	-17.15	-64.33
8.61	-30.2	-71.02	-31.69	-47.82	-31.69	-47.72	-17.17	-65.05
8.71	-30.29	-72.62	-31.71	-48.05	-31.71	-47.89	-17.19	-65.77
8.81	-30.4	-74.16	-31.73	-48.29	-31.72	-48.28	-17.21	-66.5
8.91	-30.53	-75.78	-31.75	-48.58	-31.74	-48.53	-17.23	-67.28
9.01	-30.69	-77.2	-31.77	-48.9	-31.77	-48.79	-17.26	-68.06
9.11	-30.84	-78.64	-31.79	-49.05	-31.79	-48.88	-17.29	-68.79
9.21	-30.96	-80.01	-31.81	-49.19	-31.79	-49.09	-17.32	-69.55
9.31	-31.07	-81.38	-31.8	-49.43	-31.79	-49.4	-17.35	-70.29
9.41	-31.14	-82.8	-31.81	-49.74	-31.8	-49.62	-17.38	-71.04
9.51	-31.2	-84.44	-31.81	-49.88	-31.8	-49.82	-17.41	-71.75
9.61	-31.36	-86.23	-31.79	-50.07	-31.78	-49.93	-17.45	-72.42
9.71	-31.46	-87.92	-31.8	-50.37	-31.8	-50.27	-17.48	-73.15
9.81	-31.59	-89.44	-31.79	-50.52	-31.79	-50.42	-17.52	-73.86
9.91	-31.71	-90.65	-31.77	-50.8	-31.77	-50.78	-17.56	-74.6
10.01	-31.79	-91.94	-31.78	-51.08	-31.78	-50.96	-17.59	-75.33
10.11	-31.88	-93.28	-31.76	-51.31	-31.77	-51.17	-17.64	-76.03
10.21	-31.98	-94.8	-31.75	-51.43	-31.74	-51.35	-17.69	-76.76
10.31	-32.1	-96.75	-31.72	-51.78	-31.7	-51.68	-17.73	-77.4
10.41	-32.22	-98.56	-31.7	-52.11	-31.68	-52	-17.78	-78
10.51	-32.42	-100.55	-31.67	-52.36	-31.67	-52.3	-17.81	-78.6
10.61	-32.59	-102.93	-31.64	-52.61	-31.62	-52.62	-17.86	-79.25
10.71	-32.78	-104.74	-31.62	-53.11	-31.61	-53.05	-17.9	-79.94
10.81	-32.91	-106.75	-31.6	-53.49	-31.59	-53.43	-17.95	-80.59
10.91	-33.01	-109.26	-31.59	-53.94	-31.57	-53.82	-18	-81.3
11.01	-33.14	-111.4	-31.55	-54.16	-31.55	-54.09	-18.07	-81.92
11.11	-33.22	-113.7	-31.52	-54.62	-31.52	-54.64	-18.11	-82.47
11.21	-33.32	-115.98	-31.53	-55.08	-31.5	-55.12	-18.16	-83.05
11.31	-33.46	-117.9	-31.5	-55.39	-31.48	-55.41	-18.19	-83.56
11.41	-33.53	-120.27	-31.48	-55.77	-31.48	-55.81	-18.22	-84.23
11.51	-33.59	-121.94	-31.45	-56.29	-31.44	-56.11	-18.27	-84.87
11.61	-33.62	-123.92	-31.44	-56.66	-31.42	-56.54	-18.32	-85.52
11.71	-33.59	-126.34	-31.41	-56.96	-31.41	-56.98	-18.36	-86.22
11.81	-33.63	-129.15	-31.36	-57.46	-31.38	-57.36	-18.43	-86.79
11.91	-33.73	-131.97	-31.36	-57.87	-31.34	-57.86	-18.49	-87.17
12.01	-33.73	-134.08	-31.34	-58.3	-31.33	-58.37	-18.51	-87.76
12.11	-33.68	-135.87	-31.35	-59.11	-31.34	-59.01	-18.56	-88.29
12.21	-33.66	-138.05	-31.35	-59.12	-31.32	-59.05	-18.58	-88.88
12.31	-33.7	-140.1	-31.3	-59.49	-31.29	-59.45	-18.62	-89.55
12.41	-33.59	-142.37	-31.27	-60.16	-31.27	-59.97	-18.65	-90.12
12.51	-33.61	-145.13	-31.26	-60.54	-31.26	-60.42	-18.71	-90.86
12.61	-33.56	-147.37	-31.22	-60.91	-31.22	-60.91	-18.77	-91.42
12.71	-33.62	-150.56	-31.19	-61.39	-31.2	-61.41	-18.83	-91.95
12.81	-33.71	-153.45	-31.22	-61.71	-31.21	-61.69	-18.89	-92.25
12.91	-33.83	-156.17	-31.16	-62.18	-31.14	-62.19	-18.92	-92.72
13.01	-33.79	-158.28	-31.18	-62.7	-31.17	-62.65	-18.96	-93.09
13.11	-33.82	-160.81	-31.14	-63.15	-31.13	-63.16	-18.98	-93.72
13.21	-33.76	-162.61	-31.18	-63.28	-31.17	-63.13	-19.01	-94.32
13.31	-33.53	-165.36	-31.08	-63.65	-31.08	-63.49	-19.09	-95.02
13.41	-33.38	-168	-31.04	-63.95	-31.06	-64.03	-19.13	-95.49
13.51	-33.21	-170.86	-31	-64.59	-31	-64.56	-19.17	-96.16
13.61	-33.07	-173.25	-31	-65.03	-31.01	-65.09	-19.23	-96.54
13.71	-33.07	-175.81	-30.96	-65.41	-30.95	-65.46	-19.27	-97.05
13.81	-32.98	-176.85	-30.93	-65.95	-30.93	-66.04	-19.32	-97.55
13.91	-32.8	-178.78	-30.91	-66.65	-30.9	-66.44	-19.34	-98.18
14.01	-32.58	179.97	-30.88	-67.24	-30.86	-67.2	-19.39	-98.71
14.11	-32.31	177.83	-30.87	-67.64	-30.87	-67.49	-19.45	-99.46
14.21	-32.09	175.4	-30.84	-67.71	-30.86	-67.63	-19.52	-100
14.31	-31.94	172.16	-30.76	-68.21	-30.77	-68.13	-19.58	-100.48
14.41	-31.89	170.7	-30.73	-69	-30.74	-68.88	-19.65	-100.9
14.51	-31.77	168.28	-30.75	-69.52	-30.74	-69.42	-19.68	-101.3
14.61	-31.76	167.2	-30.74	-69.88	-30.72	-69.86	-19.71	-101.71
14.71	-31.61	166.44	-30.68	-70.38	-30.67	-70.21	-19.72	-102.25
14.81	-31.49	165.68	-30.66	-71.13	-30.65	-70.96	-19.77	-102.9
14.91	-31.24	165.15	-30.67	-71.63	-30.67	-71.48	-19.83	-103.51
15.01	-31.01	162.73	-30.62	-71.77	-30.64	-71.62	-19.9	-104
15.11	-30.84	160.5	-30.59	-72.18	-30.6	-72.1	-19.95	-104.44
15.21	-30.8	158.35	-30.54	-72.68	-30.55	-72.74	-20	-104.73
15.31	-30.86	156.36	-30.53	-73.32	-30.52	-73.25	-20.02	-105.16
15.41	-30.78	155.29	-30.54	-73.55	-30.52	-73.39	-20.09	-105.75
15.51	-30.67	154.48	-30.47	-73.94	-30.44	-73.78	-20.13	-106.16
15.61	-30.36	153.53	-30.42	-74.47	-30.41	-74.19	-20.16	-106.79
15.71	-30.05	152.27	-30.35	-75.1	-30.36	-74.85	-20.23	-107.48
15.81	-29.76	150.43	-30.37	-75.67	-30.36	-75.56	-20.29	-107.97
15.91	-29.52	148.33	-30.33	-75.89	-30.33	-75.79	-20.34	-108.47
16.01	-29.42	145.75	-30.28	-76.27	-30.27	-76.25	-20.38	-108.98
16.11	-29.4	144.07	-30.23	-76.41	-30.21	-76.36	-20.43	-109.47
16.21	-29.4	142.89	-30.15	-77.13	-30.12	-76.99	-20.46	-110.2
16.31	-29.35	143.01	-30.09	-77.79	-30.07	-77.63	-20.55	-110.63
16.41	-29.11	142.57	-30.04	-78.33	-30.02	-78.13	-20.59	-111.23
16.51	-28.81	141.4	-30	-79.04	-29.98	-78.89	-20.63	-111.75
16.61	-28.69	139.58	-29.94	-79.61	-29.92	-79.42	-20.67	-112.43
16.71	-28.58	138.27	-29.89	-80.07	-29.86	-80.06	-20.74	-113.59
16.81	-28.53	136.88	-29.87	-80.68	-29.84	-80.63	-20.91	-114.25
16.91	-28.51	135.73	-29.8	-80.87	-29.74	-80.84	-21.1	-114.85
17.01	-28.59	136.48	-29.7	-81.77	-29.65	-81.79	-21.24	-114.16
17.11	-28.39	136.68	-29.68	-82.41	-29.61	-82.5	-21.33	-113.03
17.21	-28.12	136.42	-29.62	-83.04	-29.57	-83.26	-20.94	-112.34
17.31	-27.88	135.07	-29.57	-83.22	-29.57	-83.65	-20.79	-115.03
17.41	-27.76	133.31	-29.43	-83.76	-29.44	-84.29	-20.89	-118.47
17.51	-27.71	131.89	-29.35	-84.95	-29.38	-85.38	-21.42	-119.68
17.61	-27.72	130.19	-29.26	-85.13	-29.3	-85.77	-21.76	-118.31
17.71	-27.86	129.22	-29.13	-86.48	-29.19	-86.8	-21.66	-116.49
17.81	-27.83	129.23	-29.09	-87.46	-29.13	-87.6	-21.44	-116.78
17.91	-27.73	128.95	-29.04	-88.55	-29.09	-88.45	-21.38	-119.51
18.01	-27.42	128.06	-28.98	-89.39	-29.03	-89.25	-21.63	-121.47
18.11	-27.28	126.03	-28.91	-90.14	-28.99	-89.78	-22.01	-122.22
18.21	-27.21	124.9	-28.84	-91.39	-28.89	-91.23	-22.24	-121.54
18.31	-27.13	124	-28.81	-92.45	-28.86	-92.36	-22.41	-120.95
18.41	-27.15	123.2	-28.77	-92.95	-28.82	-93	-22.28	-120.43
18.51	-27.2	123.25	-28.71	-94.53	-28.73	-94.4	-22.34	-121.27
18.61	-27.07	123.6	-28.74	-95.39	-28.74	-95.07	-22.31	-122.19
18.71	-27.03	124.16	-28.66	-96.17	-28.67	-95.94	-22.43	-123.45
18.81	-26.79	123.77	-28.54	-97.17	-28.58	-96.88	-22.57	-124.5
18.91	-26.71	122.68	-28.49	-98.39	-28.5	-98.18	-22.84	-125.55
19.01	-26.65	122.14	-28.44	-99.81	-28.49	-99.66	-23.05	-125.11
19.11	-26.59	122.18	-28.49	-100.94	-28.51	-100.93	-23.16	-125.08
19.21	-26.6	121.69	-28.45	-101.45	-28.45	-101.38	-23.16	-125.22
19.31	-26.57	122.04	-28.29	-103.14	-28.28	-103.11	-23.26	-126.77
19.41	-26.4	122.79	-28.39	-105.07	-28.38	-104.94	-23.53	-127.48
19.51	-26.34	122.77	-28.41	-106.43	-28.41	-106.13	-23.79	-128
19.61	-26.09	122.2	-28.46	-107.08	-28.49	-106.82	-23.93	-127.11
19.71	-26.03	121.35	-28.42	-107.72	-28.44	-107.48	-23.98	-127.87
19.81	-26.18	120.35	-28.23	-109.21	-28.24	-109.17	-24.17	-128.02
19.91	-26.21	121.02	-28.32	-111.33	-28.35	-111.3	-24.4	-128.4
20.01	-26.2	122.4	-28.45	-112.96	-28.45	-112.88	-24.66	-127.61