!s2p File: Measurements: S11, S21, S12, S22								
# GHz S dB R 50.0								
0.01	-15.58	-0.81	-11.39	-0.41	-11.39	-0.42	-19.67	-1.78
0.11	-15.85	-1.86	-11.52	-1.41	-11.51	-1.41	-20.32	-3.71
0.21	-15.93	-2.36	-11.55	-2.15	-11.54	-2.15	-20.48	-4.16
0.31	-15.95	-2.93	-11.56	-2.95	-11.56	-2.93	-20.53	-4.86
0.41	-15.97	-3.54	-11.57	-3.75	-11.56	-3.74	-20.56	-5.76
0.51	-15.98	-4.18	-11.57	-4.58	-11.57	-4.58	-20.58	-6.73
0.61	-15.98	-4.83	-11.57	-5.41	-11.57	-5.41	-20.6	-7.73
0.71	-15.98	-5.52	-11.58	-6.25	-11.57	-6.25	-20.6	-8.76
0.81	-15.99	-6.21	-11.58	-7.11	-11.58	-7.1	-20.61	-9.84
0.91	-15.99	-6.91	-11.58	-7.94	-11.58	-7.94	-20.62	-10.91
1.01	-16	-7.61	-11.59	-8.79	-11.58	-8.79	-20.63	-11.99
1.11	-16	-8.32	-11.59	-9.63	-11.59	-9.64	-20.64	-13.09
1.21	-16.01	-9.06	-11.6	-10.49	-11.59	-10.48	-20.65	-14.19
1.31	-16.01	-9.81	-11.6	-11.34	-11.6	-11.34	-20.65	-15.33
1.41	-16.02	-10.58	-11.6	-12.2	-11.6	-12.19	-20.67	-16.49
1.51	-16.03	-11.33	-11.61	-13.05	-11.6	-13.04	-20.69	-17.54
1.61	-16.03	-12.07	-11.61	-13.89	-11.61	-13.9	-20.7	-18.64
1.71	-16.02	-12.84	-11.62	-14.74	-11.61	-14.73	-20.71	-19.8
1.81	-16.03	-13.68	-11.62	-15.58	-11.62	-15.58	-20.71	-20.99
1.91	-16.03	-14.46	-11.63	-16.42	-11.62	-16.43	-20.73	-22.19
2.01	-16.04	-15.24	-11.63	-17.28	-11.63	-17.28	-20.75	-23.36
2.11	-16.05	-16.01	-11.64	-18.14	-11.63	-18.12	-20.77	-24.49
2.21	-16.05	-16.8	-11.64	-18.98	-11.64	-18.98	-20.78	-25.62
2.31	-16.06	-17.56	-11.65	-19.82	-11.65	-19.82	-20.8	-26.76
2.41	-16.07	-18.33	-11.65	-20.66	-11.65	-20.66	-20.83	-27.88
2.51	-16.08	-19.08	-11.66	-21.5	-11.66	-21.5	-20.85	-29.03
2.61	-16.09	-19.82	-11.67	-22.34	-11.66	-22.34	-20.88	-30.17
2.71	-16.11	-20.55	-11.67	-23.19	-11.67	-23.19	-20.9	-31.29
2.81	-16.12	-21.26	-11.68	-24.03	-11.68	-24.02	-20.93	-32.42
2.91	-16.13	-22	-11.68	-24.87	-11.68	-24.87	-20.96	-33.53
3.01	-16.15	-22.76	-11.69	-25.7	-11.69	-25.7	-20.99	-34.61
3.11	-16.16	-23.53	-11.7	-26.54	-11.7	-26.54	-21.01	-35.73
3.21	-16.18	-24.29	-11.7	-27.38	-11.7	-27.38	-21.04	-36.84
3.31	-16.2	-25.07	-11.71	-28.22	-11.71	-28.23	-21.07	-37.97
3.41	-16.22	-25.84	-11.72	-29.06	-11.71	-29.06	-21.11	-39.08
3.51	-16.23	-26.59	-11.72	-29.89	-11.72	-29.9	-21.14	-40.19
3.61	-16.25	-27.37	-11.73	-30.72	-11.73	-30.75	-21.17	-41.31
3.71	-16.26	-28.19	-11.74	-31.56	-11.74	-31.59	-21.2	-42.46
3.81	-16.29	-29.03	-11.75	-32.41	-11.74	-32.42	-21.23	-43.59
3.91	-16.31	-29.79	-11.75	-33.25	-11.75	-33.27	-21.27	-44.82
4.01	-16.33	-30.54	-11.76	-34.1	-11.76	-34.1	-21.31	-45.93
4.11	-16.34	-31.31	-11.77	-34.95	-11.77	-34.94	-21.36	-47.05
4.21	-16.36	-32.1	-11.77	-35.78	-11.77	-35.77	-21.39	-48.08
4.31	-16.38	-32.96	-11.78	-36.59	-11.79	-36.61	-21.41	-49.21
4.41	-16.41	-33.81	-11.79	-37.43	-11.79	-37.43	-21.44	-50.38
4.51	-16.43	-34.6	-11.8	-38.25	-11.8	-38.27	-21.48	-51.59
4.61	-16.46	-35.35	-11.81	-39.1	-11.81	-39.12	-21.52	-52.74
4.71	-16.48	-36.05	-11.82	-39.96	-11.82	-39.95	-21.58	-53.9
4.81	-16.49	-36.82	-11.83	-40.79	-11.83	-40.77	-21.63	-54.93
4.91	-16.5	-37.62	-11.83	-41.62	-11.84	-41.61	-21.67	-55.97
5.01	-16.52	-38.45	-11.84	-42.44	-11.85	-42.44	-21.71	-57.03
5.11	-16.55	-39.28	-11.85	-43.26	-11.85	-43.26	-21.74	-58.12
5.21	-16.58	-40.04	-11.86	-44.09	-11.86	-44.11	-21.78	-59.27
5.31	-16.61	-40.79	-11.87	-44.95	-11.87	-44.94	-21.82	-60.44
5.41	-16.64	-41.48	-11.89	-45.78	-11.88	-45.77	-21.89	-61.61
5.51	-16.67	-42.19	-11.9	-46.61	-11.89	-46.6	-21.96	-62.66
5.61	-16.69	-42.97	-11.9	-47.45	-11.91	-47.44	-22.01	-63.64
5.71	-16.72	-43.77	-11.91	-48.29	-11.92	-48.27	-22.06	-64.7
5.81	-16.76	-44.62	-11.92	-49.09	-11.92	-49.09	-22.1	-65.69
5.91	-16.8	-45.4	-11.94	-49.93	-11.94	-49.93	-22.13	-66.84
6.01	-16.83	-46.19	-11.95	-50.77	-11.95	-50.76	-22.17	-68.01
6.11	-16.87	-46.92	-11.96	-51.6	-11.96	-51.6	-22.23	-69.12
6.21	-16.9	-47.68	-11.97	-52.42	-11.97	-52.42	-22.29	-70.25
6.31	-16.92	-48.45	-11.98	-53.25	-11.98	-53.25	-22.34	-71.23
6.41	-16.94	-49.26	-12	-54.06	-12	-54.07	-22.41	-72.3
6.51	-16.96	-50.11	-12.01	-54.87	-12.01	-54.89	-22.45	-73.29
6.61	-17	-50.96	-12.02	-55.72	-12.02	-55.71	-22.51	-74.4
6.71	-17.04	-51.78	-12.03	-56.55	-12.03	-56.53	-22.55	-75.53
6.81	-17.07	-52.57	-12.05	-57.36	-12.05	-57.34	-22.61	-76.74
6.91	-17.1	-53.38	-12.06	-58.17	-12.06	-58.17	-22.67	-77.92
7.01	-17.12	-54.16	-12.07	-58.98	-12.08	-58.99	-22.74	-79.01
7.11	-17.15	-54.97	-12.09	-59.77	-12.09	-59.8	-22.8	-80.05
7.21	-17.18	-55.8	-12.1	-60.61	-12.1	-60.63	-22.86	-80.99
7.31	-17.21	-56.58	-12.12	-61.47	-12.11	-61.46	-22.88	-81.98
7.41	-17.24	-57.38	-12.13	-62.3	-12.13	-62.28	-22.9	-83.06
7.51	-17.26	-58.2	-12.15	-63.09	-12.15	-63.07	-22.95	-84.32
7.61	-17.3	-58.98	-12.16	-63.9	-12.17	-63.87	-23.02	-85.52
7.71	-17.32	-59.76	-12.18	-64.69	-12.18	-64.66	-23.08	-86.65
7.81	-17.35	-60.56	-12.19	-65.44	-12.2	-65.47	-23.15	-87.8
7.91	-17.39	-61.34	-12.21	-66.27	-12.22	-66.28	-23.2	-88.8
8.01	-17.43	-62.2	-12.22	-67.07	-12.23	-67.08	-23.25	-89.96
8.11	-17.47	-63.07	-12.24	-67.86	-12.24	-67.85	-23.3	-91.18
8.21	-17.52	-63.92	-12.26	-68.65	-12.26	-68.66	-23.34	-92.43
8.31	-17.56	-64.73	-12.27	-69.46	-12.28	-69.45	-23.39	-93.63
8.41	-17.6	-65.59	-12.28	-70.23	-12.29	-70.21	-23.44	-94.88
8.51	-17.63	-66.48	-12.3	-71.01	-12.31	-71	-23.49	-96.21
8.61	-17.66	-67.43	-12.32	-71.77	-12.33	-71.75	-23.54	-97.46
8.71	-17.69	-68.41	-12.34	-72.54	-12.35	-72.49	-23.6	-98.71
8.81	-17.73	-69.34	-12.36	-73.29	-12.36	-73.26	-23.65	-99.99
8.91	-17.78	-70.3	-12.37	-74.04	-12.37	-74.03	-23.7	-101.32
9.01	-17.82	-71.21	-12.38	-74.82	-12.39	-74.75	-23.75	-102.79
9.11	-17.86	-72.14	-12.4	-75.53	-12.41	-75.5	-23.82	-104.16
9.21	-17.91	-73.09	-12.41	-76.28	-12.42	-76.26	-23.89	-105.6
9.31	-17.95	-74.01	-12.43	-77.05	-12.43	-77	-23.96	-107.06
9.41	-17.99	-74.93	-12.43	-77.79	-12.44	-77.75	-24.03	-108.46
9.51	-18.02	-75.87	-12.45	-78.54	-12.45	-78.52	-24.11	-109.95
9.61	-18.08	-76.82	-12.46	-79.29	-12.46	-79.24	-24.2	-111.35
9.71	-18.12	-77.79	-12.47	-80.02	-12.47	-79.99	-24.28	-112.75
9.81	-18.17	-78.71	-12.48	-80.75	-12.48	-80.75	-24.37	-114.31
9.91	-18.22	-79.54	-12.49	-81.52	-12.49	-81.49	-24.47	-115.86
10.01	-18.26	-80.42	-12.49	-82.28	-12.5	-82.23	-24.55	-117.38
10.11	-18.3	-81.29	-12.51	-83.03	-12.51	-82.97	-24.65	-119.03
10.21	-18.36	-82.19	-12.52	-83.74	-12.52	-83.73	-24.77	-120.69
10.31	-18.42	-83.1	-12.52	-84.5	-12.53	-84.47	-24.88	-122.21
10.41	-18.47	-84.03	-12.53	-85.24	-12.53	-85.24	-25.03	-123.7
10.51	-18.54	-84.95	-12.54	-85.99	-12.54	-86	-25.15	-125.17
10.61	-18.61	-85.93	-12.54	-86.78	-12.54	-86.75	-25.26	-126.74
10.71	-18.68	-86.83	-12.55	-87.58	-12.55	-87.5	-25.37	-128.27
10.81	-18.74	-87.71	-12.55	-88.35	-12.56	-88.27	-25.48	-129.99
10.91	-18.8	-88.75	-12.56	-89.12	-12.56	-89.06	-25.6	-131.84
11.01	-18.87	-89.6	-12.56	-89.89	-12.57	-89.84	-25.76	-133.7
11.11	-18.92	-90.52	-12.57	-90.64	-12.58	-90.63	-25.91	-135.33
11.21	-18.98	-91.51	-12.58	-91.42	-12.58	-91.42	-26.05	-136.97
11.31	-19.04	-92.33	-12.59	-92.19	-12.59	-92.2	-26.19	-138.39
11.41	-19.09	-93.32	-12.59	-92.99	-12.59	-92.99	-26.29	-140
11.51	-19.15	-94.19	-12.6	-93.82	-12.6	-93.7	-26.42	-141.72
11.61	-19.2	-95.05	-12.61	-94.57	-12.6	-94.48	-26.53	-143.56
11.71	-19.25	-95.99	-12.6	-95.33	-12.62	-95.29	-26.64	-145.43
11.81	-19.31	-97	-12.61	-96.09	-12.63	-96.05	-26.81	-147.57
11.91	-19.38	-97.87	-12.63	-96.88	-12.63	-96.87	-27.02	-149.25
12.01	-19.42	-98.85	-12.63	-97.63	-12.64	-97.69	-27.14	-150.72
12.11	-19.46	-99.72	-12.65	-98.49	-12.65	-98.48	-27.28	-152.42
12.21	-19.51	-100.63	-12.66	-99.25	-12.65	-99.22	-27.41	-154.13
12.31	-19.57	-101.52	-12.67	-100.08	-12.67	-100.01	-27.53	-155.88
12.41	-19.61	-102.47	-12.66	-100.91	-12.68	-100.75	-27.62	-157.55
12.51	-19.67	-103.44	-12.68	-101.67	-12.69	-101.55	-27.71	-159.95
12.61	-19.72	-104.33	-12.68	-102.4	-12.69	-102.34	-27.87	-162.14
12.71	-19.8	-105.29	-12.68	-103.16	-12.7	-103.15	-28.04	-164.35
12.81	-19.88	-106.21	-12.7	-103.94	-12.71	-103.98	-28.29	-166.51
12.91	-19.97	-107.03	-12.72	-104.74	-12.71	-104.71	-28.44	-168.26
13.01	-20.02	-108.03	-12.72	-105.57	-12.72	-105.53	-28.65	-170.18
13.11	-20.11	-108.89	-12.73	-106.42	-12.73	-106.34	-28.74	-171.87
13.21	-20.14	-109.63	-12.76	-107.18	-12.76	-107.03	-28.8	-173.84
13.31	-20.2	-110.88	-12.75	-107.89	-12.76	-107.77	-28.9	-176.85
13.41	-20.25	-111.9	-12.75	-108.66	-12.77	-108.62	-29.09	-179.13
13.51	-20.31	-113.07	-12.76	-109.43	-12.78	-109.38	-29.12	178.84
13.61	-20.36	-114.1	-12.77	-110.17	-12.78	-110.19	-29.31	176.46
13.71	-20.44	-115.1	-12.77	-110.96	-12.78	-110.95	-29.39	173.82
13.81	-20.48	-116.07	-12.8	-111.81	-12.8	-111.78	-29.56	171.6
13.91	-20.55	-117.03	-12.81	-112.64	-12.8	-112.5	-29.61	169.49
14.01	-20.58	-118	-12.81	-113.46	-12.81	-113.32	-29.71	167.29
14.11	-20.62	-119.08	-12.81	-114.23	-12.83	-114.09	-29.67	164.53
14.21	-20.68	-120.2	-12.83	-115	-12.85	-114.86	-29.71	161.36
14.31	-20.76	-121.42	-12.83	-115.71	-12.85	-115.64	-29.83	158.59
14.41	-20.81	-122.14	-12.83	-116.49	-12.85	-116.48	-29.92	155.6
14.51	-20.88	-123.32	-12.86	-117.36	-12.86	-117.3	-30.02	152.93
14.61	-20.92	-124.15	-12.88	-118.17	-12.87	-118.06	-30.15	150.69
14.71	-20.95	-125.12	-12.89	-118.94	-12.88	-118.76	-30.22	148.61
14.81	-20.98	-125.91	-12.89	-119.78	-12.89	-119.58	-30.19	146.27
14.91	-20.97	-126.97	-12.91	-120.59	-12.92	-120.4	-30.15	143.53
15.01	-21.05	-128.1	-12.91	-121.28	-12.93	-121.11	-30.11	140.17
15.11	-21.11	-129.33	-12.92	-122.05	-12.93	-121.96	-30.18	137.55
15.21	-21.2	-130.14	-12.93	-122.81	-12.93	-122.77	-30.24	134.4
15.31	-21.29	-130.88	-12.95	-123.64	-12.94	-123.52	-30.27	131.92
15.41	-21.33	-131.85	-12.97	-124.39	-12.96	-124.27	-30.24	129.02
15.51	-21.37	-132.76	-12.99	-125.15	-12.97	-124.99	-30.26	126.62
15.61	-21.4	-134.11	-13	-125.97	-12.99	-125.77	-30.18	124.67
15.71	-21.43	-135.35	-12.99	-126.74	-13	-126.52	-30	122.03
15.81	-21.49	-136.51	-13.01	-127.49	-13.01	-127.32	-29.91	119.47
15.91	-21.53	-137.86	-13.02	-128.26	-13.02	-128.15	-29.83	116.83
16.01	-21.64	-138.9	-13.04	-128.96	-13.03	-128.89	-29.74	114.36
16.11	-21.7	-139.96	-13.05	-129.64	-13.04	-129.62	-29.65	111.92
16.21	-21.77	-140.69	-13.07	-130.46	-13.04	-130.36	-29.53	110.06
16.31	-21.75	-141.45	-13.07	-131.23	-13.06	-131.04	-29.4	107.4
16.41	-21.74	-142.71	-13.07	-131.96	-13.06	-131.74	-29.29	105.36
16.51	-21.77	-144.08	-13.08	-132.78	-13.07	-132.59	-29.18	103.27
16.61	-21.83	-145.22	-13.08	-133.57	-13.08	-133.37	-29.03	101.45
16.71	-21.85	-146.28	-13.1	-134.18	-13.09	-134.15	-28.76	100.33
16.81	-21.92	-147.21	-13.11	-134.98	-13.08	-134.95	-28.43	97.32
16.91	-21.98	-148.14	-13.14	-135.69	-13.09	-135.63	-28.13	94.83
17.01	-21.93	-148.55	-13.14	-136.36	-13.09	-136.36	-27.94	90.76
17.11	-21.91	-149.69	-13.16	-137.11	-13.1	-137.09	-27.97	86.44
17.21	-21.86	-150.99	-13.15	-137.77	-13.11	-137.87	-28.59	84.77
17.31	-21.9	-152.33	-13.14	-138.45	-13.13	-138.67	-28.51	87.35
17.41	-21.95	-153.57	-13.11	-139.09	-13.13	-139.42	-27.88	89.96
17.51	-21.99	-154.63	-13.1	-139.96	-13.12	-140.26	-26.92	86.2
17.61	-22.1	-155.45	-13.08	-140.58	-13.12	-140.99	-26.55	80.86
17.71	-22.14	-156.03	-13.07	-141.59	-13.11	-141.74	-26.71	75.73
17.81	-22.14	-156.73	-13.09	-142.42	-13.11	-142.48	-26.94	74.1
17.91	-22.14	-157.81	-13.08	-143.42	-13.12	-143.3	-26.85	75.29
18.01	-22.13	-159.58	-13.1	-144.3	-13.13	-144.09	-26.41	74.97
18.11	-22.24	-160.63	-13.1	-145.1	-13.14	-144.84	-25.89	72.75
18.21	-22.24	-161.92	-13.1	-145.88	-13.14	-145.72	-25.63	69.42
18.31	-22.25	-163.1	-13.09	-146.72	-13.13	-146.56	-25.4	66.67
18.41	-22.29	-164.2	-13.11	-147.46	-13.14	-147.38	-25.5	63.84
18.51	-22.25	-165.13	-13.12	-148.25	-13.13	-148.12	-25.36	62.82
18.61	-22.25	-166.08	-13.15	-149.15	-13.14	-148.88	-25.35	61.59
18.71	-22.17	-166.82	-13.14	-149.9	-13.14	-149.68	-25.21	60.92
18.81	-22.11	-168.36	-13.13	-150.77	-13.15	-150.5	-24.98	60.2
18.91	-22.13	-169.49	-13.14	-151.64	-13.14	-151.38	-24.63	59.15
19.01	-22.11	-170.88	-13.12	-152.44	-13.15	-152.31	-24.41	56.72
19.11	-22.09	-171.88	-13.14	-153.2	-13.16	-153.14	-24.28	54.96
19.21	-22.09	-172.79	-13.16	-154.04	-13.15	-153.87	-24.2	53.34
19.31	-22.02	-173.97	-13.15	-154.84	-13.14	-154.73	-24.06	52.81
19.41	-21.98	-175.26	-13.16	-155.88	-13.16	-155.71	-23.78	51.62
19.51	-21.93	-176.39	-13.19	-156.78	-13.18	-156.49	-23.54	50.15
19.61	-21.94	-178.03	-13.2	-157.59	-13.21	-157.33	-23.43	47.96
19.71	-21.96	-178.96	-13.2	-158.38	-13.21	-158.14	-23.33	47.14
19.81	-21.98	-179.94	-13.19	-159.1	-13.2	-158.99	-23.17	45.44
19.91	-21.97	179.23	-13.18	-160.06	-13.2	-159.94	-22.98	44.46
20.01	-21.9	178.2	-13.22	-160.94	-13.2	-160.81	-22.75	42.55