!s2p File: Measurements: S11, S21, S12, S22								
# GHz S dB R 50.0								
0.01	-13.5	-1.02	-6.76	-0.43	-6.76	-0.44	-16.51	-1.27
0.11	-13.83	-2.09	-6.88	-1.5	-6.88	-1.5	-17	-2.89
0.21	-13.92	-2.54	-6.92	-2.31	-6.91	-2.31	-17.14	-3.18
0.31	-13.95	-3.1	-6.93	-3.16	-6.93	-3.16	-17.18	-3.64
0.41	-13.97	-3.71	-6.94	-4.03	-6.93	-4.03	-17.21	-4.21
0.51	-13.98	-4.35	-6.94	-4.92	-6.94	-4.92	-17.23	-4.86
0.61	-13.99	-5.01	-6.95	-5.81	-6.94	-5.82	-17.24	-5.56
0.71	-13.98	-5.72	-6.95	-6.73	-6.95	-6.72	-17.24	-6.27
0.81	-13.99	-6.41	-6.95	-7.64	-6.95	-7.63	-17.25	-7.02
0.91	-13.99	-7.13	-6.96	-8.54	-6.95	-8.54	-17.26	-7.76
1.01	-14	-7.85	-6.96	-9.45	-6.96	-9.45	-17.26	-8.51
1.11	-14	-8.57	-6.96	-10.36	-6.96	-10.36	-17.26	-9.28
1.21	-14.01	-9.31	-6.97	-11.27	-6.96	-11.27	-17.27	-10.06
1.31	-14.01	-10.08	-6.97	-12.19	-6.97	-12.19	-17.27	-10.87
1.41	-14.02	-10.85	-6.98	-13.12	-6.97	-13.1	-17.29	-11.68
1.51	-14.03	-11.62	-6.98	-14.03	-6.98	-14.02	-17.3	-12.43
1.61	-14.03	-12.37	-6.98	-14.94	-6.98	-14.94	-17.3	-13.22
1.71	-14.02	-13.15	-6.99	-15.85	-6.98	-15.84	-17.3	-14.03
1.81	-14.03	-13.98	-6.99	-16.77	-6.99	-16.76	-17.31	-14.89
1.91	-14.03	-14.77	-7	-17.67	-6.99	-17.67	-17.32	-15.74
2.01	-14.04	-15.55	-7	-18.59	-7	-18.59	-17.34	-16.57
2.11	-14.04	-16.33	-7.01	-19.5	-7.01	-19.5	-17.35	-17.37
2.21	-14.05	-17.12	-7.01	-20.41	-7.01	-20.4	-17.36	-18.18
2.31	-14.06	-17.9	-7.02	-21.32	-7.02	-21.32	-17.37	-18.98
2.41	-14.06	-18.67	-7.03	-22.23	-7.02	-22.22	-17.39	-19.79
2.51	-14.07	-19.44	-7.03	-23.13	-7.03	-23.13	-17.4	-20.59
2.61	-14.09	-20.21	-7.04	-24.04	-7.03	-24.04	-17.42	-21.39
2.71	-14.1	-20.94	-7.04	-24.95	-7.04	-24.94	-17.44	-22.17
2.81	-14.11	-21.67	-7.05	-25.86	-7.05	-25.85	-17.46	-22.98
2.91	-14.12	-22.41	-7.06	-26.76	-7.05	-26.75	-17.48	-23.74
3.01	-14.13	-23.19	-7.06	-27.66	-7.06	-27.66	-17.49	-24.49
3.11	-14.14	-23.96	-7.07	-28.56	-7.07	-28.56	-17.51	-25.3
3.21	-14.16	-24.74	-7.08	-29.46	-7.07	-29.47	-17.53	-26.1
3.31	-14.17	-25.52	-7.08	-30.38	-7.08	-30.37	-17.55	-26.9
3.41	-14.19	-26.29	-7.09	-31.27	-7.09	-31.28	-17.57	-27.69
3.51	-14.2	-27.06	-7.09	-32.18	-7.09	-32.18	-17.59	-28.45
3.61	-14.21	-27.84	-7.1	-33.07	-7.1	-33.09	-17.62	-29.24
3.71	-14.22	-28.64	-7.11	-33.98	-7.11	-33.99	-17.63	-30.04
3.81	-14.24	-29.47	-7.12	-34.88	-7.12	-34.89	-17.66	-30.87
3.91	-14.26	-30.26	-7.12	-35.79	-7.12	-35.8	-17.69	-31.71
4.01	-14.28	-31.01	-7.13	-36.71	-7.13	-36.71	-17.71	-32.49
4.11	-14.29	-31.8	-7.14	-37.62	-7.14	-37.6	-17.74	-33.24
4.21	-14.3	-32.59	-7.14	-38.51	-7.15	-38.5	-17.76	-33.98
4.31	-14.32	-33.43	-7.15	-39.4	-7.16	-39.41	-17.78	-34.8
4.41	-14.34	-34.26	-7.16	-40.3	-7.16	-40.31	-17.8	-35.62
4.51	-14.36	-35.04	-7.17	-41.2	-7.17	-41.21	-17.83	-36.46
4.61	-14.39	-35.82	-7.18	-42.11	-7.18	-42.12	-17.86	-37.25
4.71	-14.39	-36.53	-7.19	-43.03	-7.19	-43.01	-17.9	-38.02
4.81	-14.41	-37.31	-7.2	-43.93	-7.2	-43.91	-17.93	-38.74
4.91	-14.42	-38.11	-7.21	-44.83	-7.21	-44.81	-17.96	-39.47
5.01	-14.43	-38.91	-7.21	-45.72	-7.22	-45.7	-17.98	-40.21
5.11	-14.45	-39.72	-7.22	-46.6	-7.23	-46.59	-18	-41
5.21	-14.48	-40.48	-7.23	-47.5	-7.24	-47.5	-18.03	-41.76
5.31	-14.5	-41.23	-7.25	-48.41	-7.25	-48.41	-18.06	-42.59
5.41	-14.53	-41.95	-7.25	-49.32	-7.26	-49.3	-18.1	-43.35
5.51	-14.54	-42.67	-7.27	-50.21	-7.26	-50.2	-18.14	-44.06
5.61	-14.56	-43.47	-7.27	-51.12	-7.27	-51.1	-18.17	-44.72
5.71	-14.58	-44.26	-7.28	-52.02	-7.28	-51.99	-18.2	-45.45
5.81	-14.61	-45.09	-7.29	-52.9	-7.3	-52.89	-18.22	-46.17
5.91	-14.64	-45.86	-7.31	-53.79	-7.31	-53.78	-18.24	-46.99
6.01	-14.67	-46.65	-7.31	-54.7	-7.32	-54.69	-18.27	-47.81
6.11	-14.69	-47.39	-7.33	-55.61	-7.33	-55.58	-18.31	-48.58
6.21	-14.71	-48.15	-7.34	-56.49	-7.34	-56.48	-18.35	-49.3
6.31	-14.72	-48.92	-7.35	-57.38	-7.35	-57.36	-18.37	-49.99
6.41	-14.74	-49.75	-7.36	-58.26	-7.36	-58.26	-18.41	-50.71
6.51	-14.76	-50.58	-7.38	-59.14	-7.38	-59.15	-18.44	-51.44
6.61	-14.79	-51.41	-7.39	-60.06	-7.39	-60.03	-18.47	-52.21
6.71	-14.81	-52.23	-7.4	-60.95	-7.4	-60.93	-18.51	-52.97
6.81	-14.83	-53.01	-7.41	-61.84	-7.41	-61.82	-18.55	-53.78
6.91	-14.85	-53.83	-7.43	-62.72	-7.43	-62.7	-18.59	-54.57
7.01	-14.86	-54.64	-7.44	-63.6	-7.44	-63.59	-18.63	-55.3
7.11	-14.88	-55.46	-7.45	-64.45	-7.45	-64.47	-18.66	-56
7.21	-14.91	-56.3	-7.46	-65.37	-7.47	-65.37	-18.69	-56.66
7.31	-14.93	-57.06	-7.48	-66.29	-7.48	-66.26	-18.7	-57.39
7.41	-14.94	-57.87	-7.5	-67.18	-7.5	-67.14	-18.71	-58.23
7.51	-14.96	-58.69	-7.51	-68.05	-7.51	-68.01	-18.75	-59.09
7.61	-14.98	-59.49	-7.52	-68.93	-7.53	-68.89	-18.8	-59.86
7.71	-14.99	-60.3	-7.53	-69.79	-7.54	-69.75	-18.84	-60.63
7.81	-15.01	-61.11	-7.55	-70.61	-7.56	-70.64	-18.88	-61.39
7.91	-15.04	-61.92	-7.57	-71.52	-7.57	-71.52	-18.91	-62.09
8.01	-15.07	-62.79	-7.58	-72.39	-7.59	-72.39	-18.94	-62.92
8.11	-15.1	-63.66	-7.6	-73.26	-7.6	-73.24	-18.98	-63.75
8.21	-15.13	-64.53	-7.62	-74.13	-7.62	-74.11	-19.01	-64.62
8.31	-15.16	-65.37	-7.63	-75.01	-7.63	-74.97	-19.05	-65.49
8.41	-15.18	-66.26	-7.64	-75.84	-7.65	-75.81	-19.09	-66.35
8.51	-15.2	-67.17	-7.66	-76.7	-7.67	-76.68	-19.14	-67.25
8.61	-15.22	-68.13	-7.68	-77.56	-7.68	-77.52	-19.18	-68.11
8.71	-15.24	-69.14	-7.69	-78.41	-7.7	-78.35	-19.22	-68.95
8.81	-15.27	-70.06	-7.71	-79.25	-7.71	-79.19	-19.26	-69.82
8.91	-15.31	-71.05	-7.72	-80.07	-7.73	-80.05	-19.31	-70.73
9.01	-15.34	-71.98	-7.73	-80.93	-7.74	-80.85	-19.36	-71.7
9.11	-15.37	-72.9	-7.75	-81.73	-7.75	-81.68	-19.42	-72.6
9.21	-15.41	-73.86	-7.76	-82.57	-7.77	-82.53	-19.49	-73.49
9.31	-15.44	-74.81	-7.78	-83.42	-7.78	-83.36	-19.55	-74.4
9.41	-15.48	-75.76	-7.79	-84.25	-7.79	-84.18	-19.61	-75.3
9.51	-15.51	-76.69	-7.8	-85.09	-7.8	-85.04	-19.69	-76.14
9.61	-15.55	-77.64	-7.82	-85.93	-7.81	-85.85	-19.75	-76.98
9.71	-15.59	-78.61	-7.82	-86.75	-7.83	-86.69	-19.83	-77.83
9.81	-15.63	-79.52	-7.83	-87.55	-7.84	-87.53	-19.91	-78.68
9.91	-15.67	-80.38	-7.84	-88.41	-7.84	-88.36	-19.99	-79.52
10.01	-15.7	-81.28	-7.85	-89.25	-7.86	-89.19	-20.07	-80.41
10.11	-15.74	-82.14	-7.86	-90.11	-7.87	-90.02	-20.16	-81.23
10.21	-15.78	-83.06	-7.87	-90.91	-7.87	-90.87	-20.26	-82.08
10.31	-15.83	-84	-7.88	-91.75	-7.89	-91.69	-20.34	-82.87
10.41	-15.88	-84.88	-7.89	-92.58	-7.89	-92.55	-20.44	-83.51
10.51	-15.94	-85.81	-7.91	-93.41	-7.9	-93.4	-20.53	-84.23
10.61	-15.99	-86.73	-7.91	-94.28	-7.91	-94.25	-20.62	-84.97
10.71	-16.04	-87.63	-7.91	-95.17	-7.92	-95.07	-20.7	-85.74
10.81	-16.09	-88.53	-7.92	-96.02	-7.93	-95.92	-20.8	-86.57
10.91	-16.14	-89.53	-7.93	-96.89	-7.94	-96.78	-20.91	-87.41
11.01	-16.21	-90.42	-7.94	-97.74	-7.95	-97.66	-21.03	-88.15
11.11	-16.25	-91.29	-7.95	-98.56	-7.96	-98.53	-21.12	-88.78
11.21	-16.3	-92.17	-7.97	-99.42	-7.97	-99.39	-21.23	-89.47
11.31	-16.35	-93.01	-7.98	-100.27	-7.97	-100.25	-21.32	-90.09
11.41	-16.39	-93.89	-7.98	-101.16	-7.98	-101.11	-21.4	-90.8
11.51	-16.43	-94.76	-8	-102.06	-7.99	-101.92	-21.51	-91.54
11.61	-16.47	-95.64	-8	-102.9	-8	-102.78	-21.62	-92.33
11.71	-16.51	-96.53	-8	-103.74	-8.02	-103.67	-21.71	-93.1
11.81	-16.56	-97.5	-8.01	-104.59	-8.03	-104.5	-21.85	-93.8
11.91	-16.62	-98.33	-8.03	-105.44	-8.04	-105.38	-21.96	-94.2
12.01	-16.66	-99.2	-8.04	-106.27	-8.05	-106.3	-22.05	-94.76
12.11	-16.69	-100.04	-8.06	-107.19	-8.06	-107.13	-22.14	-95.43
12.21	-16.71	-100.85	-8.08	-108.04	-8.06	-107.98	-22.24	-96.09
12.31	-16.76	-101.75	-8.08	-108.96	-8.08	-108.85	-22.34	-96.78
12.41	-16.78	-102.72	-8.08	-109.87	-8.09	-109.67	-22.42	-97.44
12.51	-16.83	-103.64	-8.1	-110.71	-8.11	-110.55	-22.55	-98.36
12.61	-16.87	-104.55	-8.1	-111.51	-8.12	-111.42	-22.68	-98.96
12.71	-16.94	-105.44	-8.11	-112.35	-8.13	-112.3	-22.8	-99.53
12.81	-17.01	-106.25	-8.13	-113.2	-8.14	-113.21	-22.94	-99.9
12.91	-17.07	-107.02	-8.15	-114.08	-8.15	-114.03	-23.04	-100.34
13.01	-17.1	-107.92	-8.15	-114.99	-8.15	-114.9	-23.16	-100.74
13.11	-17.16	-108.73	-8.17	-115.92	-8.17	-115.81	-23.24	-101.38
13.21	-17.17	-109.56	-8.2	-116.77	-8.2	-116.58	-23.36	-102.25
13.31	-17.22	-110.69	-8.19	-117.58	-8.2	-117.42	-23.53	-102.91
13.41	-17.25	-111.7	-8.2	-118.43	-8.21	-118.36	-23.64	-103.32
13.51	-17.31	-112.73	-8.21	-119.28	-8.23	-119.2	-23.74	-104.12
13.61	-17.35	-113.63	-8.23	-120.09	-8.24	-120.07	-23.87	-104.49
13.71	-17.4	-114.61	-8.23	-120.96	-8.24	-120.93	-24.02	-105.14
13.81	-17.43	-115.48	-8.26	-121.89	-8.26	-121.85	-24.14	-105.5
13.91	-17.48	-116.42	-8.28	-122.82	-8.27	-122.62	-24.23	-106.25
14.01	-17.5	-117.32	-8.29	-123.69	-8.28	-123.52	-24.36	-106.73
14.11	-17.53	-118.39	-8.29	-124.53	-8.3	-124.36	-24.5	-107.77
14.21	-17.57	-119.47	-8.3	-125.42	-8.32	-125.22	-24.68	-108.39
14.31	-17.65	-120.54	-8.31	-126.21	-8.33	-126.1	-24.85	-108.72
14.41	-17.7	-121.24	-8.32	-127.05	-8.34	-126.99	-24.99	-109.08
14.51	-17.74	-122.13	-8.35	-127.99	-8.35	-127.88	-25.12	-109.59
14.61	-17.76	-122.92	-8.37	-128.86	-8.36	-128.72	-25.24	-109.89
14.71	-17.78	-123.87	-8.39	-129.73	-8.38	-129.52	-25.34	-110.32
14.81	-17.79	-124.69	-8.4	-130.63	-8.39	-130.4	-25.46	-111.09
14.91	-17.79	-125.7	-8.41	-131.51	-8.42	-131.28	-25.62	-111.81
15.01	-17.84	-126.8	-8.41	-132.32	-8.43	-132.1	-25.82	-112.36
15.11	-17.9	-127.85	-8.43	-133.16	-8.44	-133.03	-25.96	-112.59
15.21	-17.97	-128.57	-8.45	-133.99	-8.45	-133.92	-26.13	-112.76
15.31	-18.01	-129.26	-8.48	-134.87	-8.47	-134.74	-26.25	-113.11
15.41	-18.03	-130.14	-8.5	-135.73	-8.48	-135.58	-26.44	-113.68
15.51	-18.04	-131.05	-8.52	-136.59	-8.5	-136.39	-26.57	-113.85
15.61	-18.06	-132.36	-8.53	-137.5	-8.52	-137.27	-26.71	-114.63
15.71	-18.09	-133.58	-8.53	-138.35	-8.54	-138.07	-26.89	-115.49
15.81	-18.15	-134.71	-8.55	-139.17	-8.56	-138.97	-27.07	-116.05
15.91	-18.19	-135.73	-8.57	-140.01	-8.57	-139.88	-27.24	-116.47
16.01	-18.26	-136.69	-8.59	-140.81	-8.59	-140.73	-27.43	-116.93
16.11	-18.29	-137.6	-8.61	-141.61	-8.6	-141.54	-27.6	-117.4
16.21	-18.32	-138.44	-8.64	-142.52	-8.61	-142.39	-27.74	-118.13
16.31	-18.31	-139.29	-8.65	-143.35	-8.63	-143.13	-27.99	-118.47
16.41	-18.31	-140.5	-8.66	-144.16	-8.65	-143.91	-28.12	-119.04
16.51	-18.34	-141.78	-8.67	-145.06	-8.66	-144.83	-28.28	-119.76
16.61	-18.39	-142.88	-8.68	-145.92	-8.68	-145.7	-28.44	-120.5
16.71	-18.42	-143.88	-8.71	-146.61	-8.69	-146.55	-28.64	-122.27
16.81	-18.47	-144.66	-8.72	-147.48	-8.7	-147.42	-29.08	-123.2
16.91	-18.5	-145.49	-8.76	-148.29	-8.71	-148.21	-29.55	-124.1
17.01	-18.46	-146.2	-8.78	-149.01	-8.73	-148.99	-30.06	-122.39
17.11	-18.43	-147.24	-8.8	-149.82	-8.74	-149.78	-30.37	-119.19
17.21	-18.42	-148.64	-8.8	-150.53	-8.76	-150.62	-29.68	-116.93
17.31	-18.46	-149.99	-8.8	-151.31	-8.78	-151.5	-29.45	-121.63
17.41	-18.52	-151.2	-8.78	-152.02	-8.79	-152.35	-29.66	-128.43
17.51	-18.58	-152.09	-8.77	-152.95	-8.79	-153.22	-30.96	-131.33
17.61	-18.65	-152.86	-8.77	-153.65	-8.8	-154.04	-32.07	-128.17
17.71	-18.68	-153.54	-8.77	-154.71	-8.81	-154.83	-32.11	-121.53
17.81	-18.67	-154.34	-8.79	-155.58	-8.82	-155.63	-31.69	-121.08
17.91	-18.68	-155.4	-8.8	-156.63	-8.84	-156.47	-31.67	-126.28
18.01	-18.71	-156.94	-8.82	-157.57	-8.86	-157.33	-32.4	-130.46
18.11	-18.79	-158	-8.83	-158.46	-8.87	-158.17	-33.54	-132.44
18.21	-18.84	-159.12	-8.84	-159.25	-8.88	-159.06	-34.47	-129.09
18.31	-18.87	-160.09	-8.84	-160.11	-8.88	-159.94	-35.22	-125.91
18.41	-18.9	-161.02	-8.87	-160.94	-8.89	-160.82	-35.05	-121.98
18.51	-18.88	-162	-8.89	-161.76	-8.9	-161.58	-35.45	-122.5
18.61	-18.88	-162.81	-8.92	-162.69	-8.91	-162.4	-35.45	-123.04
18.71	-18.82	-163.83	-8.92	-163.51	-8.92	-163.25	-35.95	-125.6
18.81	-18.82	-165.32	-8.92	-164.44	-8.95	-164.14	-36.77	-128
18.91	-18.87	-166.46	-8.94	-165.35	-8.94	-165.04	-38.22	-129.77
19.01	-18.91	-167.58	-8.94	-166.15	-8.97	-165.96	-39.26	-123.58
19.11	-18.93	-168.38	-8.96	-166.92	-8.97	-166.81	-39.82	-120.63
19.21	-18.95	-169.18	-8.99	-167.83	-8.98	-167.61	-40.34	-117.3
19.31	-18.92	-170.29	-9	-168.64	-8.99	-168.49	-41.24	-118.85
19.41	-18.9	-171.34	-9.01	-169.6	-9.01	-169.39	-43.2	-114.3
19.51	-18.89	-172.54	-9.04	-170.54	-9.03	-170.23	-44.76	-105.39
19.61	-18.96	-173.95	-9.05	-171.39	-9.06	-171.1	-44.9	-92.33
19.71	-19	-174.74	-9.05	-172.23	-9.06	-171.98	-45.59	-89.16
19.81	-19.07	-175.68	-9.07	-173.02	-9.07	-172.86	-45.28	-75.46
19.91	-19.09	-176.18	-9.06	-173.88	-9.08	-173.74	-46.08	-65.81
20.01	-19.09	-176.96	-9.1	-174.73	-9.08	-174.58	-44.91	-48.81