!s2p File: Measurements: S11, S21, S12, S22								
# GHz S dB R 50.0								
0.01	-14.96	-1.29	-4.84	-0.41	-4.83	-0.42	-20.21	-1.85
0.11	-15.41	-2.34	-4.95	-1.51	-4.95	-1.51	-21	-4.15
0.21	-15.52	-2.53	-4.99	-2.33	-4.98	-2.33	-21.23	-4.09
0.31	-15.56	-2.86	-5	-3.21	-5	-3.2	-21.31	-4.33
0.41	-15.58	-3.3	-5.01	-4.11	-5	-4.1	-21.36	-4.76
0.51	-15.59	-3.78	-5.01	-5.02	-5.01	-5.01	-21.37	-5.32
0.61	-15.6	-4.26	-5.01	-5.94	-5.01	-5.94	-21.4	-5.93
0.71	-15.59	-4.82	-5.02	-6.87	-5.01	-6.86	-21.4	-6.63
0.81	-15.59	-5.36	-5.02	-7.8	-5.02	-7.79	-21.42	-7.33
0.91	-15.59	-5.94	-5.02	-8.73	-5.02	-8.73	-21.43	-8.04
1.01	-15.6	-6.5	-5.03	-9.66	-5.02	-9.66	-21.44	-8.75
1.11	-15.59	-7.1	-5.03	-10.59	-5.03	-10.59	-21.44	-9.52
1.21	-15.6	-7.7	-5.03	-11.53	-5.03	-11.52	-21.46	-10.28
1.31	-15.59	-8.35	-5.04	-12.47	-5.03	-12.46	-21.46	-11.09
1.41	-15.6	-8.99	-5.04	-13.42	-5.04	-13.4	-21.49	-11.95
1.51	-15.6	-9.62	-5.05	-14.35	-5.04	-14.34	-21.51	-12.66
1.61	-15.6	-10.24	-5.05	-15.28	-5.05	-15.28	-21.52	-13.45
1.71	-15.59	-10.9	-5.05	-16.21	-5.05	-16.21	-21.53	-14.28
1.81	-15.58	-11.62	-5.06	-17.15	-5.06	-17.14	-21.55	-15.17
1.91	-15.58	-12.29	-5.06	-18.08	-5.06	-18.07	-21.57	-16.03
2.01	-15.59	-12.95	-5.07	-19.02	-5.07	-19.01	-21.6	-16.91
2.11	-15.58	-13.61	-5.07	-19.95	-5.07	-19.95	-21.63	-17.71
2.21	-15.59	-14.28	-5.08	-20.88	-5.08	-20.88	-21.65	-18.54
2.31	-15.59	-14.94	-5.09	-21.81	-5.08	-21.81	-21.69	-19.34
2.41	-15.58	-15.6	-5.09	-22.74	-5.09	-22.73	-21.72	-20.16
2.51	-15.59	-16.24	-5.1	-23.66	-5.1	-23.67	-21.75	-20.94
2.61	-15.59	-16.89	-5.1	-24.6	-5.1	-24.6	-21.78	-21.77
2.71	-15.6	-17.5	-5.11	-25.52	-5.11	-25.52	-21.82	-22.5
2.81	-15.6	-18.11	-5.12	-26.46	-5.11	-26.45	-21.86	-23.3
2.91	-15.6	-18.74	-5.12	-27.38	-5.12	-27.38	-21.91	-24.04
3.01	-15.61	-19.39	-5.13	-28.31	-5.13	-28.3	-21.94	-24.79
3.11	-15.61	-20.06	-5.13	-29.23	-5.13	-29.23	-21.98	-25.58
3.21	-15.62	-20.72	-5.14	-30.15	-5.14	-30.16	-22.02	-26.37
3.31	-15.62	-21.39	-5.15	-31.09	-5.14	-31.08	-22.07	-27.18
3.41	-15.63	-22.04	-5.15	-32	-5.15	-32.01	-22.11	-27.95
3.51	-15.63	-22.71	-5.16	-32.92	-5.16	-32.93	-22.17	-28.67
3.61	-15.64	-23.39	-5.17	-33.84	-5.17	-33.86	-22.21	-29.46
3.71	-15.64	-24.08	-5.18	-34.77	-5.17	-34.79	-22.26	-30.23
3.81	-15.65	-24.81	-5.18	-35.7	-5.18	-35.72	-22.3	-31.06
3.91	-15.66	-25.48	-5.19	-36.63	-5.19	-36.64	-22.37	-31.93
4.01	-15.68	-26.13	-5.2	-37.56	-5.2	-37.57	-22.43	-32.68
4.11	-15.68	-26.8	-5.2	-38.51	-5.2	-38.49	-22.5	-33.42
4.21	-15.68	-27.5	-5.21	-39.42	-5.21	-39.41	-22.55	-34.09
4.31	-15.69	-28.22	-5.22	-40.32	-5.22	-40.33	-22.59	-34.88
4.41	-15.7	-28.98	-5.23	-41.25	-5.23	-41.26	-22.64	-35.65
4.51	-15.71	-29.65	-5.24	-42.17	-5.24	-42.19	-22.71	-36.51
4.61	-15.73	-30.32	-5.25	-43.11	-5.25	-43.11	-22.78	-37.26
4.71	-15.72	-30.93	-5.25	-44.04	-5.25	-44.03	-22.87	-37.96
4.81	-15.72	-31.59	-5.26	-44.98	-5.26	-44.95	-22.94	-38.57
4.91	-15.72	-32.31	-5.27	-45.89	-5.27	-45.87	-23	-39.21
5.01	-15.72	-33.03	-5.27	-46.8	-5.28	-46.79	-23.06	-39.81
5.11	-15.74	-33.73	-5.29	-47.71	-5.29	-47.71	-23.11	-40.58
5.21	-15.75	-34.4	-5.3	-48.63	-5.3	-48.63	-23.18	-41.23
5.31	-15.76	-35.04	-5.31	-49.57	-5.31	-49.56	-23.26	-42.04
5.41	-15.77	-35.67	-5.32	-50.5	-5.32	-50.48	-23.35	-42.7
5.51	-15.77	-36.26	-5.33	-51.41	-5.33	-51.4	-23.44	-43.29
5.61	-15.78	-36.99	-5.34	-52.35	-5.34	-52.33	-23.52	-43.74
5.71	-15.79	-37.67	-5.34	-53.27	-5.35	-53.24	-23.58	-44.36
5.81	-15.8	-38.42	-5.36	-54.17	-5.36	-54.16	-23.65	-44.91
5.91	-15.82	-39.09	-5.37	-55.1	-5.37	-55.08	-23.7	-45.67
6.01	-15.84	-39.8	-5.38	-56.02	-5.38	-56.01	-23.78	-46.39
6.11	-15.85	-40.44	-5.39	-56.95	-5.39	-56.93	-23.86	-47.1
6.21	-15.85	-41.13	-5.41	-57.86	-5.4	-57.85	-23.94	-47.67
6.31	-15.85	-41.8	-5.41	-58.77	-5.42	-58.76	-24.01	-48.15
6.41	-15.85	-42.58	-5.43	-59.67	-5.43	-59.67	-24.1	-48.75
6.51	-15.85	-43.33	-5.44	-60.57	-5.44	-60.59	-24.18	-49.28
6.61	-15.87	-44.11	-5.45	-61.52	-5.45	-61.5	-24.27	-49.95
6.71	-15.88	-44.84	-5.46	-62.44	-5.47	-62.42	-24.35	-50.54
6.81	-15.88	-45.54	-5.48	-63.34	-5.48	-63.32	-24.45	-51.25
6.91	-15.89	-46.31	-5.49	-64.24	-5.49	-64.23	-24.54	-51.95
7.01	-15.88	-47.07	-5.5	-65.15	-5.51	-65.15	-24.64	-52.45
7.11	-15.89	-47.84	-5.52	-66.03	-5.52	-66.06	-24.72	-52.98
7.21	-15.9	-48.62	-5.53	-66.96	-5.53	-66.98	-24.81	-53.34
7.31	-15.9	-49.33	-5.55	-67.91	-5.55	-67.9	-24.86	-53.86
7.41	-15.9	-50.1	-5.56	-68.82	-5.56	-68.79	-24.89	-54.69
7.51	-15.9	-50.88	-5.58	-69.71	-5.57	-69.69	-24.99	-55.45
7.61	-15.9	-51.63	-5.58	-70.62	-5.59	-70.59	-25.12	-56.04
7.71	-15.9	-52.41	-5.6	-71.51	-5.61	-71.47	-25.21	-56.65
7.81	-15.9	-53.19	-5.61	-72.35	-5.62	-72.39	-25.32	-57.22
7.91	-15.91	-53.95	-5.63	-73.28	-5.64	-73.29	-25.4	-57.64
8.01	-15.93	-54.84	-5.65	-74.17	-5.65	-74.18	-25.48	-58.37
8.11	-15.95	-55.66	-5.66	-75.07	-5.67	-75.06	-25.58	-59.13
8.21	-15.97	-56.5	-5.68	-75.96	-5.69	-75.95	-25.66	-59.98
8.31	-15.98	-57.33	-5.69	-76.86	-5.7	-76.83	-25.78	-60.73
8.41	-15.98	-58.18	-5.7	-77.72	-5.72	-77.7	-25.88	-61.59
8.51	-16	-59.11	-5.72	-78.6	-5.74	-78.58	-26	-62.45
8.61	-16	-60.06	-5.74	-79.47	-5.75	-79.45	-26.13	-63.34
8.71	-16.02	-61.08	-5.76	-80.36	-5.77	-80.29	-26.26	-64.08
8.81	-16.04	-62.01	-5.78	-81.21	-5.78	-81.16	-26.38	-64.87
8.91	-16.07	-62.99	-5.79	-82.06	-5.8	-82.03	-26.53	-65.84
9.01	-16.09	-63.9	-5.8	-82.94	-5.81	-82.86	-26.68	-66.9
9.11	-16.11	-64.83	-5.81	-83.76	-5.83	-83.71	-26.86	-67.74
9.21	-16.14	-65.79	-5.83	-84.62	-5.84	-84.59	-27.06	-68.57
9.31	-16.17	-66.72	-5.85	-85.49	-5.85	-85.44	-27.27	-69.48
9.41	-16.2	-67.65	-5.85	-86.34	-5.86	-86.28	-27.46	-70.26
9.51	-16.22	-68.59	-5.87	-87.2	-5.87	-87.16	-27.7	-71.08
9.61	-16.26	-69.53	-5.89	-88.07	-5.88	-88	-27.92	-71.68
9.71	-16.29	-70.46	-5.89	-88.9	-5.9	-88.85	-28.15	-72.34
9.81	-16.32	-71.35	-5.9	-89.73	-5.91	-89.72	-28.42	-72.97
9.91	-16.36	-72.19	-5.91	-90.61	-5.92	-90.57	-28.72	-73.54
10.01	-16.39	-73.08	-5.92	-91.49	-5.93	-91.41	-28.97	-74.28
10.11	-16.42	-73.91	-5.93	-92.36	-5.94	-92.27	-29.3	-74.71
10.21	-16.45	-74.8	-5.94	-93.17	-5.94	-93.14	-29.65	-75.21
10.31	-16.5	-75.69	-5.95	-94.05	-5.96	-93.99	-29.97	-75.42
10.41	-16.54	-76.52	-5.96	-94.9	-5.96	-94.87	-30.33	-75.13
10.51	-16.6	-77.36	-5.97	-95.75	-5.97	-95.75	-30.67	-75.11
10.61	-16.64	-78.28	-5.98	-96.65	-5.98	-96.62	-31.03	-75.03
10.71	-16.69	-79.09	-5.98	-97.57	-5.99	-97.47	-31.36	-74.98
10.81	-16.73	-79.95	-5.99	-98.44	-6	-98.33	-31.78	-74.92
10.91	-16.78	-80.89	-6	-99.33	-6	-99.23	-32.23	-75.04
11.01	-16.84	-81.72	-6	-100.2	-6.02	-100.13	-32.74	-74.21
11.11	-16.87	-82.56	-6.01	-101.06	-6.03	-101.02	-33.14	-73.25
11.21	-16.92	-83.36	-6.04	-101.93	-6.04	-101.92	-33.64	-72.11
11.31	-16.96	-84.14	-6.05	-102.81	-6.04	-102.8	-34.03	-70.74
11.41	-16.99	-85.01	-6.05	-103.72	-6.05	-103.68	-34.45	-69.37
11.51	-17.02	-85.81	-6.06	-104.65	-6.06	-104.51	-34.96	-67.83
11.61	-17.06	-86.64	-6.07	-105.51	-6.07	-105.39	-35.47	-65.98
11.71	-17.08	-87.48	-6.07	-106.39	-6.09	-106.32	-35.94	-64.33
11.81	-17.13	-88.38	-6.08	-107.26	-6.1	-107.16	-36.56	-60.99
11.91	-17.18	-89.14	-6.1	-108.14	-6.11	-108.09	-36.92	-56.41
12.01	-17.2	-89.98	-6.11	-108.99	-6.12	-109.02	-37.17	-52.67
12.11	-17.22	-90.76	-6.13	-109.92	-6.13	-109.88	-37.51	-49.17
12.21	-17.23	-91.54	-6.14	-110.81	-6.13	-110.76	-37.8	-45.1
12.31	-17.26	-92.37	-6.15	-111.77	-6.15	-111.65	-37.97	-40.85
12.41	-17.28	-93.31	-6.15	-112.71	-6.16	-112.49	-38.11	-37.46
12.51	-17.32	-94.2	-6.17	-113.56	-6.18	-113.39	-38.46	-32.17
12.61	-17.35	-95.08	-6.17	-114.4	-6.19	-114.29	-38.46	-26.47
12.71	-17.41	-95.9	-6.18	-115.27	-6.2	-115.2	-38.24	-21.09
12.81	-17.45	-96.6	-6.2	-116.14	-6.21	-116.14	-37.84	-14.79
12.91	-17.5	-97.36	-6.22	-117.05	-6.22	-116.99	-37.41	-11.76
13.01	-17.52	-98.24	-6.22	-117.98	-6.23	-117.9	-36.95	-7.35
13.11	-17.57	-99	-6.24	-118.93	-6.24	-118.82	-36.64	-5.15
13.21	-17.56	-99.82	-6.27	-119.81	-6.27	-119.61	-36.53	-1.81
13.31	-17.61	-100.91	-6.26	-120.66	-6.27	-120.48	-36.05	2.84
13.41	-17.63	-101.95	-6.27	-121.55	-6.29	-121.45	-35.47	4.66
13.51	-17.68	-102.94	-6.29	-122.41	-6.31	-122.31	-35.23	6.19
13.61	-17.7	-103.79	-6.3	-123.25	-6.31	-123.19	-34.67	8.14
13.71	-17.74	-104.77	-6.3	-124.15	-6.31	-124.09	-34.22	10.31
13.81	-17.76	-105.62	-6.33	-125.1	-6.34	-125.03	-33.77	10.95
13.91	-17.8	-106.5	-6.35	-126.05	-6.35	-125.84	-33.45	11.93
14.01	-17.81	-107.44	-6.36	-126.94	-6.36	-126.77	-33.07	12.52
14.11	-17.83	-108.48	-6.37	-127.82	-6.38	-127.63	-32.82	14.41
14.21	-17.86	-109.54	-6.38	-128.74	-6.4	-128.53	-32.4	15.82
14.31	-17.93	-110.58	-6.39	-129.57	-6.41	-129.42	-31.94	16.22
14.41	-17.96	-111.2	-6.4	-130.42	-6.42	-130.33	-31.54	16.44
14.51	-17.98	-112.08	-6.43	-131.38	-6.44	-131.25	-31.2	16.69
14.61	-17.98	-112.9	-6.46	-132.27	-6.45	-132.12	-30.86	16.32
14.71	-17.99	-113.89	-6.47	-133.16	-6.46	-132.94	-30.56	15.99
14.81	-17.99	-114.72	-6.48	-134.1	-6.48	-133.84	-30.33	16.31
14.91	-17.98	-115.81	-6.5	-134.99	-6.51	-134.75	-30.08	16.62
15.01	-18.02	-116.88	-6.5	-135.83	-6.52	-135.6	-29.72	17.16
15.11	-18.06	-117.93	-6.51	-136.7	-6.53	-136.55	-29.42	16.55
15.21	-18.12	-118.6	-6.54	-137.57	-6.54	-137.46	-29.09	16.07
15.31	-18.14	-119.29	-6.56	-138.46	-6.56	-138.3	-28.85	15.75
15.41	-18.14	-120.22	-6.59	-139.34	-6.57	-139.18	-28.59	15.85
15.51	-18.14	-121.22	-6.61	-140.22	-6.59	-140.02	-28.34	15.21
15.61	-18.16	-122.59	-6.62	-141.15	-6.62	-140.91	-28.17	15.05
15.71	-18.2	-123.83	-6.62	-142.03	-6.63	-141.73	-27.99	15.34
15.81	-18.24	-124.93	-6.64	-142.87	-6.65	-142.65	-27.76	15.08
15.91	-18.27	-125.9	-6.66	-143.75	-6.67	-143.59	-27.56	14.77
16.01	-18.32	-126.88	-6.68	-144.58	-6.68	-144.46	-27.34	14.43
16.11	-18.33	-127.88	-6.7	-145.39	-6.69	-145.3	-27.15	14.2
16.21	-18.36	-128.83	-6.73	-146.31	-6.7	-146.17	-27	13.87
16.31	-18.35	-129.74	-6.75	-147.17	-6.73	-146.94	-26.76	13.76
16.41	-18.35	-130.98	-6.75	-148.01	-6.74	-147.73	-26.6	13.28
16.51	-18.38	-132.32	-6.77	-148.93	-6.76	-148.68	-26.46	12.87
16.61	-18.43	-133.44	-6.78	-149.82	-6.77	-149.57	-26.33	12.61
16.71	-18.45	-134.51	-6.8	-150.54	-6.79	-150.43	-26.26	12.8
16.81	-18.49	-135.24	-6.82	-151.43	-6.8	-151.34	-25.98	13.25
16.91	-18.5	-136.17	-6.86	-152.26	-6.81	-152.16	-25.75	13.82
17.01	-18.47	-136.96	-6.87	-153.02	-6.83	-152.96	-25.31	13.35
17.11	-18.43	-138.03	-6.9	-153.84	-6.84	-153.77	-24.94	11.7
17.21	-18.43	-139.42	-6.9	-154.59	-6.86	-154.63	-24.92	8.4
17.31	-18.47	-140.83	-6.9	-155.42	-6.88	-155.54	-25.18	8.17
17.41	-18.54	-142.06	-6.88	-156.18	-6.89	-156.41	-25.38	10.37
17.51	-18.59	-142.95	-6.88	-157.12	-6.89	-157.31	-24.87	12.81
17.61	-18.64	-143.76	-6.87	-157.86	-6.91	-158.17	-24.29	12.46
17.71	-18.67	-144.43	-6.87	-158.92	-6.91	-158.99	-23.9	9.32
17.81	-18.64	-145.27	-6.9	-159.8	-6.92	-159.82	-23.89	7.24
17.91	-18.65	-146.28	-6.91	-160.86	-6.94	-160.7	-24.04	7.34
18.01	-18.69	-147.81	-6.93	-161.82	-6.96	-161.58	-23.93	8.46
18.11	-18.77	-148.82	-6.94	-162.74	-6.98	-162.44	-23.64	9.17
18.21	-18.81	-149.97	-6.96	-163.56	-6.99	-163.34	-23.31	8.37
18.31	-18.83	-150.95	-6.96	-164.44	-6.99	-164.23	-23.05	7.52
18.41	-18.85	-151.96	-6.98	-165.3	-7	-165.15	-22.91	5.66
18.51	-18.84	-153.01	-7	-166.15	-7.01	-165.94	-22.83	5.17
18.61	-18.83	-153.81	-7.03	-167.09	-7.02	-166.79	-22.77	4.07
18.71	-18.77	-154.88	-7.04	-167.95	-7.03	-167.68	-22.71	3.87
18.81	-18.79	-156.34	-7.04	-168.9	-7.06	-168.59	-22.61	3.97
18.91	-18.83	-157.49	-7.06	-169.81	-7.06	-169.52	-22.42	4.17
19.01	-18.88	-158.57	-7.06	-170.65	-7.08	-170.45	-22.2	3.23
19.11	-18.88	-159.4	-7.08	-171.47	-7.09	-171.33	-22.08	2.33
19.21	-18.89	-160.22	-7.11	-172.4	-7.09	-172.18	-21.95	1.53
19.31	-18.85	-161.4	-7.12	-173.24	-7.11	-173.06	-21.88	1.2
19.41	-18.83	-162.4	-7.13	-174.21	-7.13	-173.99	-21.7	0.97
19.51	-18.82	-163.6	-7.16	-175.15	-7.15	-174.86	-21.52	0.36
19.61	-18.89	-164.9	-7.17	-176.06	-7.17	-175.76	-21.37	-0.71
19.71	-18.91	-165.72	-7.18	-176.92	-7.18	-176.66	-21.31	-1.41
19.81	-18.97	-166.61	-7.19	-177.74	-7.19	-177.58	-21.17	-2.44
19.91	-18.98	-167.12	-7.2	-178.64	-7.2	-178.47	-21.09	-2.94
20.01	-18.97	-167.95	-7.22	-179.5	-7.21	-179.33	-20.91	-3.69