!s2p File: Measurements: S11, S21, S12, S22								
# GHz S dB R 50.0								
0.01	-15.25	-0.81	-10.42	-0.48	-10.42	-0.45	-14.41	-1.38
0.11	-15.52	-1.88	-10.55	-1.39	-10.54	-1.38	-14.82	-2.4
0.21	-15.59	-2.42	-10.57	-2.14	-10.57	-2.13	-14.9	-3.06
0.31	-15.62	-3.03	-10.58	-2.95	-10.58	-2.94	-14.93	-3.86
0.41	-15.64	-3.69	-10.59	-3.77	-10.59	-3.76	-14.94	-4.74
0.51	-15.64	-4.36	-10.6	-4.61	-10.59	-4.6	-14.96	-5.68
0.61	-15.65	-5.04	-10.6	-5.44	-10.6	-5.45	-14.97	-6.61
0.71	-15.65	-5.78	-10.6	-6.3	-10.6	-6.3	-14.97	-7.57
0.81	-15.66	-6.51	-10.61	-7.16	-10.6	-7.14	-14.98	-8.55
0.91	-15.66	-7.24	-10.61	-8	-10.61	-8	-14.99	-9.52
1.01	-15.67	-7.98	-10.62	-8.86	-10.61	-8.85	-15	-10.49
1.11	-15.67	-8.73	-10.62	-9.71	-10.61	-9.71	-15	-11.48
1.21	-15.68	-9.49	-10.62	-10.56	-10.62	-10.56	-15.01	-12.47
1.31	-15.69	-10.29	-10.63	-11.43	-10.62	-11.42	-15.02	-13.48
1.41	-15.69	-11.08	-10.63	-12.29	-10.63	-12.28	-15.03	-14.49
1.51	-15.7	-11.87	-10.64	-13.14	-10.63	-13.14	-15.04	-15.46
1.61	-15.7	-12.64	-10.64	-13.99	-10.64	-14	-15.05	-16.44
1.71	-15.7	-13.46	-10.65	-14.85	-10.64	-14.85	-15.06	-17.46
1.81	-15.71	-14.32	-10.65	-15.71	-10.65	-15.7	-15.07	-18.5
1.91	-15.71	-15.14	-10.66	-16.55	-10.66	-16.55	-15.08	-19.54
2.01	-15.72	-15.96	-10.67	-17.42	-10.66	-17.41	-15.1	-20.55
2.11	-15.73	-16.75	-10.67	-18.26	-10.67	-18.26	-15.12	-21.56
2.21	-15.74	-17.56	-10.68	-19.12	-10.68	-19.11	-15.13	-22.56
2.31	-15.75	-18.36	-10.69	-19.97	-10.68	-19.97	-15.15	-23.56
2.41	-15.76	-19.17	-10.69	-20.82	-10.69	-20.81	-15.16	-24.56
2.51	-15.77	-19.94	-10.7	-21.65	-10.7	-21.65	-15.18	-25.53
2.61	-15.79	-20.73	-10.71	-22.5	-10.7	-22.5	-15.2	-26.53
2.71	-15.8	-21.49	-10.71	-23.35	-10.71	-23.35	-15.22	-27.51
2.81	-15.82	-22.24	-10.72	-24.2	-10.72	-24.19	-15.25	-28.5
2.91	-15.83	-23	-10.73	-25.03	-10.73	-25.04	-15.27	-29.48
3.01	-15.85	-23.79	-10.74	-25.89	-10.73	-25.87	-15.29	-30.42
3.11	-15.87	-24.59	-10.74	-26.73	-10.74	-26.73	-15.31	-31.42
3.21	-15.89	-25.39	-10.75	-27.56	-10.75	-27.56	-15.33	-32.4
3.31	-15.91	-26.19	-10.76	-28.41	-10.75	-28.41	-15.36	-33.37
3.41	-15.93	-26.99	-10.77	-29.26	-10.76	-29.25	-15.38	-34.33
3.51	-15.94	-27.78	-10.77	-30.08	-10.77	-30.09	-15.41	-35.28
3.61	-15.96	-28.58	-10.78	-30.92	-10.78	-30.94	-15.43	-36.25
3.71	-15.98	-29.42	-10.79	-31.76	-10.79	-31.78	-15.45	-37.24
3.81	-16	-30.28	-10.8	-32.6	-10.8	-32.62	-15.48	-38.23
3.91	-16.03	-31.09	-10.81	-33.45	-10.81	-33.46	-15.51	-39.26
4.01	-16.06	-31.88	-10.82	-34.29	-10.82	-34.3	-15.54	-40.21
4.11	-16.07	-32.68	-10.83	-35.15	-10.83	-35.14	-15.57	-41.16
4.21	-16.09	-33.5	-10.84	-35.97	-10.84	-35.97	-15.6	-42.08
4.31	-16.11	-34.38	-10.84	-36.79	-10.85	-36.8	-15.62	-43.04
4.41	-16.14	-35.25	-10.86	-37.62	-10.86	-37.64	-15.64	-44.03
4.51	-16.17	-36.07	-10.87	-38.45	-10.87	-38.48	-15.67	-45.04
4.61	-16.2	-36.85	-10.88	-39.3	-10.88	-39.32	-15.71	-46.02
4.71	-16.22	-37.59	-10.89	-40.15	-10.89	-40.14	-15.75	-46.98
4.81	-16.24	-38.38	-10.9	-40.99	-10.9	-40.98	-15.78	-47.88
4.91	-16.25	-39.22	-10.91	-41.81	-10.91	-41.81	-15.81	-48.77
5.01	-16.27	-40.06	-10.91	-42.64	-10.92	-42.62	-15.84	-49.67
5.11	-16.3	-40.91	-10.93	-43.46	-10.93	-43.46	-15.87	-50.63
5.21	-16.34	-41.7	-10.94	-44.28	-10.94	-44.29	-15.9	-51.58
5.31	-16.37	-42.47	-10.95	-45.13	-10.95	-45.13	-15.93	-52.56
5.41	-16.41	-43.2	-10.96	-45.96	-10.96	-45.95	-15.98	-53.52
5.51	-16.43	-43.93	-10.98	-46.78	-10.97	-46.78	-16.02	-54.41
5.61	-16.46	-44.75	-10.99	-47.63	-10.99	-47.61	-16.06	-55.25
5.71	-16.49	-45.57	-11	-48.45	-11	-48.44	-16.1	-56.16
5.81	-16.53	-46.44	-11.01	-49.26	-11.01	-49.26	-16.13	-57.03
5.91	-16.57	-47.26	-11.02	-50.09	-11.02	-50.08	-16.15	-57.97
6.01	-16.61	-48.06	-11.03	-50.92	-11.04	-50.92	-16.19	-58.94
6.11	-16.65	-48.83	-11.05	-51.75	-11.05	-51.74	-16.23	-59.87
6.21	-16.68	-49.6	-11.07	-52.57	-11.06	-52.57	-16.27	-60.77
6.31	-16.71	-50.41	-11.08	-53.38	-11.08	-53.38	-16.31	-61.62
6.41	-16.73	-51.25	-11.09	-54.19	-11.09	-54.2	-16.35	-62.5
6.51	-16.76	-52.11	-11.11	-54.99	-11.11	-55.02	-16.39	-63.37
6.61	-16.8	-52.99	-11.12	-55.84	-11.12	-55.83	-16.42	-64.28
6.71	-16.84	-53.84	-11.13	-56.66	-11.13	-56.65	-16.46	-65.21
6.81	-16.88	-54.64	-11.15	-57.47	-11.15	-57.45	-16.5	-66.16
6.91	-16.91	-55.47	-11.16	-58.27	-11.16	-58.26	-16.55	-67.1
7.01	-16.94	-56.29	-11.18	-59.07	-11.18	-59.07	-16.6	-67.99
7.11	-16.97	-57.12	-11.19	-59.85	-11.19	-59.88	-16.64	-68.83
7.21	-17	-57.98	-11.21	-60.68	-11.21	-60.7	-16.68	-69.64
7.31	-17.03	-58.78	-11.23	-61.53	-11.22	-61.52	-16.7	-70.51
7.41	-17.06	-59.59	-11.24	-62.35	-11.24	-62.33	-16.72	-71.41
7.51	-17.09	-60.45	-11.26	-63.13	-11.26	-63.11	-16.76	-72.38
7.61	-17.13	-61.24	-11.27	-63.94	-11.27	-63.91	-16.81	-73.29
7.71	-17.16	-62.06	-11.29	-64.71	-11.29	-64.7	-16.86	-74.19
7.81	-17.19	-62.88	-11.3	-65.45	-11.31	-65.5	-16.91	-75.09
7.91	-17.23	-63.68	-11.32	-66.28	-11.33	-66.28	-16.95	-75.92
8.01	-17.28	-64.58	-11.34	-67.07	-11.34	-67.08	-16.99	-76.84
8.11	-17.32	-65.45	-11.36	-67.84	-11.36	-67.85	-17.03	-77.78
8.21	-17.37	-66.32	-11.38	-68.63	-11.38	-68.64	-17.07	-78.74
8.31	-17.42	-67.19	-11.39	-69.43	-11.39	-69.42	-17.11	-79.68
8.41	-17.46	-68.06	-11.4	-70.18	-11.41	-70.18	-17.15	-80.61
8.51	-17.49	-68.98	-11.42	-70.95	-11.43	-70.95	-17.2	-81.58
8.61	-17.52	-69.94	-11.45	-71.71	-11.45	-71.7	-17.24	-82.51
8.71	-17.56	-70.97	-11.46	-72.48	-11.47	-72.44	-17.29	-83.43
8.81	-17.6	-71.89	-11.48	-73.22	-11.48	-73.2	-17.34	-84.37
8.91	-17.65	-72.89	-11.5	-73.96	-11.5	-73.96	-17.38	-85.34
9.01	-17.7	-73.81	-11.51	-74.73	-11.51	-74.67	-17.43	-86.36
9.11	-17.74	-74.78	-11.52	-75.44	-11.53	-75.41	-17.49	-87.32
9.21	-17.8	-75.75	-11.54	-76.18	-11.54	-76.17	-17.55	-88.3
9.31	-17.84	-76.69	-11.55	-76.94	-11.55	-76.9	-17.61	-89.3
9.41	-17.88	-77.65	-11.56	-77.66	-11.56	-77.64	-17.66	-90.27
9.51	-17.92	-78.6	-11.58	-78.4	-11.58	-78.39	-17.73	-91.22
9.61	-17.98	-79.58	-11.59	-79.16	-11.59	-79.12	-17.79	-92.15
9.71	-18.03	-80.57	-11.6	-79.89	-11.6	-79.86	-17.86	-93.08
9.81	-18.08	-81.49	-11.61	-80.61	-11.61	-80.61	-17.93	-94.06
9.91	-18.13	-82.38	-11.62	-81.37	-11.62	-81.34	-18.01	-95.02
10.01	-18.18	-83.29	-11.63	-82.12	-11.63	-82.09	-18.07	-95.99
10.11	-18.23	-84.17	-11.64	-82.87	-11.64	-82.82	-18.16	-96.96
10.21	-18.29	-85.1	-11.65	-83.58	-11.65	-83.57	-18.24	-97.96
10.31	-18.35	-86.06	-11.66	-84.33	-11.66	-84.3	-18.32	-98.85
10.41	-18.41	-86.99	-11.66	-85.07	-11.67	-85.06	-18.42	-99.71
10.51	-18.49	-87.93	-11.68	-85.8	-11.68	-85.82	-18.5	-100.54
10.61	-18.56	-88.95	-11.68	-86.58	-11.68	-86.57	-18.58	-101.45
10.71	-18.63	-89.87	-11.69	-87.36	-11.69	-87.31	-18.66	-102.36
10.81	-18.7	-90.78	-11.69	-88.13	-11.7	-88.07	-18.75	-103.31
10.91	-18.76	-91.84	-11.7	-88.89	-11.71	-88.83	-18.84	-104.29
11.01	-18.84	-92.76	-11.71	-89.64	-11.72	-89.59	-18.96	-105.24
11.11	-18.89	-93.67	-11.72	-90.38	-11.73	-90.39	-19.05	-106.05
11.21	-18.96	-94.68	-11.73	-91.16	-11.73	-91.17	-19.15	-106.89
11.31	-19.02	-95.54	-11.75	-91.91	-11.74	-91.94	-19.24	-107.65
11.41	-19.08	-96.54	-11.75	-92.69	-11.75	-92.7	-19.32	-108.51
11.51	-19.14	-97.42	-11.76	-93.5	-11.76	-93.41	-19.42	-109.39
11.61	-19.2	-98.32	-11.76	-94.24	-11.76	-94.17	-19.51	-110.31
11.71	-19.25	-99.28	-11.76	-94.99	-11.78	-94.98	-19.6	-111.26
11.81	-19.32	-100.29	-11.77	-95.74	-11.79	-95.71	-19.72	-112.15
11.91	-19.4	-101.21	-11.79	-96.52	-11.79	-96.51	-19.85	-112.84
12.01	-19.44	-102.21	-11.8	-97.25	-11.8	-97.32	-19.93	-113.55
12.11	-19.48	-103.1	-11.81	-98.1	-11.81	-98.08	-20.03	-114.34
12.21	-19.54	-104.02	-11.83	-98.83	-11.81	-98.8	-20.12	-115.13
12.31	-19.6	-104.94	-11.83	-99.64	-11.83	-99.58	-20.21	-115.99
12.41	-19.65	-105.9	-11.83	-100.46	-11.84	-100.31	-20.29	-116.77
12.51	-19.72	-106.88	-11.85	-101.21	-11.85	-101.09	-20.41	-117.84
12.61	-19.77	-107.79	-11.85	-101.9	-11.86	-101.87	-20.53	-118.69
12.71	-19.85	-108.8	-11.85	-102.66	-11.87	-102.65	-20.66	-119.49
12.81	-19.93	-109.78	-11.87	-103.41	-11.88	-103.47	-20.81	-120.13
12.91	-20.03	-110.63	-11.89	-104.19	-11.88	-104.19	-20.91	-120.78
13.01	-20.09	-111.6	-11.89	-105.02	-11.89	-104.98	-21.04	-121.34
13.11	-20.19	-112.5	-11.9	-105.84	-11.9	-105.78	-21.11	-122.12
13.21	-20.23	-113.26	-11.93	-106.59	-11.93	-106.45	-21.21	-123.02
13.31	-20.29	-114.54	-11.92	-107.27	-11.93	-107.17	-21.36	-124.07
13.41	-20.34	-115.55	-11.93	-108.01	-11.94	-108.01	-21.49	-124.74
13.51	-20.41	-116.78	-11.93	-108.78	-11.95	-108.76	-21.59	-125.64
13.61	-20.46	-117.8	-11.95	-109.49	-11.96	-109.53	-21.73	-126.3
13.71	-20.54	-118.87	-11.95	-110.26	-11.95	-110.3	-21.86	-127.15
13.81	-20.59	-119.84	-11.97	-111.11	-11.97	-111.1	-22	-127.78
13.91	-20.67	-120.84	-11.98	-111.92	-11.98	-111.79	-22.09	-128.61
14.01	-20.71	-121.81	-11.99	-112.71	-11.99	-112.6	-22.22	-129.36
14.11	-20.75	-122.9	-11.99	-113.45	-12.01	-113.35	-22.34	-130.47
14.21	-20.81	-124.04	-12	-114.22	-12.02	-114.1	-22.51	-131.44
14.31	-20.9	-125.32	-12.01	-114.91	-12.03	-114.86	-22.67	-132.17
14.41	-20.95	-126.06	-12.01	-115.66	-12.03	-115.67	-22.84	-132.91
14.51	-21.03	-127.23	-12.03	-116.52	-12.04	-116.47	-22.99	-133.54
14.61	-21.07	-128.1	-12.06	-117.3	-12.05	-117.21	-23.12	-134.05
14.71	-21.12	-129.03	-12.06	-118.05	-12.06	-117.9	-23.24	-134.68
14.81	-21.15	-129.87	-12.07	-118.88	-12.07	-118.7	-23.36	-135.52
14.91	-21.15	-130.92	-12.08	-119.66	-12.09	-119.5	-23.51	-136.43
15.01	-21.23	-132.08	-12.08	-120.33	-12.1	-120.2	-23.7	-137.42
15.11	-21.3	-133.33	-12.09	-121.07	-12.1	-121.02	-23.87	-138.01
15.21	-21.4	-134.15	-12.1	-121.82	-12.11	-121.81	-24.08	-138.53
15.31	-21.49	-134.96	-12.13	-122.62	-12.12	-122.53	-24.23	-139.09
15.41	-21.53	-135.91	-12.15	-123.37	-12.13	-123.27	-24.41	-139.9
15.51	-21.59	-136.84	-12.16	-124.1	-12.14	-123.97	-24.56	-140.45
15.61	-21.62	-138.3	-12.17	-124.9	-12.16	-124.74	-24.69	-141.3
15.71	-21.66	-139.5	-12.16	-125.67	-12.17	-125.46	-24.87	-142.47
15.81	-21.71	-140.66	-12.18	-126.39	-12.18	-126.25	-25.06	-143.33
15.91	-21.76	-142.04	-12.19	-127.13	-12.19	-127.06	-25.25	-144.16
16.01	-21.87	-143.14	-12.2	-127.83	-12.2	-127.79	-25.45	-144.96
16.11	-21.95	-144.2	-12.22	-128.5	-12.2	-128.49	-25.64	-145.79
16.21	-22.02	-145.01	-12.23	-129.3	-12.2	-129.23	-25.81	-146.72
16.31	-22.01	-145.72	-12.24	-130.06	-12.22	-129.89	-26.07	-147.6
16.41	-22.01	-146.98	-12.24	-130.76	-12.23	-130.56	-26.24	-148.3
16.51	-22.04	-148.36	-12.24	-131.58	-12.23	-131.41	-26.43	-149.19
16.61	-22.11	-149.56	-12.25	-132.35	-12.24	-132.17	-26.61	-150.19
16.71	-22.14	-150.55	-12.26	-132.94	-12.25	-132.94	-26.77	-151.96
16.81	-22.2	-151.55	-12.27	-133.72	-12.25	-133.73	-27.15	-153.72
16.91	-22.28	-152.51	-12.3	-134.41	-12.25	-134.4	-27.53	-155.57
17.01	-22.24	-152.85	-12.3	-135.07	-12.26	-135.11	-28.12	-155.85
17.11	-22.21	-153.93	-12.32	-135.81	-12.26	-135.82	-28.71	-154.41
17.21	-22.18	-155.22	-12.31	-136.43	-12.28	-136.58	-28.52	-150.3
17.31	-22.22	-156.63	-12.3	-137.13	-12.29	-137.37	-28.14	-152.82
17.41	-22.26	-157.9	-12.27	-137.76	-12.29	-138.13	-27.98	-158.29
17.51	-22.32	-158.88	-12.25	-138.6	-12.28	-138.95	-28.84	-164.26
17.61	-22.44	-159.82	-12.24	-139.2	-12.28	-139.67	-29.92	-165.58
17.71	-22.49	-160.38	-12.23	-140.21	-12.27	-140.39	-30.71	-161.57
17.81	-22.5	-161.03	-12.25	-141.02	-12.27	-141.12	-30.67	-159.18
17.91	-22.5	-162.09	-12.24	-142.02	-12.28	-141.91	-30.41	-162.48
18.01	-22.49	-163.86	-12.25	-142.88	-12.29	-142.69	-30.76	-167.48
18.11	-22.63	-165.04	-12.25	-143.66	-12.3	-143.41	-31.55	-172.31
18.21	-22.61	-166.28	-12.26	-144.42	-12.3	-144.3	-32.63	-173.96
18.31	-22.63	-167.45	-12.25	-145.23	-12.29	-145.12	-33.64	-175.35
18.41	-22.67	-168.58	-12.27	-145.97	-12.29	-145.93	-34.28	-171.63
18.51	-22.64	-169.46	-12.28	-146.75	-12.29	-146.65	-34.72	-173.21
18.61	-22.64	-170.35	-12.31	-147.64	-12.3	-147.39	-35.04	-172.95
18.71	-22.58	-171.09	-12.3	-148.37	-12.3	-148.18	-35.33	-176.05
18.81	-22.51	-172.58	-12.29	-149.23	-12.31	-148.99	-35.78	179.2
18.91	-22.55	-173.77	-12.29	-150.11	-12.3	-149.86	-36.68	171.35
19.01	-22.53	-175.08	-12.28	-150.88	-12.31	-150.78	-38.26	167.7
19.11	-22.51	-176.1	-12.3	-151.61	-12.32	-151.58	-39.51	164.85
19.21	-22.53	-177.03	-12.32	-152.44	-12.32	-152.28	-40.52	163.45
19.31	-22.45	-178.1	-12.31	-153.22	-12.3	-153.14	-40.86	156.01
19.41	-22.41	-179.33	-12.33	-154.21	-12.33	-154.07	-41.96	141.27
19.51	-22.37	179.58	-12.35	-155.1	-12.34	-154.85	-42.99	126.2
19.61	-22.38	177.94	-12.36	-155.9	-12.37	-155.66	-45.06	110.94
19.71	-22.4	176.93	-12.36	-156.66	-12.37	-156.46	-45.01	101.79
19.81	-22.45	176.06	-12.35	-157.39	-12.36	-157.3	-45.01	80.42
19.91	-22.43	175.35	-12.35	-158.3	-12.37	-158.2	-43.52	67.18
20.01	-22.36	174.22	-12.39	-159.14	-12.37	-159.04	-41.82	49.42