!s2p File: Measurements: S11, S21, S12, S22								
# GHz S dB R 50.0								
0.01	-25.38	-0.05	-29.45	-0.38	-29.47	-0.14	-38.93	-8.11
0.11	-25.57	-1.49	-29.59	-1.34	-29.59	-1.31	-43.9	-38.24
0.21	-25.63	-1.85	-29.63	-1.83	-29.63	-1.8	-47.71	-40.67
0.31	-25.64	-2.32	-29.65	-2.38	-29.64	-2.31	-50.06	-35.73
0.41	-25.65	-2.9	-29.65	-2.93	-29.65	-2.99	-51.67	-28.87
0.51	-25.64	-3.42	-29.67	-3.56	-29.66	-3.52	-52.85	-21.84
0.61	-25.64	-3.99	-29.67	-4.16	-29.67	-4.18	-53.54	-14.97
0.71	-25.64	-4.61	-29.67	-4.79	-29.67	-4.81	-54.1	-7.02
0.81	-25.64	-5.16	-29.68	-5.39	-29.67	-5.45	-54.24	-1.42
0.91	-25.65	-5.78	-29.68	-6.04	-29.67	-6.06	-54.85	5.79
1.01	-25.65	-6.38	-29.68	-6.67	-29.68	-6.65	-54.6	13.5
1.11	-25.66	-7	-29.68	-7.34	-29.68	-7.32	-54.47	17.44
1.21	-25.67	-7.68	-29.69	-7.98	-29.69	-7.94	-54.33	22.62
1.31	-25.68	-8.43	-29.7	-8.62	-29.69	-8.59	-54.25	26.17
1.41	-25.7	-9.21	-29.7	-9.27	-29.7	-9.24	-54.6	30.48
1.51	-25.72	-9.89	-29.7	-9.88	-29.7	-9.91	-54.31	39.71
1.61	-25.72	-10.55	-29.71	-10.48	-29.71	-10.49	-53.57	43.8
1.71	-25.7	-11.35	-29.71	-11.15	-29.71	-11.16	-53.41	44.43
1.81	-25.69	-12.27	-29.72	-11.81	-29.72	-11.83	-53.46	45.32
1.91	-25.71	-13.11	-29.73	-12.49	-29.73	-12.42	-53.41	47.75
2.01	-25.73	-13.88	-29.73	-13.09	-29.73	-13.08	-53.52	53.74
2.11	-25.75	-14.6	-29.74	-13.7	-29.73	-13.73	-53.36	57.88
2.21	-25.76	-15.38	-29.75	-14.34	-29.75	-14.36	-52.85	62.22
2.31	-25.77	-16.14	-29.76	-15.02	-29.75	-15.05	-52.5	65.4
2.41	-25.79	-16.95	-29.76	-15.62	-29.76	-15.62	-52.3	69.24
2.51	-25.82	-17.63	-29.77	-16.23	-29.77	-16.27	-51.86	73.11
2.61	-25.84	-18.32	-29.77	-16.92	-29.77	-16.91	-51.35	78.18
2.71	-25.88	-18.9	-29.78	-17.55	-29.78	-17.54	-50.86	81.12
2.81	-25.91	-19.48	-29.79	-18.17	-29.8	-18.16	-50.18	84.82
2.91	-25.94	-20.12	-29.8	-18.82	-29.8	-18.82	-49.54	87.07
3.01	-25.96	-20.82	-29.81	-19.45	-29.8	-19.43	-48.78	88.51
3.11	-25.99	-21.57	-29.81	-20.08	-29.81	-20.12	-48.42	90.18
3.21	-26.03	-22.35	-29.83	-20.74	-29.82	-20.7	-47.75	91.95
3.31	-26.08	-23.12	-29.83	-21.36	-29.83	-21.3	-47.27	93.97
3.41	-26.13	-23.84	-29.84	-21.99	-29.84	-21.94	-46.63	95.2
3.51	-26.15	-24.54	-29.85	-22.62	-29.85	-22.6	-46.07	96.35
3.61	-26.19	-25.32	-29.86	-23.26	-29.86	-23.27	-45.62	97.15
3.71	-26.23	-26.26	-29.88	-23.92	-29.88	-23.93	-45.24	98.15
3.81	-26.29	-27.18	-29.89	-24.49	-29.89	-24.48	-44.85	99.61
3.91	-26.36	-27.93	-29.9	-25.11	-29.9	-25.15	-44.43	101.3
4.01	-26.42	-28.59	-29.91	-25.77	-29.91	-25.79	-43.79	102.25
4.11	-26.44	-29.3	-29.92	-26.47	-29.92	-26.38	-43.27	102.38
4.21	-26.47	-30.14	-29.93	-27.05	-29.92	-26.99	-42.8	101.18
4.31	-26.51	-31.2	-29.95	-27.66	-29.95	-27.65	-42.54	101.31
4.41	-26.58	-32.31	-29.96	-28.26	-29.96	-28.25	-42.3	101.44
4.51	-26.67	-33.09	-29.98	-28.92	-29.98	-28.87	-41.99	102.85
4.61	-26.75	-33.71	-30	-29.56	-29.99	-29.51	-41.59	103.38
4.71	-26.77	-34.29	-30	-30.18	-30	-30.18	-41.05	104.26
4.81	-26.77	-34.99	-30.02	-30.83	-30.02	-30.81	-40.56	103.62
4.91	-26.78	-36.01	-30.03	-31.4	-30.03	-31.41	-40.16	102.43
5.01	-26.82	-37.05	-30.04	-32.06	-30.04	-32.02	-39.82	101.64
5.11	-26.9	-38.01	-30.06	-32.64	-30.06	-32.64	-39.63	101.21
5.21	-27	-38.85	-30.08	-33.25	-30.08	-33.25	-39.3	101.26
5.31	-27.09	-39.46	-30.1	-33.91	-30.09	-33.87	-39.03	102
5.41	-27.17	-39.95	-30.11	-34.57	-30.11	-34.51	-38.57	102.26
5.51	-27.21	-40.57	-30.13	-35.19	-30.12	-35.16	-38.08	101.8
5.61	-27.28	-41.47	-30.15	-35.81	-30.15	-35.79	-37.68	100.76
5.71	-27.35	-42.42	-30.17	-36.38	-30.17	-36.34	-37.41	99.78
5.81	-27.46	-43.54	-30.18	-36.98	-30.19	-36.97	-37.15	98.91
5.91	-27.58	-44.43	-30.21	-37.65	-30.21	-37.66	-36.99	98.49
6.01	-27.7	-45.25	-30.23	-38.32	-30.24	-38.23	-36.76	98.47
6.11	-27.8	-45.91	-30.26	-38.89	-30.26	-38.84	-36.46	98.39
6.21	-27.86	-46.64	-30.28	-39.51	-30.28	-39.47	-36.14	97.78
6.31	-27.92	-47.5	-30.3	-40.09	-30.3	-40.07	-35.83	96.86
6.41	-27.97	-48.52	-30.33	-40.65	-30.33	-40.63	-35.5	96.29
6.51	-28.06	-49.65	-30.36	-41.17	-30.37	-41.26	-35.27	95.04
6.61	-28.17	-50.73	-30.38	-41.82	-30.38	-41.78	-35.06	94.61
6.71	-28.29	-51.72	-30.41	-42.41	-30.4	-42.35	-34.87	94.12
6.81	-28.4	-52.61	-30.43	-43.01	-30.43	-42.92	-34.63	94.04
6.91	-28.47	-53.47	-30.47	-43.53	-30.46	-43.5	-34.37	93.84
7.01	-28.53	-54.37	-30.49	-44.1	-30.49	-44.12	-34.1	93.11
7.11	-28.59	-55.45	-30.52	-44.68	-30.52	-44.64	-33.87	92.35
7.21	-28.69	-56.55	-30.54	-45.3	-30.54	-45.21	-33.65	90.97
7.31	-28.78	-57.57	-30.57	-45.97	-30.56	-45.94	-33.55	90.17
7.41	-28.88	-58.36	-30.63	-46.58	-30.64	-46.54	-33.44	89.27
7.51	-28.97	-59.32	-30.67	-46.92	-30.67	-46.91	-33.3	88.99
7.61	-29.07	-60.12	-30.68	-47.5	-30.7	-47.42	-33.08	88.76
7.71	-29.15	-61.01	-30.73	-47.96	-30.72	-47.87	-32.84	88.24
7.81	-29.23	-61.96	-30.76	-48.36	-30.77	-48.38	-32.65	87.52
7.91	-29.36	-62.75	-30.81	-48.9	-30.81	-48.91	-32.46	86.67
8.01	-29.52	-63.98	-30.84	-49.39	-30.84	-49.33	-32.31	86.01
8.11	-29.67	-64.99	-30.88	-49.82	-30.88	-49.7	-32.2	85.7
8.21	-29.83	-66.11	-30.91	-50.34	-30.92	-50.29	-32.07	85.41
8.31	-29.98	-67.11	-30.95	-50.74	-30.95	-50.73	-31.94	85.01
8.41	-30.08	-68.17	-30.98	-51.16	-31	-51.13	-31.77	84.71
8.51	-30.18	-69.43	-31.05	-51.5	-31.06	-51.4	-31.63	84.39
8.61	-30.26	-70.86	-31.09	-51.75	-31.09	-51.68	-31.51	83.95
8.71	-30.34	-72.49	-31.11	-52.02	-31.12	-51.89	-31.35	83.6
8.81	-30.45	-74.1	-31.14	-52.39	-31.14	-52.31	-31.22	83.14
8.91	-30.59	-75.7	-31.16	-52.71	-31.16	-52.59	-31.12	82.92
9.01	-30.75	-77.07	-31.19	-53.06	-31.2	-52.92	-30.98	82.97
9.11	-30.89	-78.6	-31.23	-53.21	-31.24	-53.15	-30.82	82.62
9.21	-31.02	-79.94	-31.25	-53.42	-31.25	-53.33	-30.66	82.59
9.31	-31.11	-81.26	-31.25	-53.71	-31.26	-53.61	-30.51	82.33
9.41	-31.19	-82.67	-31.27	-53.94	-31.28	-53.82	-30.35	82.12
9.51	-31.25	-84.24	-31.3	-54.14	-31.29	-54.05	-30.18	81.9
9.61	-31.4	-86.12	-31.28	-54.4	-31.28	-54.27	-30.01	81.44
9.71	-31.51	-87.8	-31.29	-54.57	-31.3	-54.5	-29.84	81.2
9.81	-31.64	-89.43	-31.29	-54.82	-31.29	-54.7	-29.66	81.04
9.91	-31.75	-90.59	-31.28	-55.12	-31.29	-54.98	-29.46	80.85
10.01	-31.85	-91.85	-31.29	-55.34	-31.3	-55.3	-29.3	80.56
10.11	-31.93	-93.2	-31.29	-55.54	-31.28	-55.5	-29.11	80.43
10.21	-32.02	-94.78	-31.27	-55.64	-31.28	-55.55	-28.88	80.27
10.31	-32.15	-96.54	-31.25	-56	-31.24	-55.96	-28.68	79.82
10.41	-32.27	-98.56	-31.23	-56.3	-31.23	-56.19	-28.46	79.18
10.51	-32.47	-100.56	-31.21	-56.5	-31.2	-56.37	-28.27	78.51
10.61	-32.64	-102.85	-31.17	-56.8	-31.16	-56.75	-28.08	78.04
10.71	-32.81	-104.76	-31.14	-57.34	-31.15	-57.21	-27.92	77.62
10.81	-32.97	-106.7	-31.13	-57.74	-31.13	-57.66	-27.71	77.22
10.91	-33.07	-109.25	-31.12	-58.07	-31.13	-57.94	-27.51	76.93
11.01	-33.2	-111.32	-31.08	-58.37	-31.1	-58.23	-27.28	76.49
11.11	-33.26	-113.62	-31.06	-58.81	-31.06	-58.81	-27.08	75.71
11.21	-33.35	-116.09	-31.06	-59.3	-31.04	-59.22	-26.92	74.96
11.31	-33.47	-117.88	-31.03	-59.61	-31.03	-59.56	-26.74	74.19
11.41	-33.56	-120.44	-31.02	-59.99	-31.01	-59.86	-26.61	73.43
11.51	-33.61	-122.05	-30.98	-60.4	-30.98	-60.3	-26.44	72.95
11.61	-33.64	-124.04	-30.94	-60.88	-30.94	-60.78	-26.28	72.49
11.71	-33.63	-126.35	-30.93	-61.27	-30.95	-61.24	-26.12	71.93
11.81	-33.65	-129.23	-30.89	-61.67	-30.9	-61.58	-25.91	71.4
11.91	-33.78	-132.04	-30.89	-62.2	-30.89	-62.09	-25.71	70.33
12.01	-33.75	-134.23	-30.86	-62.64	-30.85	-62.71	-25.61	69.47
12.11	-33.71	-136.07	-30.88	-63.36	-30.86	-63.25	-25.44	68.65
12.21	-33.69	-138.14	-30.88	-63.42	-30.86	-63.43	-25.33	67.76
12.31	-33.72	-140.22	-30.83	-63.82	-30.82	-63.73	-25.21	67.1
12.41	-33.63	-142.46	-30.79	-64.52	-30.79	-64.28	-25.13	66.45
12.51	-33.62	-145.31	-30.78	-64.94	-30.77	-64.72	-24.97	66.13
12.61	-33.58	-147.59	-30.74	-65.31	-30.75	-65.24	-24.8	65.5
12.71	-33.63	-150.82	-30.72	-65.85	-30.73	-65.83	-24.62	64.79
12.81	-33.71	-153.69	-30.75	-66.1	-30.74	-66.06	-24.43	63.5
12.91	-33.85	-156.24	-30.68	-66.66	-30.67	-66.59	-24.34	62.61
13.01	-33.81	-158.36	-30.7	-67.19	-30.7	-67	-24.18	61.48
13.11	-33.84	-161.03	-30.68	-67.63	-30.66	-67.45	-24.12	60.71
13.21	-33.77	-162.82	-30.71	-67.79	-30.7	-67.51	-24.04	60.11
13.31	-33.53	-165.54	-30.61	-68.1	-30.62	-67.93	-23.88	59.73
13.41	-33.4	-168.15	-30.57	-68.49	-30.57	-68.3	-23.74	58.76
13.51	-33.22	-171.11	-30.52	-69.2	-30.54	-69.09	-23.66	58.28
13.61	-33.09	-173.35	-30.53	-69.62	-30.52	-69.57	-23.51	57.26
13.71	-33.06	-175.94	-30.48	-70.1	-30.48	-70.02	-23.41	56.57
13.81	-32.95	-177.12	-30.44	-70.51	-30.44	-70.46	-23.3	55.71
13.91	-32.79	-179.07	-30.42	-71.12	-30.42	-71.01	-23.23	54.97
14.01	-32.58	179.65	-30.4	-71.91	-30.37	-71.67	-23.14	54.2
14.11	-32.31	177.52	-30.39	-72.34	-30.39	-72.07	-23.04	53.95
14.21	-32.1	175.26	-30.37	-72.46	-30.38	-72.19	-22.9	53.28
14.31	-31.94	172.13	-30.27	-72.92	-30.29	-72.74	-22.79	52.47
14.41	-31.9	170.62	-30.25	-73.64	-30.25	-73.62	-22.65	51.8
14.51	-31.75	168.2	-30.25	-74.19	-30.25	-74.13	-22.56	50.78
14.61	-31.74	166.92	-30.24	-74.75	-30.23	-74.53	-22.49	49.84
14.71	-31.6	166.29	-30.17	-75.21	-30.16	-74.97	-22.45	49.04
14.81	-31.46	165.47	-30.17	-75.96	-30.15	-75.72	-22.38	48.49
14.91	-31.23	164.86	-30.18	-76.48	-30.18	-76.29	-22.28	47.97
15.01	-30.99	162.6	-30.14	-76.61	-30.15	-76.47	-22.14	47.36
15.11	-30.83	160.37	-30.09	-77.1	-30.09	-77	-22.06	46.5
15.21	-30.78	158.29	-30.06	-77.77	-30.06	-77.57	-21.94	45.58
15.31	-30.83	156.3	-30.05	-78.29	-30.02	-78.15	-21.89	44.74
15.41	-30.77	155.07	-30.05	-78.47	-30.03	-78.35	-21.8	44.04
15.51	-30.64	154.22	-29.99	-78.84	-29.97	-78.63	-21.73	43.2
15.61	-30.33	153.31	-29.95	-79.34	-29.92	-79.05	-21.69	42.64
15.71	-30.02	152	-29.88	-80.13	-29.88	-79.87	-21.61	42.25
15.81	-29.74	150.33	-29.88	-80.79	-29.88	-80.51	-21.52	41.68
15.91	-29.51	148.42	-29.86	-80.94	-29.87	-80.84	-21.43	40.87
16.01	-29.4	145.81	-29.81	-81.28	-29.8	-81.1	-21.37	40.17
16.11	-29.36	144.03	-29.75	-81.33	-29.74	-81.28	-21.32	39.44
16.21	-29.36	142.82	-29.66	-82.01	-29.63	-81.9	-21.3	38.94
16.31	-29.3	142.93	-29.61	-82.71	-29.58	-82.53	-21.21	38.46
16.41	-29.07	142.4	-29.56	-83.35	-29.53	-83.04	-21.14	37.9
16.51	-28.79	141.22	-29.51	-83.93	-29.48	-83.83	-21.1	37.19
16.61	-28.65	139.56	-29.46	-84.64	-29.43	-84.46	-21.05	36.81
16.71	-28.54	138.23	-29.4	-85.19	-29.37	-85.13	-21.04	36.84
16.81	-28.47	136.88	-29.4	-85.68	-29.35	-85.58	-20.87	36.58
16.91	-28.48	135.62	-29.33	-85.82	-29.25	-85.81	-20.75	36.48
17.01	-28.54	136.44	-29.22	-86.74	-29.16	-86.79	-20.54	35.49
17.11	-28.33	136.54	-29.2	-87.41	-29.12	-87.47	-20.38	33.86
17.21	-28.08	136.32	-29.13	-87.96	-29.08	-88.13	-20.54	31.46
17.31	-27.82	135.05	-29.09	-88.21	-29.08	-88.53	-20.76	31.97
17.41	-27.7	133.27	-28.94	-88.73	-28.94	-89.15	-20.82	34.3
17.51	-27.64	131.82	-28.86	-89.93	-28.89	-90.35	-20.34	35.27
17.61	-27.66	130.17	-28.78	-90.04	-28.82	-90.61	-19.94	34.07
17.71	-27.76	129.27	-28.66	-91.35	-28.71	-91.55	-19.79	31.09
17.81	-27.75	129.02	-28.62	-92.23	-28.65	-92.34	-19.9	29.46
17.91	-27.65	128.78	-28.56	-93.31	-28.61	-93.18	-20.04	29.66
18.01	-27.34	127.89	-28.49	-94.05	-28.54	-93.87	-19.96	30.5
18.11	-27.2	125.94	-28.44	-94.81	-28.48	-94.57	-19.68	30.57
18.21	-27.15	124.84	-28.37	-95.93	-28.41	-95.62	-19.49	29.5
18.31	-27.05	123.92	-28.33	-96.84	-28.35	-96.7	-19.32	28.56
18.41	-27.05	123.02	-28.28	-97.31	-28.3	-97.32	-19.33	26.74
18.51	-27.09	123.07	-28.18	-98.72	-28.19	-98.56	-19.31	26.46
18.61	-26.96	123.12	-28.21	-99.54	-28.19	-99.28	-19.33	25.74
18.71	-26.92	123.68	-28.11	-100.37	-28.13	-100.12	-19.29	25.69
18.81	-26.7	123.27	-28.01	-101.26	-28.03	-101.01	-19.23	25.53
18.91	-26.61	122.12	-27.94	-102.36	-27.94	-102.09	-19.09	25.58
19.01	-26.55	121.57	-27.88	-103.67	-27.89	-103.55	-18.93	24.76
19.11	-26.49	121.55	-27.88	-104.75	-27.91	-104.67	-18.85	24.01
19.21	-26.51	120.98	-27.84	-105.35	-27.83	-105.12	-18.8	23.04
19.31	-26.46	121.19	-27.69	-106.8	-27.66	-106.64	-18.8	22.99
19.41	-26.32	121.75	-27.73	-108.48	-27.74	-108.35	-18.66	22.83
19.51	-26.26	121.59	-27.71	-109.62	-27.69	-109.24	-18.54	22.42
19.61	-26.05	121.11	-27.72	-110.43	-27.72	-110.19	-18.43	21.32
19.71	-26	120.41	-27.66	-111.09	-27.67	-110.86	-18.42	20.89
19.81	-26.11	119.29	-27.43	-112.39	-27.44	-112.32	-18.32	20.34
19.91	-26.17	119.81	-27.49	-114.43	-27.5	-114.32	-18.21	19.98
20.01	-26.2	121.09	-27.54	-116.06	-27.52	-115.92	-18.06	19.24