!s2p File: Measurements: S11, S21, S12, S22								
# GHz S dB R 50.0								
0.01	-15.51	-0.73	-16.34	-0.33	-16.32	-0.4	-20.77	-1.67
0.11	-15.76	-1.8	-16.46	-1.37	-16.45	-1.36	-21.38	-2.71
0.21	-15.83	-2.31	-16.49	-2.04	-16.49	-2.02	-21.52	-2.59
0.31	-15.86	-2.89	-16.5	-2.76	-16.5	-2.75	-21.57	-2.67
0.41	-15.87	-3.51	-16.51	-3.5	-16.51	-3.49	-21.6	-2.92
0.51	-15.88	-4.15	-16.52	-4.26	-16.51	-4.25	-21.61	-3.21
0.61	-15.89	-4.8	-16.52	-5.01	-16.52	-5.01	-21.62	-3.56
0.71	-15.89	-5.5	-16.52	-5.8	-16.52	-5.79	-21.62	-3.91
0.81	-15.89	-6.18	-16.53	-6.58	-16.52	-6.56	-21.62	-4.33
0.91	-15.9	-6.88	-16.53	-7.34	-16.52	-7.34	-21.63	-4.7
1.01	-15.9	-7.57	-16.53	-8.12	-16.53	-8.11	-21.63	-5.09
1.11	-15.9	-8.29	-16.53	-8.9	-16.53	-8.91	-21.63	-5.53
1.21	-15.91	-9.02	-16.54	-9.68	-16.54	-9.68	-21.62	-5.95
1.31	-15.91	-9.77	-16.54	-10.47	-16.54	-10.46	-21.62	-6.42
1.41	-15.92	-10.54	-16.55	-11.26	-16.54	-11.26	-21.63	-6.92
1.51	-15.93	-11.29	-16.55	-12.04	-16.55	-12.04	-21.63	-7.29
1.61	-15.93	-12.02	-16.55	-12.82	-16.55	-12.83	-21.62	-7.69
1.71	-15.93	-12.8	-16.56	-13.61	-16.56	-13.6	-21.61	-8.19
1.81	-15.93	-13.63	-16.56	-14.38	-16.56	-14.38	-21.6	-8.76
1.91	-15.93	-14.42	-16.57	-15.16	-16.56	-15.15	-21.6	-9.26
2.01	-15.94	-15.19	-16.57	-15.95	-16.57	-15.94	-21.61	-9.77
2.11	-15.95	-15.96	-16.58	-16.74	-16.57	-16.73	-21.61	-10.26
2.21	-15.95	-16.73	-16.58	-17.51	-16.58	-17.51	-21.61	-10.71
2.31	-15.96	-17.5	-16.59	-18.28	-16.58	-18.29	-21.61	-11.17
2.41	-15.97	-18.27	-16.59	-19.07	-16.59	-19.07	-21.6	-11.66
2.51	-15.98	-19.01	-16.6	-19.82	-16.59	-19.83	-21.61	-12.14
2.61	-15.99	-19.77	-16.6	-20.6	-16.6	-20.61	-21.61	-12.6
2.71	-16.01	-20.49	-16.61	-21.39	-16.6	-21.4	-21.62	-13.04
2.81	-16.02	-21.2	-16.61	-22.16	-16.61	-22.16	-21.62	-13.49
2.91	-16.03	-21.93	-16.62	-22.93	-16.62	-22.94	-21.62	-13.92
3.01	-16.05	-22.69	-16.63	-23.71	-16.62	-23.71	-21.62	-14.32
3.11	-16.06	-23.46	-16.63	-24.49	-16.63	-24.49	-21.62	-14.81
3.21	-16.08	-24.22	-16.64	-25.27	-16.63	-25.27	-21.62	-15.25
3.31	-16.09	-25	-16.64	-26.05	-16.64	-26.04	-21.62	-15.7
3.41	-16.11	-25.75	-16.65	-26.81	-16.64	-26.81	-21.62	-16.15
3.51	-16.12	-26.52	-16.65	-27.58	-16.65	-27.59	-21.62	-16.55
3.61	-16.14	-27.3	-16.66	-28.36	-16.66	-28.37	-21.62	-17.01
3.71	-16.16	-28.1	-16.66	-29.12	-16.66	-29.14	-21.62	-17.49
3.81	-16.18	-28.93	-16.67	-29.91	-16.67	-29.93	-21.62	-18.01
3.91	-16.21	-29.72	-16.68	-30.68	-16.68	-30.7	-21.63	-18.51
4.01	-16.23	-30.48	-16.68	-31.48	-16.69	-31.48	-21.65	-18.92
4.11	-16.24	-31.23	-16.69	-32.27	-16.69	-32.24	-21.65	-19.33
4.21	-16.25	-32.01	-16.69	-33.02	-16.7	-33.01	-21.64	-19.74
4.31	-16.28	-32.88	-16.7	-33.78	-16.71	-33.78	-21.62	-20.22
4.41	-16.3	-33.74	-16.71	-34.56	-16.72	-34.56	-21.62	-20.77
4.51	-16.33	-34.52	-16.72	-35.32	-16.72	-35.33	-21.63	-21.31
4.61	-16.36	-35.27	-16.73	-36.1	-16.73	-36.11	-21.64	-21.78
4.71	-16.37	-35.96	-16.74	-36.9	-16.74	-36.88	-21.65	-22.21
4.81	-16.39	-36.73	-16.75	-37.67	-16.75	-37.64	-21.65	-22.55
4.91	-16.39	-37.56	-16.75	-38.44	-16.76	-38.41	-21.64	-22.9
5.01	-16.41	-38.38	-16.76	-39.2	-16.76	-39.18	-21.63	-23.32
5.11	-16.44	-39.21	-16.77	-39.94	-16.77	-39.95	-21.61	-23.84
5.21	-16.48	-39.97	-16.78	-40.72	-16.78	-40.73	-21.62	-24.32
5.31	-16.51	-40.72	-16.79	-41.5	-16.79	-41.5	-21.63	-24.83
5.41	-16.54	-41.4	-16.8	-42.27	-16.8	-42.26	-21.64	-25.25
5.51	-16.56	-42.11	-16.81	-43.04	-16.81	-43.04	-21.66	-25.56
5.61	-16.59	-42.9	-16.82	-43.82	-16.82	-43.81	-21.65	-25.83
5.71	-16.62	-43.71	-16.83	-44.61	-16.83	-44.57	-21.64	-26.26
5.81	-16.65	-44.56	-16.84	-45.34	-16.84	-45.33	-21.62	-26.63
5.91	-16.69	-45.36	-16.85	-46.11	-16.85	-46.1	-21.61	-27.18
6.01	-16.73	-46.13	-16.85	-46.9	-16.86	-46.9	-21.6	-27.72
6.11	-16.77	-46.87	-16.87	-47.67	-16.87	-47.66	-21.61	-28.17
6.21	-16.79	-47.62	-16.88	-48.42	-16.88	-48.43	-21.61	-28.53
6.31	-16.82	-48.38	-16.89	-49.19	-16.9	-49.18	-21.6	-28.88
6.41	-16.84	-49.22	-16.91	-49.95	-16.91	-49.94	-21.6	-29.23
6.51	-16.87	-50.05	-16.92	-50.68	-16.92	-50.69	-21.58	-29.64
6.61	-16.91	-50.91	-16.93	-51.46	-16.93	-51.44	-21.58	-30.12
6.71	-16.95	-51.74	-16.94	-52.22	-16.94	-52.21	-21.57	-30.6
6.81	-16.98	-52.51	-16.96	-52.98	-16.96	-52.95	-21.58	-31.09
6.91	-17.01	-53.31	-16.97	-53.72	-16.97	-53.7	-21.58	-31.53
7.01	-17.03	-54.08	-16.98	-54.47	-16.98	-54.46	-21.58	-31.91
7.11	-17.06	-54.89	-17	-55.19	-17	-55.21	-21.58	-32.31
7.21	-17.09	-55.73	-17.01	-55.96	-17.01	-55.96	-21.55	-32.62
7.31	-17.13	-56.51	-17.02	-56.77	-17.02	-56.74	-21.52	-33.16
7.41	-17.16	-57.3	-17.04	-57.53	-17.04	-57.51	-21.49	-33.72
7.51	-17.19	-58.11	-17.06	-58.24	-17.06	-58.2	-21.48	-34.32
7.61	-17.22	-58.86	-17.07	-58.98	-17.07	-58.93	-21.49	-34.76
7.71	-17.25	-59.66	-17.08	-59.7	-17.09	-59.67	-21.49	-35.19
7.81	-17.28	-60.42	-17.1	-60.39	-17.11	-60.4	-21.49	-35.62
7.91	-17.32	-61.18	-17.12	-61.14	-17.13	-61.15	-21.48	-36.05
8.01	-17.36	-62.04	-17.13	-61.87	-17.14	-61.86	-21.46	-36.55
8.11	-17.41	-62.87	-17.15	-62.58	-17.15	-62.55	-21.46	-37.14
8.21	-17.46	-63.7	-17.17	-63.29	-17.17	-63.28	-21.46	-37.71
8.31	-17.51	-64.49	-17.18	-64.03	-17.18	-63.98	-21.46	-38.29
8.41	-17.54	-65.34	-17.19	-64.71	-17.2	-64.68	-21.47	-38.82
8.51	-17.58	-66.19	-17.21	-65.41	-17.22	-65.39	-21.47	-39.35
8.61	-17.6	-67.11	-17.23	-66.09	-17.24	-66.07	-21.47	-39.88
8.71	-17.64	-68.06	-17.24	-66.78	-17.25	-66.72	-21.47	-40.38
8.81	-17.68	-68.97	-17.26	-67.46	-17.26	-67.4	-21.47	-40.93
8.91	-17.72	-69.88	-17.28	-68.12	-17.28	-68.1	-21.47	-41.54
9.01	-17.77	-70.76	-17.28	-68.81	-17.29	-68.75	-21.49	-42.14
9.11	-17.81	-71.66	-17.3	-69.45	-17.31	-69.41	-21.5	-42.63
9.21	-17.86	-72.56	-17.31	-70.11	-17.31	-70.08	-21.53	-43.15
9.31	-17.9	-73.44	-17.32	-70.79	-17.32	-70.74	-21.54	-43.68
9.41	-17.94	-74.34	-17.33	-71.45	-17.33	-71.4	-21.56	-44.19
9.51	-17.97	-75.26	-17.34	-72.13	-17.34	-72.09	-21.58	-44.63
9.61	-18.02	-76.13	-17.35	-72.8	-17.35	-72.72	-21.6	-45.06
9.71	-18.06	-77.1	-17.35	-73.43	-17.36	-73.42	-21.62	-45.48
9.81	-18.12	-77.99	-17.35	-74.09	-17.36	-74.07	-21.64	-45.96
9.91	-18.16	-78.79	-17.36	-74.78	-17.36	-74.74	-21.68	-46.37
10.01	-18.2	-79.63	-17.36	-75.48	-17.37	-75.41	-21.7	-46.82
10.11	-18.24	-80.46	-17.37	-76.14	-17.37	-76.08	-21.74	-47.2
10.21	-18.29	-81.34	-17.38	-76.79	-17.38	-76.75	-21.77	-47.55
10.31	-18.34	-82.24	-17.38	-77.47	-17.38	-77.4	-21.8	-47.85
10.41	-18.39	-83.13	-17.38	-78.14	-17.38	-78.12	-21.83	-48.06
10.51	-18.46	-84.03	-17.38	-78.81	-17.38	-78.78	-21.84	-48.33
10.61	-18.52	-85.01	-17.38	-79.5	-17.38	-79.49	-21.86	-48.63
10.71	-18.59	-85.84	-17.38	-80.25	-17.38	-80.18	-21.88	-49.01
10.81	-18.65	-86.74	-17.38	-80.98	-17.38	-80.87	-21.91	-49.3
10.91	-18.71	-87.7	-17.38	-81.69	-17.39	-81.59	-21.95	-49.64
11.01	-18.77	-88.59	-17.38	-82.38	-17.39	-82.29	-21.99	-49.73
11.11	-18.82	-89.48	-17.38	-83.07	-17.39	-83.03	-22	-49.94
11.21	-18.87	-90.44	-17.39	-83.8	-17.39	-83.78	-22.02	-50.14
11.31	-18.93	-91.29	-17.4	-84.5	-17.39	-84.48	-22.01	-50.32
11.41	-18.99	-92.22	-17.4	-85.24	-17.39	-85.2	-22.01	-50.7
11.51	-19.03	-93.06	-17.4	-85.98	-17.4	-85.87	-22.03	-50.95
11.61	-19.08	-93.93	-17.4	-86.69	-17.4	-86.57	-22.05	-51.3
11.71	-19.12	-94.85	-17.39	-87.38	-17.41	-87.36	-22.08	-51.66
11.81	-19.18	-95.86	-17.4	-88.09	-17.41	-88.04	-22.12	-51.73
11.91	-19.26	-96.74	-17.41	-88.83	-17.4	-88.79	-22.1	-51.69
12.01	-19.29	-97.7	-17.41	-89.54	-17.41	-89.58	-22.08	-51.99
12.11	-19.33	-98.6	-17.42	-90.35	-17.41	-90.33	-22.09	-52.19
12.21	-19.38	-99.45	-17.43	-91.02	-17.42	-91	-22.08	-52.47
12.31	-19.43	-100.33	-17.43	-91.77	-17.43	-91.71	-22.08	-52.86
12.41	-19.47	-101.26	-17.42	-92.56	-17.43	-92.41	-22.07	-53.23
12.51	-19.54	-102.19	-17.43	-93.27	-17.44	-93.13	-22.11	-53.53
12.61	-19.58	-103.07	-17.43	-93.93	-17.45	-93.88	-22.12	-53.71
12.71	-19.66	-104.03	-17.43	-94.65	-17.44	-94.63	-22.14	-53.79
12.81	-19.73	-104.98	-17.45	-95.35	-17.45	-95.4	-22.12	-53.6
12.91	-19.82	-105.77	-17.45	-96.13	-17.44	-96.08	-22.1	-53.85
13.01	-19.87	-106.7	-17.46	-96.89	-17.45	-96.84	-22.07	-53.89
13.11	-19.96	-107.53	-17.46	-97.68	-17.46	-97.6	-22.04	-54.4
13.21	-19.99	-108.27	-17.49	-98.36	-17.49	-98.19	-22.04	-54.76
13.31	-20.04	-109.48	-17.47	-98.99	-17.47	-98.88	-22.08	-54.96
13.41	-20.09	-110.5	-17.47	-99.69	-17.48	-99.65	-22.07	-55.06
13.51	-20.15	-111.59	-17.47	-100.42	-17.48	-100.36	-22.08	-55.48
13.61	-20.2	-112.64	-17.48	-101.14	-17.48	-101.14	-22.06	-55.48
13.71	-20.28	-113.59	-17.48	-101.85	-17.47	-101.85	-22.06	-55.72
13.81	-20.31	-114.53	-17.49	-102.65	-17.48	-102.62	-22.04	-55.94
13.91	-20.38	-115.5	-17.5	-103.44	-17.49	-103.28	-22.02	-56.45
14.01	-20.41	-116.45	-17.5	-104.22	-17.49	-104.07	-22.01	-56.69
14.11	-20.45	-117.53	-17.5	-104.9	-17.51	-104.8	-22.05	-57.08
14.21	-20.5	-118.62	-17.51	-105.63	-17.52	-105.47	-22.08	-57.19
14.31	-20.58	-119.78	-17.5	-106.27	-17.51	-106.2	-22.06	-57.28
14.41	-20.62	-120.58	-17.5	-107.02	-17.51	-107.01	-22.06	-57.34
14.51	-20.7	-121.72	-17.52	-107.85	-17.52	-107.79	-22.03	-57.54
14.61	-20.74	-122.51	-17.54	-108.59	-17.52	-108.5	-21.99	-57.81
14.71	-20.77	-123.44	-17.54	-109.31	-17.52	-109.16	-21.95	-58.23
14.81	-20.79	-124.24	-17.54	-110.13	-17.53	-109.94	-21.95	-58.7
14.91	-20.79	-125.3	-17.55	-110.86	-17.55	-110.71	-21.97	-59.03
15.01	-20.87	-126.36	-17.55	-111.5	-17.56	-111.35	-21.99	-59.03
15.11	-20.93	-127.54	-17.55	-112.22	-17.56	-112.15	-21.96	-59.27
15.21	-21.01	-128.38	-17.56	-112.93	-17.55	-112.91	-21.92	-59.29
15.31	-21.1	-129.12	-17.58	-113.74	-17.56	-113.62	-21.88	-59.67
15.41	-21.14	-129.98	-17.6	-114.4	-17.58	-114.3	-21.89	-59.92
15.51	-21.18	-130.85	-17.6	-115.09	-17.58	-114.94	-21.86	-60.2
15.61	-21.2	-132.16	-17.6	-115.86	-17.6	-115.68	-21.86	-60.7
15.71	-21.24	-133.43	-17.59	-116.6	-17.6	-116.4	-21.88	-61.06
15.81	-21.29	-134.58	-17.6	-117.3	-17.61	-117.15	-21.9	-61.27
15.91	-21.34	-135.87	-17.61	-117.98	-17.61	-117.93	-21.88	-61.47
16.01	-21.45	-136.91	-17.62	-118.64	-17.62	-118.59	-21.87	-61.79
16.11	-21.52	-137.84	-17.63	-119.26	-17.61	-119.23	-21.85	-62.04
16.21	-21.57	-138.54	-17.64	-120.05	-17.6	-119.93	-21.86	-62.71
16.31	-21.54	-139.2	-17.64	-120.76	-17.62	-120.59	-21.87	-62.85
16.41	-21.54	-140.47	-17.63	-121.42	-17.62	-121.23	-21.86	-63.25
16.51	-21.56	-141.8	-17.63	-122.21	-17.61	-122.06	-21.86	-63.66
16.61	-21.62	-142.92	-17.63	-122.94	-17.61	-122.79	-21.87	-64.04
16.71	-21.64	-143.94	-17.64	-123.53	-17.61	-123.52	-21.96	-64.75
16.81	-21.7	-144.91	-17.64	-124.28	-17.61	-124.29	-22.03	-64.54
16.91	-21.75	-145.67	-17.66	-124.92	-17.6	-124.91	-22.11	-64.34
17.01	-21.68	-146.15	-17.65	-125.59	-17.6	-125.64	-22.05	-63.57
17.11	-21.65	-147.25	-17.67	-126.32	-17.6	-126.34	-21.91	-62.86
17.21	-21.61	-148.55	-17.65	-126.9	-17.61	-127.06	-21.56	-64.33
17.31	-21.65	-149.89	-17.64	-127.51	-17.63	-127.78	-21.67	-66.74
17.41	-21.67	-151.02	-17.59	-128.07	-17.6	-128.5	-22.01	-68.38
17.51	-21.73	-152.15	-17.56	-128.99	-17.58	-129.37	-22.34	-66.61
17.61	-21.83	-152.85	-17.54	-129.51	-17.57	-129.99	-22.28	-64.34
17.71	-21.85	-153.45	-17.51	-130.56	-17.55	-130.75	-21.91	-64.11
17.81	-21.83	-154.15	-17.52	-131.33	-17.54	-131.47	-21.73	-65.56
17.91	-21.82	-155.28	-17.5	-132.37	-17.54	-132.28	-21.87	-67.61
18.01	-21.82	-157.04	-17.5	-133.28	-17.54	-133.08	-22.14	-67.92
18.11	-21.93	-158	-17.5	-134.03	-17.55	-133.8	-22.32	-66.8
18.21	-21.91	-159.27	-17.49	-134.84	-17.53	-134.7	-22.29	-65.84
18.31	-21.93	-160.54	-17.48	-135.7	-17.51	-135.6	-22.23	-65
18.41	-21.95	-161.43	-17.49	-136.45	-17.51	-136.42	-22.02	-65.68
18.51	-21.89	-162.4	-17.49	-137.31	-17.49	-137.2	-22.07	-66.11
18.61	-21.88	-163.46	-17.52	-138.21	-17.51	-137.95	-22.06	-66.93
18.71	-21.79	-164.21	-17.5	-138.93	-17.5	-138.75	-22.15	-67.36
18.81	-21.72	-165.81	-17.46	-139.81	-17.49	-139.56	-22.24	-67.6
18.91	-21.74	-166.92	-17.47	-140.75	-17.46	-140.52	-22.39	-67.2
19.01	-21.7	-168.34	-17.45	-141.61	-17.47	-141.54	-22.36	-66.43
19.11	-21.69	-169.46	-17.47	-142.44	-17.48	-142.43	-22.33	-66.24
19.21	-21.68	-170.38	-17.48	-143.28	-17.47	-143.15	-22.24	-66.53
19.31	-21.59	-171.67	-17.45	-144.22	-17.44	-144.13	-22.36	-67.22
19.41	-21.56	-173.09	-17.49	-145.4	-17.48	-145.23	-22.48	-66.55
19.51	-21.5	-174.23	-17.52	-146.26	-17.5	-146.03	-22.53	-65.92
19.61	-21.52	-175.91	-17.52	-147.08	-17.53	-146.86	-22.4	-65.39
19.71	-21.53	-176.86	-17.52	-147.88	-17.53	-147.67	-22.4	-65.87
19.81	-21.52	-178	-17.49	-148.68	-17.5	-148.61	-22.39	-65.67
19.91	-21.52	-179.03	-17.5	-149.77	-17.51	-149.71	-22.43	-65.23
20.01	-21.46	179.78	-17.55	-150.8	-17.53	-150.72	-22.38	-64.3