!s2p File: Measurements: S11, S21, S12, S22								
# GHz S dB R 50.0								
0.01	-15.67	-0.78	-11.81	-0.39	-11.81	-0.34	-22.37	-1.85
0.11	-15.93	-1.87	-11.93	-1.46	-11.93	-1.46	-23.24	-5.15
0.21	-16.01	-2.35	-11.97	-2.2	-11.97	-2.19	-23.52	-5.31
0.31	-16.04	-2.89	-11.98	-2.98	-11.98	-2.97	-23.61	-5.73
0.41	-16.06	-3.49	-11.99	-3.79	-11.99	-3.78	-23.65	-6.46
0.51	-16.06	-4.11	-11.99	-4.61	-11.99	-4.6	-23.69	-7.31
0.61	-16.07	-4.74	-12	-5.45	-11.99	-5.44	-23.7	-8.28
0.71	-16.07	-5.42	-12	-6.29	-12	-6.29	-23.72	-9.26
0.81	-16.07	-6.08	-12.01	-7.14	-12	-7.13	-23.73	-10.33
0.91	-16.08	-6.77	-12.01	-7.98	-12	-7.98	-23.75	-11.39
1.01	-16.08	-7.45	-12.01	-8.83	-12.01	-8.83	-23.76	-12.45
1.11	-16.08	-8.15	-12.01	-9.67	-12.01	-9.68	-23.78	-13.54
1.21	-16.09	-8.87	-12.02	-10.53	-12.01	-10.52	-23.79	-14.65
1.31	-16.09	-9.6	-12.02	-11.39	-12.02	-11.38	-23.81	-15.83
1.41	-16.1	-10.36	-12.03	-12.25	-12.02	-12.24	-23.83	-17.03
1.51	-16.11	-11.1	-12.03	-13.1	-12.02	-13.1	-23.86	-18.1
1.61	-16.1	-11.82	-12.03	-13.95	-12.03	-13.95	-23.87	-19.17
1.71	-16.1	-12.58	-12.04	-14.8	-12.03	-14.79	-23.88	-20.37
1.81	-16.1	-13.4	-12.04	-15.65	-12.04	-15.65	-23.9	-21.63
1.91	-16.11	-14.17	-12.05	-16.49	-12.04	-16.5	-23.92	-22.87
2.01	-16.11	-14.94	-12.05	-17.36	-12.05	-17.36	-23.96	-24.09
2.11	-16.12	-15.7	-12.05	-18.21	-12.05	-18.21	-23.99	-25.33
2.21	-16.13	-16.46	-12.06	-19.06	-12.06	-19.05	-24.02	-26.49
2.31	-16.13	-17.22	-12.06	-19.9	-12.06	-19.9	-24.05	-27.68
2.41	-16.14	-17.99	-12.07	-20.75	-12.07	-20.75	-24.08	-28.83
2.51	-16.15	-18.72	-12.07	-21.6	-12.07	-21.61	-24.12	-30.03
2.61	-16.16	-19.45	-12.08	-22.45	-12.08	-22.45	-24.17	-31.23
2.71	-16.17	-20.15	-12.09	-23.29	-12.08	-23.29	-24.2	-32.4
2.81	-16.19	-20.86	-12.09	-24.14	-12.09	-24.13	-24.25	-33.63
2.91	-16.2	-21.58	-12.1	-24.98	-12.09	-24.98	-24.3	-34.78
3.01	-16.21	-22.33	-12.1	-25.83	-12.1	-25.83	-24.34	-35.89
3.11	-16.22	-23.09	-12.11	-26.67	-12.1	-26.68	-24.39	-37.12
3.21	-16.24	-23.84	-12.11	-27.51	-12.11	-27.52	-24.43	-38.29
3.31	-16.25	-24.61	-12.12	-28.37	-12.12	-28.37	-24.49	-39.5
3.41	-16.27	-25.35	-12.12	-29.21	-12.12	-29.21	-24.54	-40.69
3.51	-16.28	-26.11	-12.13	-30.04	-12.13	-30.06	-24.59	-41.86
3.61	-16.3	-26.88	-12.14	-30.88	-12.13	-30.91	-24.65	-43.07
3.71	-16.31	-27.68	-12.14	-31.73	-12.14	-31.76	-24.7	-44.33
3.81	-16.33	-28.5	-12.15	-32.58	-12.15	-32.6	-24.75	-45.63
3.91	-16.36	-29.26	-12.16	-33.44	-12.16	-33.45	-24.81	-46.95
4.01	-16.38	-30.01	-12.16	-34.28	-12.16	-34.3	-24.89	-48.2
4.11	-16.39	-30.77	-12.17	-35.16	-12.17	-35.14	-24.96	-49.42
4.21	-16.41	-31.55	-12.17	-35.98	-12.17	-35.98	-25.02	-50.53
4.31	-16.42	-32.38	-12.18	-36.8	-12.18	-36.82	-25.06	-51.81
4.41	-16.45	-33.23	-12.19	-37.65	-12.19	-37.66	-25.11	-53.13
4.51	-16.47	-34	-12.2	-38.49	-12.2	-38.51	-25.17	-54.49
4.61	-16.5	-34.74	-12.21	-39.34	-12.21	-39.36	-25.25	-55.84
4.71	-16.51	-35.45	-12.21	-40.21	-12.21	-40.2	-25.34	-57.18
4.81	-16.52	-36.2	-12.22	-41.06	-12.22	-41.04	-25.42	-58.38
4.91	-16.53	-37.01	-12.23	-41.9	-12.23	-41.89	-25.5	-59.51
5.01	-16.55	-37.83	-12.23	-42.74	-12.24	-42.72	-25.57	-60.67
5.11	-16.58	-38.63	-12.24	-43.57	-12.25	-43.56	-25.62	-62
5.21	-16.61	-39.4	-12.25	-44.4	-12.26	-44.41	-25.69	-63.29
5.31	-16.63	-40.13	-12.26	-45.26	-12.26	-45.27	-25.77	-64.74
5.41	-16.66	-40.82	-12.27	-46.11	-12.27	-46.09	-25.88	-66.15
5.51	-16.69	-41.53	-12.28	-46.94	-12.28	-46.94	-26	-67.42
5.61	-16.71	-42.3	-12.29	-47.8	-12.29	-47.79	-26.1	-68.56
5.71	-16.73	-43.08	-12.3	-48.65	-12.3	-48.63	-26.18	-69.74
5.81	-16.77	-43.92	-12.31	-49.46	-12.31	-49.46	-26.26	-70.92
5.91	-16.8	-44.69	-12.32	-50.32	-12.32	-50.32	-26.31	-72.33
6.01	-16.84	-45.48	-12.33	-51.17	-12.33	-51.17	-26.39	-73.76
6.11	-16.88	-46.21	-12.34	-52.02	-12.34	-52.01	-26.48	-75.23
6.21	-16.9	-46.95	-12.35	-52.84	-12.35	-52.85	-26.59	-76.61
6.31	-16.92	-47.74	-12.36	-53.69	-12.37	-53.67	-26.68	-77.82
6.41	-16.94	-48.53	-12.38	-54.51	-12.38	-54.52	-26.81	-79.18
6.51	-16.96	-49.39	-12.39	-55.34	-12.39	-55.35	-26.9	-80.41
6.61	-17	-50.22	-12.4	-56.19	-12.4	-56.19	-26.98	-81.86
6.71	-17.03	-51.04	-12.41	-57.04	-12.41	-57.02	-27.07	-83.35
6.81	-17.07	-51.83	-12.42	-57.87	-12.42	-57.86	-27.17	-84.91
6.91	-17.09	-52.62	-12.44	-58.7	-12.44	-58.69	-27.28	-86.57
7.01	-17.11	-53.41	-12.45	-59.52	-12.45	-59.53	-27.4	-87.96
7.11	-17.13	-54.23	-12.46	-60.32	-12.46	-60.35	-27.51	-89.39
7.21	-17.16	-55.05	-12.47	-61.17	-12.48	-61.2	-27.61	-90.61
7.31	-17.19	-55.83	-12.49	-62.05	-12.49	-62.04	-27.66	-91.86
7.41	-17.21	-56.61	-12.51	-62.89	-12.5	-62.88	-27.71	-93.31
7.51	-17.24	-57.44	-12.52	-63.7	-12.52	-63.68	-27.78	-95.07
7.61	-17.27	-58.21	-12.53	-64.52	-12.54	-64.5	-27.89	-96.76
7.71	-17.29	-59	-12.54	-65.33	-12.55	-65.31	-28.01	-98.47
7.81	-17.32	-59.81	-12.56	-66.1	-12.57	-66.14	-28.12	-100.05
7.91	-17.36	-60.57	-12.58	-66.95	-12.58	-66.96	-28.22	-101.54
8.01	-17.39	-61.43	-12.59	-67.76	-12.6	-67.78	-28.3	-103.17
8.11	-17.44	-62.28	-12.61	-68.56	-12.61	-68.56	-28.37	-104.95
8.21	-17.48	-63.11	-12.63	-69.37	-12.63	-69.38	-28.42	-106.85
8.31	-17.52	-63.95	-12.64	-70.21	-12.65	-70.19	-28.49	-108.65
8.41	-17.55	-64.78	-12.65	-71	-12.66	-70.98	-28.57	-110.52
8.51	-17.58	-65.68	-12.67	-71.79	-12.68	-71.78	-28.63	-112.56
8.61	-17.61	-66.63	-12.69	-72.57	-12.7	-72.55	-28.68	-114.45
8.71	-17.64	-67.61	-12.71	-73.35	-12.72	-73.3	-28.75	-116.47
8.81	-17.67	-68.53	-12.73	-74.12	-12.73	-74.09	-28.82	-118.36
8.91	-17.72	-69.49	-12.74	-74.88	-12.74	-74.87	-28.84	-120.55
9.01	-17.76	-70.37	-12.75	-75.68	-12.76	-75.61	-28.89	-122.85
9.11	-17.8	-71.34	-12.76	-76.41	-12.77	-76.38	-28.96	-125.11
9.21	-17.84	-72.25	-12.78	-77.17	-12.78	-77.15	-29.02	-127.55
9.31	-17.88	-73.17	-12.79	-77.94	-12.8	-77.91	-29.07	-129.97
9.41	-17.92	-74.12	-12.8	-78.71	-12.81	-78.68	-29.11	-132.26
9.51	-17.95	-75.02	-12.82	-79.47	-12.82	-79.45	-29.17	-134.78
9.61	-18	-76	-12.83	-80.25	-12.83	-80.19	-29.24	-137.12
9.71	-18.05	-76.96	-12.84	-80.99	-12.84	-80.95	-29.29	-139.75
9.81	-18.09	-77.85	-12.85	-81.72	-12.85	-81.72	-29.33	-142.43
9.91	-18.14	-78.72	-12.86	-82.51	-12.86	-82.49	-29.38	-145.13
10.01	-18.18	-79.58	-12.86	-83.29	-12.87	-83.24	-29.4	-147.85
10.11	-18.22	-80.46	-12.88	-84.07	-12.88	-83.99	-29.41	-150.67
10.21	-18.26	-81.36	-12.89	-84.79	-12.89	-84.77	-29.44	-153.76
10.31	-18.32	-82.28	-12.89	-85.55	-12.9	-85.52	-29.49	-156.57
10.41	-18.37	-83.22	-12.89	-86.32	-12.9	-86.29	-29.56	-159.48
10.51	-18.45	-84.11	-12.91	-87.07	-12.91	-87.08	-29.59	-162.32
10.61	-18.51	-85.12	-12.91	-87.87	-12.91	-87.85	-29.61	-165.11
10.71	-18.57	-86.01	-12.91	-88.69	-12.92	-88.63	-29.6	-167.8
10.81	-18.63	-86.87	-12.92	-89.49	-12.92	-89.4	-29.57	-170.89
10.91	-18.69	-87.92	-12.93	-90.27	-12.93	-90.2	-29.51	-173.88
11.01	-18.76	-88.77	-12.93	-91.05	-12.94	-90.99	-29.49	-177.27
11.11	-18.81	-89.7	-12.94	-91.82	-12.95	-91.8	-29.48	179.87
11.21	-18.86	-90.69	-12.95	-92.6	-12.95	-92.6	-29.46	176.95
11.31	-18.91	-91.52	-12.96	-93.39	-12.96	-93.4	-29.44	174.2
11.41	-18.97	-92.55	-12.96	-94.19	-12.97	-94.18	-29.39	171.69
11.51	-19.02	-93.39	-12.97	-95.04	-12.97	-94.94	-29.3	168.92
11.61	-19.07	-94.25	-12.98	-95.82	-12.98	-95.71	-29.19	166.18
11.71	-19.11	-95.23	-12.97	-96.59	-13	-96.56	-29.09	163.6
11.81	-19.17	-96.2	-12.98	-97.38	-13	-97.32	-28.98	160.35
11.91	-19.24	-97.13	-13	-98.18	-13	-98.14	-28.95	157.42
12.01	-19.27	-98.11	-13	-98.95	-13.01	-99	-28.9	155.07
12.11	-19.31	-98.96	-13.02	-99.81	-13.02	-99.79	-28.81	152.51
12.21	-19.36	-99.9	-13.03	-100.6	-13.02	-100.57	-28.73	150.22
12.31	-19.42	-100.77	-13.04	-101.46	-13.04	-101.36	-28.6	148
12.41	-19.46	-101.71	-13.03	-102.3	-13.05	-102.13	-28.51	146.03
12.51	-19.52	-102.67	-13.05	-103.07	-13.06	-102.94	-28.3	143.62
12.61	-19.56	-103.55	-13.05	-103.81	-13.07	-103.75	-28.14	141.06
12.71	-19.64	-104.59	-13.05	-104.61	-13.07	-104.57	-28.01	138.46
12.81	-19.71	-105.52	-13.07	-105.4	-13.09	-105.43	-27.93	135.47
12.91	-19.79	-106.34	-13.09	-106.21	-13.09	-106.17	-27.84	133.39
13.01	-19.84	-107.34	-13.09	-107.06	-13.09	-107	-27.76	130.86
13.11	-19.93	-108.16	-13.11	-107.93	-13.11	-107.84	-27.66	129.18
13.21	-19.96	-108.99	-13.14	-108.71	-13.14	-108.54	-27.5	127.48
13.31	-20.01	-110.19	-13.12	-109.42	-13.13	-109.29	-27.28	125.29
13.41	-20.06	-111.23	-13.13	-110.21	-13.15	-110.17	-27.15	123
13.51	-20.13	-112.41	-13.14	-111.01	-13.16	-110.95	-27	121.59
13.61	-20.17	-113.4	-13.15	-111.77	-13.16	-111.77	-26.85	119.23
13.71	-20.24	-114.47	-13.15	-112.57	-13.16	-112.56	-26.7	117.4
13.81	-20.28	-115.43	-13.17	-113.43	-13.17	-113.4	-26.6	115.44
13.91	-20.35	-116.38	-13.19	-114.3	-13.18	-114.13	-26.46	114.01
14.01	-20.38	-117.4	-13.19	-115.12	-13.19	-114.97	-26.35	112.34
14.11	-20.42	-118.45	-13.2	-115.9	-13.21	-115.77	-26.13	111.03
14.21	-20.47	-119.55	-13.21	-116.7	-13.23	-116.53	-25.93	109.15
14.31	-20.55	-120.82	-13.21	-117.42	-13.23	-117.33	-25.79	107.33
14.41	-20.59	-121.56	-13.22	-118.22	-13.23	-118.19	-25.62	105.43
14.51	-20.66	-122.74	-13.24	-119.11	-13.24	-119.03	-25.5	103.61
14.61	-20.7	-123.59	-13.26	-119.94	-13.26	-119.81	-25.42	101.99
14.71	-20.74	-124.55	-13.27	-120.7	-13.27	-120.52	-25.33	100.64
14.81	-20.76	-125.41	-13.28	-121.58	-13.28	-121.36	-25.19	99.48
14.91	-20.75	-126.41	-13.29	-122.4	-13.3	-122.21	-25.03	98.16
15.01	-20.82	-127.58	-13.3	-123.11	-13.31	-122.94	-24.82	96.51
15.11	-20.88	-128.8	-13.3	-123.9	-13.32	-123.79	-24.72	94.98
15.21	-20.96	-129.61	-13.32	-124.68	-13.32	-124.63	-24.58	93.19
15.31	-21.05	-130.43	-13.34	-125.52	-13.33	-125.39	-24.48	91.74
15.41	-21.08	-131.39	-13.37	-126.3	-13.35	-126.16	-24.34	90.38
15.51	-21.13	-132.3	-13.38	-127.07	-13.36	-126.89	-24.26	88.99
15.61	-21.15	-133.71	-13.39	-127.91	-13.39	-127.7	-24.15	87.99
15.71	-21.19	-134.88	-13.39	-128.7	-13.4	-128.45	-23.97	86.99
15.81	-21.24	-136.09	-13.4	-129.47	-13.41	-129.28	-23.83	85.81
15.91	-21.27	-137.34	-13.41	-130.24	-13.42	-130.13	-23.69	84.42
16.01	-21.38	-138.51	-13.44	-130.96	-13.43	-130.88	-23.57	83.19
16.11	-21.43	-139.59	-13.45	-131.67	-13.44	-131.61	-23.47	82.04
16.21	-21.5	-140.38	-13.47	-132.49	-13.44	-132.37	-23.36	81.12
16.31	-21.48	-141.16	-13.48	-133.28	-13.46	-133.06	-23.22	79.93
16.41	-21.49	-142.38	-13.48	-134.02	-13.47	-133.77	-23.1	78.9
16.51	-21.5	-143.75	-13.49	-134.85	-13.48	-134.64	-23	77.87
16.61	-21.55	-144.92	-13.49	-135.65	-13.49	-135.42	-22.88	77.03
16.71	-21.58	-145.94	-13.51	-136.27	-13.49	-136.22	-22.74	76.61
16.81	-21.64	-147.04	-13.52	-137.09	-13.5	-137.04	-22.5	75.39
16.91	-21.7	-147.99	-13.55	-137.8	-13.5	-137.73	-22.3	74.36
17.01	-21.67	-148.38	-13.55	-138.48	-13.51	-138.46	-22.1	72.36
17.11	-21.63	-149.52	-13.57	-139.26	-13.51	-139.2	-22.03	70.05
17.21	-21.6	-150.75	-13.57	-139.9	-13.53	-140	-22.28	68.51
17.31	-21.63	-152.11	-13.56	-140.62	-13.55	-140.81	-22.3	69.6
17.41	-21.67	-153.37	-13.53	-141.24	-13.55	-141.56	-22.04	71.43
17.51	-21.72	-154.44	-13.51	-142.14	-13.54	-142.44	-21.45	70.15
17.61	-21.81	-155.34	-13.51	-142.77	-13.54	-143.16	-21.14	67.49
17.71	-21.86	-155.95	-13.49	-143.79	-13.54	-143.92	-21.13	64.32
17.81	-21.86	-156.68	-13.51	-144.62	-13.53	-144.68	-21.24	63.07
17.91	-21.86	-157.76	-13.51	-145.63	-13.54	-145.5	-21.21	63.46
18.01	-21.86	-159.48	-13.52	-146.53	-13.56	-146.31	-20.98	63.45
18.11	-21.96	-160.58	-13.53	-147.36	-13.57	-147.07	-20.66	62.37
18.21	-21.95	-161.89	-13.53	-148.14	-13.56	-147.95	-20.48	60.52
18.31	-21.96	-163.08	-13.52	-148.97	-13.55	-148.81	-20.32	58.91
18.41	-22	-164.19	-13.54	-149.74	-13.57	-149.62	-20.35	57.13
18.51	-21.97	-165.1	-13.55	-150.55	-13.56	-150.38	-20.26	56.42
18.61	-21.97	-166.1	-13.58	-151.43	-13.57	-151.15	-20.24	55.53
18.71	-21.89	-166.86	-13.58	-152.19	-13.57	-151.96	-20.15	55.03
18.81	-21.84	-168.34	-13.56	-153.09	-13.58	-152.8	-20.02	54.56
18.91	-21.87	-169.54	-13.57	-153.97	-13.57	-153.68	-19.81	53.89
19.01	-21.84	-170.87	-13.56	-154.78	-13.59	-154.61	-19.66	52.4
19.11	-21.82	-171.91	-13.57	-155.56	-13.59	-155.45	-19.57	51.3
19.21	-21.82	-172.9	-13.6	-156.4	-13.59	-156.2	-19.5	50.11
19.31	-21.76	-174.01	-13.59	-157.19	-13.58	-157.06	-19.42	49.62
19.41	-21.71	-175.27	-13.6	-158.23	-13.6	-158.03	-19.25	48.77
19.51	-21.67	-176.39	-13.63	-159.12	-13.61	-158.82	-19.11	47.74
19.61	-21.68	-177.98	-13.63	-159.93	-13.64	-159.66	-19.03	46.36
19.71	-21.68	-178.98	-13.63	-160.76	-13.64	-160.48	-18.97	45.77
19.81	-21.71	-179.97	-13.63	-161.46	-13.63	-161.33	-18.86	44.58
19.91	-21.69	179.28	-13.62	-162.42	-13.63	-162.28	-18.73	43.77
20.01	-21.62	178.19	-13.65	-163.32	-13.63	-163.16	-18.6	42.5