!s2p File: Measurements: S11, S21, S12, S22								
# GHz S dB R 50.0								
0.01	-25.38	-0.12	-32.97	-0.62	-33.01	-0.4	-32.67	-4.48
0.11	-25.54	-1.51	-33.1	-1.24	-33.1	-1.21	-34.78	-10.1
0.21	-25.6	-1.85	-33.14	-1.75	-33.14	-1.72	-35.59	-7.07
0.31	-25.61	-2.36	-33.14	-2.18	-33.16	-2.18	-35.86	-4.56
0.41	-25.62	-2.9	-33.15	-2.72	-33.17	-2.71	-35.98	-2.91
0.51	-25.62	-3.46	-33.16	-3.29	-33.17	-3.26	-36.05	-1.41
0.61	-25.62	-3.97	-33.17	-3.81	-33.18	-3.85	-36.07	-0.22
0.71	-25.61	-4.6	-33.18	-4.38	-33.17	-4.38	-36.06	0.91
0.81	-25.61	-5.19	-33.19	-4.96	-33.17	-4.98	-36.04	1.68
0.91	-25.63	-5.79	-33.18	-5.53	-33.18	-5.5	-36.05	2.64
1.01	-25.63	-6.4	-33.19	-6.11	-33.18	-6.09	-36	3.63
1.11	-25.64	-7.01	-33.19	-6.66	-33.18	-6.69	-35.94	4.29
1.21	-25.65	-7.67	-33.2	-7.32	-33.19	-7.22	-35.87	4.91
1.31	-25.65	-8.41	-33.21	-7.81	-33.2	-7.8	-35.83	5.24
1.41	-25.67	-9.23	-33.21	-8.47	-33.2	-8.41	-35.81	5.72
1.51	-25.7	-9.92	-33.21	-8.98	-33.21	-9.03	-35.78	6.59
1.61	-25.69	-10.56	-33.22	-9.57	-33.22	-9.61	-35.67	7.33
1.71	-25.67	-11.35	-33.23	-10.16	-33.22	-10.19	-35.56	7.43
1.81	-25.67	-12.31	-33.24	-10.75	-33.23	-10.72	-35.5	7.32
1.91	-25.69	-13.15	-33.24	-11.36	-33.23	-11.32	-35.45	7.35
2.01	-25.71	-13.87	-33.25	-11.88	-33.24	-11.92	-35.42	7.69
2.11	-25.72	-14.6	-33.24	-12.53	-33.24	-12.57	-35.4	8.04
2.21	-25.73	-15.39	-33.26	-13.14	-33.25	-13.06	-35.31	8.37
2.31	-25.74	-16.15	-33.26	-13.66	-33.26	-13.67	-35.25	8.66
2.41	-25.76	-16.96	-33.26	-14.19	-33.26	-14.22	-35.17	8.85
2.51	-25.79	-17.67	-33.27	-14.85	-33.28	-14.85	-35.13	9.04
2.61	-25.82	-18.33	-33.29	-15.43	-33.29	-15.44	-35.09	9.39
2.71	-25.86	-18.96	-33.29	-16.02	-33.29	-16.03	-35.03	9.75
2.81	-25.89	-19.46	-33.31	-16.61	-33.3	-16.58	-34.98	10.2
2.91	-25.91	-20.13	-33.31	-17.14	-33.31	-17.11	-34.9	10.64
3.01	-25.94	-20.84	-33.32	-17.75	-33.31	-17.75	-34.78	10.96
3.11	-25.96	-21.61	-33.33	-18.38	-33.33	-18.28	-34.73	11.1
3.21	-26.01	-22.4	-33.34	-18.83	-33.33	-18.88	-34.65	11.42
3.31	-26.06	-23.15	-33.35	-19.43	-33.35	-19.47	-34.6	11.64
3.41	-26.1	-23.83	-33.35	-20.04	-33.36	-20.09	-34.51	12.01
3.51	-26.13	-24.56	-33.37	-20.61	-33.36	-20.67	-34.42	12.31
3.61	-26.16	-25.38	-33.38	-21.25	-33.37	-21.17	-34.33	12.44
3.71	-26.2	-26.27	-33.39	-21.75	-33.39	-21.76	-34.26	12.45
3.81	-26.26	-27.21	-33.41	-22.38	-33.41	-22.37	-34.21	12.37
3.91	-26.34	-27.99	-33.42	-22.87	-33.41	-22.87	-34.21	12.48
4.01	-26.39	-28.6	-33.42	-23.46	-33.43	-23.49	-34.13	13.01
4.11	-26.41	-29.35	-33.43	-24.16	-33.43	-24.05	-34.06	13.5
4.21	-26.44	-30.19	-33.45	-24.67	-33.45	-24.6	-33.9	13.61
4.31	-26.49	-31.28	-33.46	-25.26	-33.47	-25.29	-33.8	13.23
4.41	-26.56	-32.33	-33.47	-25.76	-33.49	-25.8	-33.73	12.87
4.51	-26.65	-33.12	-33.5	-26.38	-33.5	-26.29	-33.7	12.67
4.61	-26.73	-33.7	-33.51	-26.85	-33.51	-26.86	-33.67	12.83
4.71	-26.74	-34.24	-33.54	-27.56	-33.52	-27.51	-33.64	13.41
4.81	-26.75	-34.98	-33.55	-28.15	-33.55	-28.02	-33.51	13.81
4.91	-26.75	-35.98	-33.56	-28.69	-33.56	-28.56	-33.35	13.87
5.01	-26.79	-37.06	-33.56	-29.27	-33.57	-29.17	-33.23	13.82
5.11	-26.88	-38.08	-33.6	-29.77	-33.6	-29.7	-33.12	13.28
5.21	-26.98	-38.84	-33.62	-30.33	-33.61	-30.29	-33.06	13.19
5.31	-27.07	-39.48	-33.63	-30.94	-33.64	-30.83	-33.05	13.1
5.41	-27.14	-39.92	-33.66	-31.47	-33.65	-31.49	-33.02	13.59
5.51	-27.19	-40.55	-33.67	-32.09	-33.67	-32.01	-32.92	14.12
5.61	-27.25	-41.5	-33.71	-32.67	-33.71	-32.56	-32.76	14.38
5.71	-27.33	-42.47	-33.73	-33.15	-33.73	-33.11	-32.61	14.28
5.81	-27.44	-43.61	-33.74	-33.77	-33.73	-33.67	-32.47	13.97
5.91	-27.57	-44.48	-33.75	-34.29	-33.76	-34.3	-32.41	13.4
6.01	-27.69	-45.27	-33.78	-34.9	-33.79	-34.85	-32.36	13.1
6.11	-27.78	-45.92	-33.83	-35.5	-33.83	-35.43	-32.3	13.15
6.21	-27.84	-46.62	-33.86	-35.94	-33.84	-35.88	-32.2	13.33
6.31	-27.89	-47.59	-33.88	-36.51	-33.88	-36.48	-32.06	13.41
6.41	-27.96	-48.58	-33.93	-37.08	-33.92	-37	-31.94	13.5
6.51	-28.03	-49.7	-33.95	-37.48	-33.95	-37.48	-31.79	13.19
6.61	-28.15	-50.82	-33.98	-37.97	-33.98	-37.91	-31.71	12.88
6.71	-28.27	-51.73	-34	-38.56	-34	-38.44	-31.63	12.55
6.81	-28.37	-52.64	-34.04	-38.98	-34.04	-38.94	-31.58	12.42
6.91	-28.44	-53.55	-34.07	-39.49	-34.08	-39.44	-31.53	12.43
7.01	-28.5	-54.45	-34.09	-40	-34.1	-39.95	-31.42	12.46
7.11	-28.57	-55.53	-34.14	-40.46	-34.12	-40.47	-31.3	12.27
7.21	-28.66	-56.6	-34.15	-40.96	-34.16	-40.87	-31.13	11.93
7.31	-28.76	-57.57	-34.18	-41.69	-34.18	-41.64	-31.02	11.02
7.41	-28.87	-58.44	-34.28	-42.19	-34.29	-42.09	-30.92	10.3
7.51	-28.96	-59.31	-34.33	-42.41	-34.34	-42.41	-30.87	9.8
7.61	-29.04	-60.12	-34.35	-42.78	-34.36	-42.73	-30.82	9.68
7.71	-29.12	-61.02	-34.4	-43.22	-34.39	-43.04	-30.73	9.53
7.81	-29.21	-61.96	-34.44	-43.44	-34.44	-43.42	-30.63	9.34
7.91	-29.36	-62.86	-34.48	-43.92	-34.5	-43.88	-30.53	8.96
8.01	-29.51	-63.95	-34.53	-44.19	-34.53	-44.16	-30.43	8.5
8.11	-29.65	-64.98	-34.58	-44.48	-34.56	-44.35	-30.41	7.89
8.21	-29.83	-66.04	-34.61	-44.89	-34.6	-44.77	-30.39	7.35
8.31	-29.98	-66.99	-34.66	-45.13	-34.68	-45.12	-30.34	6.81
8.41	-30.07	-68.09	-34.7	-45.41	-34.72	-45.38	-30.3	6.5
8.51	-30.17	-69.38	-34.77	-45.53	-34.78	-45.39	-30.27	6.09
8.61	-30.25	-70.87	-34.81	-45.58	-34.82	-45.4	-30.21	5.65
8.71	-30.33	-72.48	-34.82	-45.7	-34.84	-45.54	-30.15	5.23
8.81	-30.45	-74.05	-34.86	-45.84	-34.85	-45.83	-30.11	4.74
8.91	-30.59	-75.76	-34.87	-45.97	-34.87	-45.84	-30.09	4.12
9.01	-30.76	-77.13	-34.91	-46.18	-34.91	-45.93	-30.1	3.79
9.11	-30.9	-78.56	-34.94	-46.11	-34.95	-45.99	-30.08	3.5
9.21	-31.03	-79.89	-34.94	-46.06	-34.96	-45.99	-30.06	3.35
9.31	-31.12	-81.19	-34.93	-46.07	-34.95	-46.03	-30.06	3.02
9.41	-31.21	-82.73	-34.96	-46.2	-34.94	-46.16	-30.03	2.73
9.51	-31.27	-84.34	-34.96	-46.2	-34.95	-46.19	-30.01	2.56
9.61	-31.41	-86.09	-34.95	-46.31	-34.91	-46.13	-29.96	2.41
9.71	-31.52	-87.79	-34.91	-46.26	-34.94	-46.25	-29.95	2.33
9.81	-31.67	-89.37	-34.9	-46.31	-34.91	-46.3	-29.93	2.26
9.91	-31.78	-90.51	-34.86	-46.54	-34.87	-46.46	-29.92	2.25
10.01	-31.87	-91.72	-34.86	-46.63	-34.87	-46.62	-29.9	2.16
10.11	-31.93	-92.95	-34.84	-46.6	-34.83	-46.48	-29.9	2.31
10.21	-32.02	-94.75	-34.81	-46.62	-34.81	-46.47	-29.88	2.65
10.31	-32.15	-96.58	-34.74	-46.83	-34.74	-46.72	-29.83	2.76
10.41	-32.28	-98.49	-34.71	-47.01	-34.71	-47.02	-29.74	3.11
10.51	-32.48	-100.56	-34.69	-47.15	-34.66	-46.95	-29.66	3.08
10.61	-32.65	-102.66	-34.61	-47.3	-34.6	-47.28	-29.6	3.21
10.71	-32.83	-104.71	-34.56	-47.68	-34.56	-47.67	-29.56	3.18
10.81	-32.95	-106.69	-34.53	-48.23	-34.53	-48.04	-29.52	3.54
10.91	-33.08	-109.12	-34.52	-48.34	-34.49	-48.29	-29.47	3.79
11.01	-33.2	-111.43	-34.45	-48.71	-34.45	-48.56	-29.4	4.34
11.11	-33.29	-113.62	-34.4	-49.07	-34.4	-48.98	-29.29	4.44
11.21	-33.42	-116.12	-34.36	-49.47	-34.38	-49.48	-29.19	4.48
11.31	-33.54	-117.78	-34.34	-49.89	-34.33	-49.72	-29.07	4.41
11.41	-33.61	-120.09	-34.31	-50.14	-34.3	-49.99	-28.99	4.1
11.51	-33.64	-121.85	-34.25	-50.46	-34.24	-50.39	-28.93	4.21
11.61	-33.66	-123.74	-34.2	-50.79	-34.19	-50.77	-28.87	4.33
11.71	-33.63	-126.24	-34.17	-51.17	-34.19	-51.21	-28.81	4.37
11.81	-33.66	-129.28	-34.12	-51.6	-34.11	-51.54	-28.71	4.71
11.91	-33.82	-132	-34.08	-52.13	-34.08	-51.99	-28.53	4.83
12.01	-33.82	-134.19	-34.05	-52.51	-34.04	-52.59	-28.42	4.32
12.11	-33.77	-135.93	-34.07	-53.28	-34.07	-53.22	-28.32	4.27
12.21	-33.74	-137.79	-34.04	-53.23	-34.02	-53.17	-28.21	3.85
12.31	-33.73	-140.04	-33.98	-53.62	-33.98	-53.57	-28.14	3.53
12.41	-33.63	-142.36	-33.93	-54.32	-33.93	-54.16	-28.07	2.98
12.51	-33.63	-145.42	-33.91	-54.66	-33.9	-54.51	-28.02	3.24
12.61	-33.61	-147.69	-33.84	-54.98	-33.86	-54.89	-27.93	3.38
12.71	-33.68	-151.04	-33.81	-55.55	-33.82	-55.54	-27.82	3.52
12.81	-33.78	-154.09	-33.85	-55.63	-33.82	-55.72	-27.58	3.46
12.91	-33.96	-156.52	-33.75	-56.25	-33.74	-56.27	-27.48	2.82
13.01	-33.89	-158.38	-33.77	-56.65	-33.76	-56.62	-27.31	2.59
13.11	-33.91	-160.74	-33.72	-57.17	-33.7	-57.15	-27.24	1.81
13.21	-33.84	-162.56	-33.76	-57.16	-33.73	-56.83	-27.19	1.44
13.31	-33.56	-165.43	-33.61	-57.61	-33.61	-57.41	-27.14	1.6
13.41	-33.43	-168.14	-33.55	-57.71	-33.56	-57.71	-26.99	1.42
13.51	-33.27	-171.18	-33.5	-58.46	-33.5	-58.49	-26.96	1.02
13.61	-33.16	-173.58	-33.47	-59.01	-33.48	-58.95	-26.8	0.75
13.71	-33.16	-176	-33.42	-59.38	-33.44	-59.44	-26.72	0.46
13.81	-33.06	-177.05	-33.37	-59.82	-33.37	-59.8	-26.61	-0.01
13.91	-32.87	-178.83	-33.34	-60.44	-33.32	-60.26	-26.57	-0.57
14.01	-32.63	179.87	-33.3	-61.21	-33.29	-61.07	-26.49	-1.03
14.11	-32.34	177.61	-33.29	-61.58	-33.29	-61.46	-26.47	-1
14.21	-32.12	175.14	-33.24	-61.54	-33.25	-61.47	-26.36	-1.04
14.31	-31.96	171.79	-33.11	-62.08	-33.13	-62.03	-26.25	-1.42
14.41	-31.94	170.17	-33.1	-62.98	-33.08	-62.92	-26.14	-1.39
14.51	-31.85	167.93	-33.09	-63.4	-33.08	-63.37	-26.02	-2.03
14.61	-31.85	166.7	-33.06	-63.9	-33.03	-63.8	-25.93	-2.8
14.71	-31.69	166.19	-32.97	-64.43	-32.97	-64.15	-25.87	-3.66
14.81	-31.55	165.45	-32.95	-65.32	-32.96	-65.12	-25.84	-4.05
14.91	-31.27	164.79	-32.97	-65.8	-32.96	-65.5	-25.8	-4.32
15.01	-31.04	162.39	-32.92	-65.76	-32.92	-65.45	-25.68	-4.21
15.11	-30.9	159.97	-32.84	-66.23	-32.85	-66.12	-25.59	-4.9
15.21	-30.86	157.88	-32.79	-66.95	-32.78	-66.86	-25.45	-5.24
15.31	-30.94	156	-32.78	-67.45	-32.76	-67.37	-25.38	-6.05
15.41	-30.87	154.9	-32.77	-67.48	-32.75	-67.29	-25.32	-6.33
15.51	-30.74	154.27	-32.67	-67.94	-32.64	-67.71	-25.24	-6.94
15.61	-30.4	153.54	-32.62	-68.4	-32.59	-68.15	-25.22	-7.5
15.71	-30.05	151.98	-32.51	-69.23	-32.52	-69.06	-25.2	-7.72
15.81	-29.76	149.98	-32.53	-69.83	-32.53	-69.66	-25.13	-7.94
15.91	-29.53	147.77	-32.48	-69.99	-32.48	-69.9	-25.03	-8.52
16.01	-29.47	145.09	-32.42	-70.28	-32.4	-70.22	-24.99	-9.14
16.11	-29.44	143.44	-32.35	-70.36	-32.32	-70.31	-24.93	-9.69
16.21	-29.48	142.38	-32.21	-71.16	-32.16	-70.91	-24.95	-10.45
16.31	-29.42	142.7	-32.13	-71.9	-32.1	-71.61	-24.89	-10.51
16.41	-29.13	142.28	-32.06	-72.44	-32.04	-72.22	-24.87	-11
16.51	-28.84	140.91	-31.99	-73.14	-31.97	-72.93	-24.83	-11.61
16.61	-28.69	139.02	-31.91	-73.88	-31.89	-73.65	-24.83	-12.07
16.71	-28.61	137.67	-31.83	-74.45	-31.81	-74.37	-24.96	-12.36
16.81	-28.58	136.27	-31.83	-74.98	-31.8	-74.91	-24.89	-11.43
16.91	-28.6	135.18	-31.72	-75.1	-31.66	-74.98	-24.85	-10.72
17.01	-28.64	136.2	-31.59	-76.15	-31.52	-76.13	-24.56	-10.56
17.11	-28.42	136.66	-31.56	-77	-31.47	-77.01	-24.22	-11.25
17.21	-28.13	136.27	-31.46	-77.48	-31.42	-77.78	-24.08	-15.57
17.31	-27.84	134.83	-31.4	-77.79	-31.38	-78.15	-24.55	-17.18
17.41	-27.74	132.8	-31.21	-78.37	-31.22	-78.88	-25.17	-15.76
17.51	-27.71	131.18	-31.11	-79.83	-31.14	-80.19	-25.01	-10.95
17.61	-27.75	129.59	-31	-79.91	-31.05	-80.5	-24.41	-9.55
17.71	-27.89	128.82	-30.83	-81.3	-30.89	-81.66	-23.92	-12.46
17.81	-27.87	128.84	-30.77	-82.4	-30.82	-82.67	-23.92	-15.29
17.91	-27.73	128.83	-30.71	-83.72	-30.76	-83.65	-24.32	-16.41
18.01	-27.39	127.82	-30.62	-84.68	-30.68	-84.4	-24.54	-14.69
18.11	-27.25	125.58	-30.55	-85.55	-30.61	-85.26	-24.37	-12.32
18.21	-27.22	124.47	-30.46	-86.95	-30.51	-86.65	-24.07	-12.27
18.31	-27.15	123.26	-30.4	-88.2	-30.44	-88	-23.82	-12.3
18.41	-27.22	122.72	-30.33	-88.64	-30.38	-88.63	-23.69	-14.73
18.51	-27.28	123.03	-30.21	-90.37	-30.23	-90.22	-23.77	-15.02
18.61	-27.12	123.5	-30.25	-91.41	-30.23	-91.19	-23.86	-15.83
18.71	-27.06	124.22	-30.15	-92.44	-30.14	-92.12	-23.93	-15.43
18.81	-26.8	123.6	-29.98	-93.48	-30.03	-93.13	-23.94	-15.1
18.91	-26.7	122.34	-29.91	-94.84	-29.9	-94.45	-23.91	-14.03
19.01	-26.66	121.78	-29.83	-96.5	-29.85	-96.31	-23.7	-13.83
19.11	-26.63	121.65	-29.87	-97.99	-29.88	-97.78	-23.6	-14.11
19.21	-26.66	121.43	-29.8	-98.45	-29.78	-98.28	-23.51	-15.14
19.31	-26.62	121.81	-29.57	-100.34	-29.57	-100.32	-23.67	-15.11
19.41	-26.44	122.54	-29.69	-102.72	-29.69	-102.57	-23.6	-13.95
19.51	-26.34	122.51	-29.67	-104.12	-29.65	-103.75	-23.5	-13.21
19.61	-26.11	121.84	-29.71	-104.98	-29.72	-104.76	-23.26	-13.7
19.71	-26.05	120.85	-29.63	-105.76	-29.65	-105.45	-23.27	-14.18
19.81	-26.21	119.8	-29.35	-107.48	-29.34	-107.4	-23.2	-14.26
19.91	-26.29	120.44	-29.44	-110.18	-29.45	-110.13	-23.1	-13.64
20.01	-26.3	121.93	-29.55	-112.35	-29.53	-112.23	-22.91	-13.38