!s2p File: Measurements: S11, S21, S12, S22								
# GHz S dB R 50.0								
0.01	-25.33	-0.15	-26.14	-0.38	-26.17	-0.43	-14.62	-1.25
0.11	-25.52	-1.52	-26.29	-1.24	-26.28	-1.23	-15.03	-2.38
0.21	-25.57	-1.87	-26.32	-1.79	-26.31	-1.76	-15.11	-3.04
0.31	-25.59	-2.36	-26.32	-2.36	-26.33	-2.38	-15.14	-3.85
0.41	-25.6	-2.95	-26.34	-2.98	-26.33	-2.96	-15.15	-4.72
0.51	-25.59	-3.49	-26.33	-3.61	-26.34	-3.61	-15.16	-5.65
0.61	-25.59	-4.03	-26.34	-4.27	-26.34	-4.25	-15.18	-6.6
0.71	-25.58	-4.61	-26.35	-4.94	-26.34	-4.91	-15.18	-7.55
0.81	-25.58	-5.19	-26.35	-5.57	-26.35	-5.57	-15.19	-8.52
0.91	-25.6	-5.83	-26.35	-6.23	-26.35	-6.25	-15.2	-9.49
1.01	-25.6	-6.44	-26.36	-6.89	-26.36	-6.86	-15.21	-10.46
1.11	-25.62	-7.08	-26.36	-7.55	-26.36	-7.57	-15.22	-11.45
1.21	-25.62	-7.73	-26.37	-8.21	-26.37	-8.19	-15.22	-12.43
1.31	-25.63	-8.48	-26.38	-8.88	-26.37	-8.86	-15.23	-13.44
1.41	-25.65	-9.27	-26.38	-9.58	-26.38	-9.54	-15.25	-14.45
1.51	-25.67	-9.95	-26.39	-10.23	-26.38	-10.21	-15.26	-15.42
1.61	-25.67	-10.6	-26.39	-10.88	-26.39	-10.85	-15.27	-16.39
1.71	-25.64	-11.4	-26.4	-11.52	-26.4	-11.52	-15.28	-17.4
1.81	-25.64	-12.36	-26.41	-12.18	-26.4	-12.2	-15.28	-18.44
1.91	-25.66	-13.17	-26.42	-12.83	-26.41	-12.84	-15.3	-19.48
2.01	-25.68	-13.92	-26.43	-13.53	-26.42	-13.49	-15.32	-20.48
2.11	-25.69	-14.69	-26.43	-14.19	-26.43	-14.15	-15.34	-21.49
2.21	-25.7	-15.43	-26.44	-14.81	-26.44	-14.79	-15.35	-22.49
2.31	-25.72	-16.25	-26.45	-15.46	-26.45	-15.47	-15.37	-23.47
2.41	-25.74	-17.02	-26.46	-16.13	-26.45	-16.12	-15.39	-24.47
2.51	-25.76	-17.72	-26.47	-16.82	-26.46	-16.78	-15.41	-25.45
2.61	-25.8	-18.42	-26.48	-17.42	-26.47	-17.42	-15.43	-26.44
2.71	-25.83	-18.99	-26.49	-18.09	-26.48	-18.06	-15.45	-27.43
2.81	-25.87	-19.58	-26.49	-18.72	-26.49	-18.72	-15.47	-28.4
2.91	-25.89	-20.22	-26.51	-19.37	-26.5	-19.36	-15.5	-29.37
3.01	-25.91	-20.94	-26.52	-20.04	-26.51	-20.01	-15.52	-30.32
3.11	-25.94	-21.74	-26.53	-20.68	-26.53	-20.64	-15.54	-31.3
3.21	-25.99	-22.48	-26.54	-21.29	-26.54	-21.3	-15.56	-32.27
3.31	-26.03	-23.25	-26.55	-21.96	-26.55	-21.94	-15.59	-33.25
3.41	-26.08	-23.96	-26.56	-22.61	-26.56	-22.58	-15.62	-34.18
3.51	-26.1	-24.67	-26.58	-23.23	-26.57	-23.24	-15.64	-35.15
3.61	-26.14	-25.5	-26.59	-23.89	-26.58	-23.88	-15.67	-36.1
3.71	-26.19	-26.37	-26.6	-24.5	-26.6	-24.55	-15.69	-37.08
3.81	-26.24	-27.3	-26.61	-25.16	-26.61	-25.17	-15.72	-38.07
3.91	-26.31	-28.11	-26.63	-25.78	-26.63	-25.79	-15.75	-39.06
4.01	-26.37	-28.73	-26.64	-26.43	-26.64	-26.42	-15.79	-40.02
4.11	-26.39	-29.46	-26.66	-27.09	-26.65	-27.05	-15.82	-40.95
4.21	-26.42	-30.3	-26.67	-27.68	-26.66	-27.65	-15.85	-41.84
4.31	-26.46	-31.39	-26.68	-28.32	-26.68	-28.33	-15.87	-42.82
4.41	-26.53	-32.47	-26.7	-28.94	-26.69	-28.96	-15.89	-43.8
4.51	-26.61	-33.21	-26.71	-29.55	-26.71	-29.57	-15.93	-44.81
4.61	-26.69	-33.85	-26.73	-30.22	-26.72	-30.2	-15.96	-45.78
4.71	-26.71	-34.44	-26.74	-30.84	-26.74	-30.81	-16.01	-46.71
4.81	-26.72	-35.14	-26.76	-31.48	-26.75	-31.46	-16.05	-47.61
4.91	-26.73	-36.2	-26.78	-32.12	-26.77	-32.07	-16.08	-48.47
5.01	-26.77	-37.2	-26.78	-32.68	-26.79	-32.67	-16.11	-49.37
5.11	-26.85	-38.19	-26.81	-33.31	-26.8	-33.29	-16.13	-50.32
5.21	-26.95	-38.97	-26.83	-33.94	-26.83	-33.92	-16.17	-51.27
5.31	-27.03	-39.62	-26.84	-34.56	-26.84	-34.52	-16.21	-52.26
5.41	-27.12	-40.1	-26.86	-35.18	-26.86	-35.15	-16.25	-53.19
5.51	-27.17	-40.74	-26.88	-35.78	-26.88	-35.77	-16.3	-54.07
5.61	-27.22	-41.6	-26.9	-36.45	-26.9	-36.38	-16.35	-54.9
5.71	-27.3	-42.65	-26.92	-37.04	-26.91	-37	-16.38	-55.76
5.81	-27.4	-43.68	-26.93	-37.58	-26.94	-37.57	-16.41	-56.64
5.91	-27.53	-44.59	-26.96	-38.25	-26.95	-38.24	-16.44	-57.57
6.01	-27.65	-45.45	-26.97	-38.86	-26.98	-38.83	-16.48	-58.54
6.11	-27.75	-46.06	-27	-39.48	-27	-39.43	-16.53	-59.46
6.21	-27.8	-46.82	-27.02	-40.03	-27.02	-40.02	-16.57	-60.32
6.31	-27.86	-47.73	-27.05	-40.65	-27.04	-40.63	-16.61	-61.16
6.41	-27.92	-48.72	-27.07	-41.23	-27.07	-41.22	-16.66	-62.01
6.51	-27.99	-49.84	-27.1	-41.77	-27.1	-41.77	-16.7	-62.84
6.61	-28.11	-50.92	-27.12	-42.38	-27.12	-42.31	-16.74	-63.75
6.71	-28.22	-51.95	-27.15	-42.93	-27.14	-42.92	-16.78	-64.65
6.81	-28.33	-52.84	-27.17	-43.52	-27.17	-43.45	-16.82	-65.57
6.91	-28.41	-53.7	-27.19	-44.06	-27.19	-44.02	-16.87	-66.49
7.01	-28.47	-54.63	-27.21	-44.62	-27.21	-44.61	-16.92	-67.35
7.11	-28.53	-55.62	-27.24	-45.15	-27.24	-45.12	-16.97	-68.17
7.21	-28.62	-56.74	-27.26	-45.74	-27.26	-45.72	-17.01	-68.95
7.31	-28.71	-57.73	-27.29	-46.43	-27.28	-46.36	-17.04	-69.79
7.41	-28.8	-58.56	-27.34	-46.98	-27.33	-46.96	-17.07	-70.66
7.51	-28.89	-59.55	-27.38	-47.4	-27.37	-47.36	-17.11	-71.57
7.61	-28.99	-60.28	-27.39	-47.91	-27.39	-47.86	-17.16	-72.48
7.71	-29.07	-61.21	-27.42	-48.42	-27.41	-48.38	-17.21	-73.35
7.81	-29.15	-62.13	-27.45	-48.81	-27.45	-48.86	-17.27	-74.18
7.91	-29.29	-62.95	-27.48	-49.42	-27.48	-49.37	-17.31	-74.99
8.01	-29.43	-64.14	-27.51	-49.9	-27.51	-49.82	-17.36	-75.84
8.11	-29.57	-65.22	-27.54	-50.3	-27.53	-50.28	-17.4	-76.78
8.21	-29.74	-66.35	-27.56	-50.82	-27.56	-50.78	-17.44	-77.69
8.31	-29.89	-67.38	-27.6	-51.24	-27.59	-51.26	-17.49	-78.58
8.41	-29.99	-68.44	-27.62	-51.77	-27.62	-51.69	-17.54	-79.48
8.51	-30.09	-69.72	-27.66	-52.09	-27.67	-52.06	-17.59	-80.37
8.61	-30.16	-71.14	-27.7	-52.45	-27.7	-52.42	-17.64	-81.25
8.71	-30.24	-72.77	-27.72	-52.83	-27.71	-52.75	-17.69	-82.14
8.81	-30.35	-74.37	-27.74	-53.2	-27.74	-53.2	-17.73	-83
8.91	-30.5	-76	-27.76	-53.59	-27.75	-53.5	-17.78	-83.95
9.01	-30.64	-77.37	-27.78	-54.01	-27.78	-53.88	-17.84	-84.89
9.11	-30.77	-78.85	-27.81	-54.28	-27.81	-54.2	-17.89	-85.8
9.21	-30.9	-80.2	-27.82	-54.57	-27.82	-54.51	-17.95	-86.74
9.31	-31	-81.64	-27.83	-54.97	-27.83	-54.86	-18.01	-87.65
9.41	-31.09	-83.1	-27.84	-55.21	-27.83	-55.2	-18.07	-88.57
9.51	-31.14	-84.68	-27.86	-55.58	-27.85	-55.55	-18.14	-89.46
9.61	-31.29	-86.51	-27.86	-55.92	-27.85	-55.86	-18.21	-90.34
9.71	-31.4	-88.11	-27.87	-56.21	-27.86	-56.2	-18.28	-91.22
9.81	-31.53	-89.82	-27.86	-56.55	-27.86	-56.5	-18.34	-92.12
9.91	-31.63	-90.97	-27.85	-56.97	-27.85	-56.93	-18.42	-93.05
10.01	-31.73	-92.3	-27.87	-57.33	-27.86	-57.26	-18.49	-93.93
10.11	-31.8	-93.64	-27.87	-57.64	-27.86	-57.53	-18.57	-94.87
10.21	-31.91	-95.19	-27.87	-57.91	-27.85	-57.86	-18.65	-95.82
10.31	-32.02	-97.07	-27.85	-58.28	-27.84	-58.24	-18.74	-96.63
10.41	-32.14	-98.95	-27.84	-58.69	-27.83	-58.61	-18.84	-97.45
10.51	-32.34	-101.01	-27.83	-59.03	-27.82	-59.01	-18.92	-98.22
10.61	-32.48	-103.24	-27.81	-59.39	-27.81	-59.38	-19	-99.05
10.71	-32.69	-105.09	-27.8	-59.9	-27.8	-59.81	-19.08	-99.91
10.81	-32.82	-107.23	-27.79	-60.36	-27.79	-60.29	-19.17	-100.81
10.91	-32.93	-109.61	-27.79	-60.77	-27.78	-60.65	-19.27	-101.72
11.01	-33.06	-111.74	-27.77	-61.09	-27.76	-61.06	-19.38	-102.58
11.11	-33.13	-113.92	-27.76	-61.62	-27.76	-61.58	-19.48	-103.31
11.21	-33.22	-116.25	-27.76	-62.06	-27.75	-62.08	-19.58	-104.05
11.31	-33.34	-118.13	-27.75	-62.42	-27.74	-62.45	-19.67	-104.74
11.41	-33.4	-120.59	-27.75	-62.85	-27.73	-62.86	-19.74	-105.54
11.51	-33.47	-122.29	-27.73	-63.36	-27.72	-63.21	-19.84	-106.36
11.61	-33.51	-124.37	-27.72	-63.75	-27.7	-63.66	-19.93	-107.18
11.71	-33.48	-126.61	-27.7	-64.19	-27.7	-64.13	-20.03	-108.1
11.81	-33.53	-129.4	-27.67	-64.61	-27.68	-64.59	-20.16	-108.94
11.91	-33.62	-132.14	-27.68	-65.12	-27.67	-65.17	-20.28	-109.48
12.01	-33.6	-134.28	-27.66	-65.54	-27.65	-65.64	-20.36	-110.13
12.11	-33.53	-136.08	-27.68	-66.22	-27.67	-66.23	-20.46	-110.8
12.21	-33.53	-138.14	-27.69	-66.42	-27.66	-66.43	-20.54	-111.49
12.31	-33.55	-140.42	-27.65	-66.9	-27.64	-66.83	-20.63	-112.33
12.41	-33.48	-142.64	-27.63	-67.51	-27.62	-67.34	-20.72	-112.98
12.51	-33.48	-145.31	-27.63	-67.87	-27.62	-67.77	-20.83	-113.98
12.61	-33.45	-147.66	-27.6	-68.28	-27.6	-68.28	-20.96	-114.75
12.71	-33.49	-150.6	-27.58	-68.8	-27.59	-68.86	-21.09	-115.47
12.81	-33.57	-153.48	-27.6	-69.17	-27.61	-69.22	-21.24	-115.92
12.91	-33.7	-156.04	-27.57	-69.72	-27.56	-69.68	-21.34	-116.49
13.01	-33.63	-158.09	-27.58	-70.24	-27.57	-70.23	-21.46	-116.9
13.11	-33.68	-160.76	-27.55	-70.74	-27.54	-70.64	-21.54	-117.61
13.21	-33.62	-162.57	-27.59	-71.01	-27.58	-70.85	-21.62	-118.3
13.31	-33.38	-165.22	-27.52	-71.33	-27.52	-71.27	-21.77	-119.35
13.41	-33.26	-167.91	-27.5	-71.74	-27.51	-71.72	-21.9	-119.84
13.51	-33.07	-170.83	-27.46	-72.32	-27.47	-72.3	-22	-120.66
13.61	-32.94	-172.89	-27.46	-72.78	-27.47	-72.76	-22.15	-121.18
13.71	-32.92	-175.44	-27.44	-73.23	-27.43	-73.22	-22.27	-121.87
13.81	-32.81	-176.66	-27.43	-73.72	-27.41	-73.78	-22.4	-122.41
13.91	-32.67	-178.61	-27.4	-74.32	-27.39	-74.2	-22.49	-123.14
14.01	-32.45	179.97	-27.38	-74.89	-27.37	-74.83	-22.62	-123.75
14.11	-32.22	177.86	-27.38	-75.34	-27.39	-75.23	-22.74	-124.8
14.21	-31.98	175.71	-27.37	-75.67	-27.37	-75.57	-22.9	-125.51
14.31	-31.83	172.55	-27.3	-76.11	-27.32	-76.05	-23.07	-126.12
14.41	-31.8	171.05	-27.29	-76.69	-27.29	-76.79	-23.23	-126.73
14.51	-31.65	168.74	-27.29	-77.3	-27.29	-77.29	-23.38	-127.09
14.61	-31.63	167.6	-27.3	-77.8	-27.28	-77.72	-23.51	-127.5
14.71	-31.49	166.68	-27.25	-78.25	-27.24	-78.12	-23.59	-127.92
14.81	-31.36	165.94	-27.24	-78.93	-27.24	-78.76	-23.72	-128.68
14.91	-31.12	165.35	-27.25	-79.39	-27.25	-79.28	-23.87	-129.43
15.01	-30.9	163.05	-27.21	-79.64	-27.22	-79.5	-24.06	-130.22
15.11	-30.75	160.95	-27.18	-80.11	-27.19	-80.08	-24.21	-130.59
15.21	-30.7	158.85	-27.17	-80.73	-27.16	-80.65	-24.4	-130.88
15.31	-30.73	156.92	-27.16	-81.19	-27.14	-81.14	-24.53	-131.2
15.41	-30.64	155.7	-27.16	-81.47	-27.14	-81.45	-24.7	-131.9
15.51	-30.52	154.66	-27.11	-81.92	-27.09	-81.85	-24.84	-132.15
15.61	-30.22	153.8	-27.07	-82.43	-27.07	-82.29	-24.96	-132.93
15.71	-29.95	152.3	-27.03	-83.14	-27.04	-82.97	-25.14	-133.91
15.81	-29.69	150.69	-27.04	-83.62	-27.04	-83.53	-25.32	-134.45
15.91	-29.46	148.78	-27.01	-83.99	-27.02	-83.92	-25.5	-135.03
16.01	-29.35	146.31	-26.98	-84.37	-26.98	-84.31	-25.67	-135.48
16.11	-29.28	144.55	-26.95	-84.64	-26.92	-84.62	-25.84	-136.05
16.21	-29.27	143.33	-26.89	-85.3	-26.85	-85.2	-25.97	-136.92
16.31	-29.22	143.4	-26.85	-85.85	-26.82	-85.74	-26.22	-137.47
16.41	-28.99	142.82	-26.8	-86.41	-26.79	-86.22	-26.39	-138.06
16.51	-28.71	141.64	-26.77	-87.07	-26.75	-87	-26.57	-138.49
16.61	-28.58	139.98	-26.73	-87.67	-26.72	-87.57	-26.73	-139.25
16.71	-28.47	138.76	-26.69	-88.11	-26.67	-88.12	-26.86	-140.97
16.81	-28.4	137.36	-26.69	-88.65	-26.66	-88.71	-27.27	-142.25
16.91	-28.39	136.12	-26.65	-88.92	-26.59	-88.98	-27.67	-143.76
17.01	-28.45	136.83	-26.58	-89.72	-26.53	-89.8	-28.25	-142.97
17.11	-28.25	136.87	-26.57	-90.26	-26.49	-90.39	-28.78	-140.38
17.21	-27.99	136.59	-26.51	-90.79	-26.46	-91.04	-28.29	-135.91
17.31	-27.74	135.27	-26.48	-91.11	-26.46	-91.51	-27.84	-139.38
17.41	-27.63	133.52	-26.36	-91.64	-26.38	-92.15	-27.78	-145.82
17.51	-27.59	132.22	-26.31	-92.62	-26.32	-93.02	-28.87	-151.06
17.61	-27.59	130.47	-26.22	-92.88	-26.27	-93.46	-30.06	-150.32
17.71	-27.7	129.63	-26.14	-94.02	-26.18	-94.34	-30.58	-144.06
17.81	-27.68	129.46	-26.11	-94.86	-26.14	-95.06	-30.26	-141.55
17.91	-27.58	129.11	-26.07	-95.88	-26.11	-95.76	-29.98	-145.81
18.01	-27.26	128.23	-26.03	-96.63	-26.07	-96.44	-30.44	-150.71
18.11	-27.14	126.22	-25.98	-97.26	-26.02	-97.03	-31.45	-154.26
18.21	-27.1	125.27	-25.92	-98.23	-25.97	-98.15	-32.53	-153.23
18.31	-26.98	124.42	-25.89	-99.22	-25.92	-99.08	-33.51	-151.7
18.41	-26.99	123.51	-25.87	-99.73	-25.89	-99.73	-33.62	-146.18
18.51	-27.01	123.51	-25.82	-100.93	-25.83	-100.87	-33.99	-147.14
18.61	-26.88	123.66	-25.84	-101.74	-25.83	-101.45	-33.99	-146.6
18.71	-26.85	123.98	-25.77	-102.41	-25.77	-102.25	-34.38	-149.4
18.81	-26.63	123.66	-25.69	-103.35	-25.72	-103.1	-34.95	-152.3
18.91	-26.55	122.45	-25.65	-104.35	-25.65	-104.12	-36.13	-157.02
19.01	-26.51	121.94	-25.61	-105.48	-25.64	-105.38	-37.69	-154.45
19.11	-26.45	122.01	-25.63	-106.44	-25.65	-106.42	-38.64	-151.53
19.21	-26.44	121.56	-25.61	-106.98	-25.6	-106.9	-39.12	-148.42
19.31	-26.4	121.75	-25.5	-108.28	-25.48	-108.28	-39.82	-154.08
19.41	-26.25	122.22	-25.55	-109.86	-25.55	-109.79	-42.1	-157.63
19.51	-26.19	122.04	-25.58	-111.02	-25.56	-110.77	-45.03	-161.35
19.61	-25.98	121.64	-25.6	-111.69	-25.63	-111.52	-48.28	-140.55
19.71	-25.93	120.87	-25.57	-112.31	-25.58	-112.07	-49.62	-141.04
19.81	-26.05	119.81	-25.43	-113.59	-25.44	-113.5	-55.83	-113.22
19.91	-26.1	120.51	-25.51	-115.17	-25.52	-115.11	-57.18	-37.22
20.01	-26.13	121.86	-25.6	-116.44	-25.58	-116.35	-48.01	-11.03