!s2p File: Measurements: S11, S21, S12, S22								
# GHz S dB R 50.0								
0.01	-25.21	-0.2	-23.03	-0.33	-23.04	-0.36	-20.88	-1.76
0.11	-25.41	-1.55	-23.16	-1.33	-23.16	-1.33	-21.58	-3.59
0.21	-25.47	-1.88	-23.21	-1.94	-23.2	-1.92	-21.76	-3.75
0.31	-25.48	-2.35	-23.22	-2.56	-23.21	-2.57	-21.82	-4.1
0.41	-25.49	-2.89	-23.22	-3.24	-23.22	-3.25	-21.85	-4.69
0.51	-25.48	-3.44	-23.23	-3.96	-23.22	-3.95	-21.88	-5.28
0.61	-25.48	-3.98	-23.23	-4.66	-23.23	-4.65	-21.89	-6.01
0.71	-25.48	-4.57	-23.24	-5.37	-23.23	-5.37	-21.9	-6.7
0.81	-25.48	-5.15	-23.24	-6.09	-23.24	-6.1	-21.91	-7.48
0.91	-25.49	-5.8	-23.24	-6.81	-23.24	-6.81	-21.92	-8.23
1.01	-25.49	-6.39	-23.25	-7.53	-23.24	-7.5	-21.93	-8.99
1.11	-25.51	-7	-23.25	-8.25	-23.25	-8.23	-21.93	-9.81
1.21	-25.52	-7.66	-23.26	-8.98	-23.25	-8.96	-21.94	-10.58
1.31	-25.52	-8.41	-23.26	-9.7	-23.26	-9.7	-21.95	-11.43
1.41	-25.54	-9.2	-23.27	-10.44	-23.26	-10.41	-21.96	-12.28
1.51	-25.56	-9.88	-23.27	-11.15	-23.27	-11.14	-21.98	-13.04
1.61	-25.56	-10.49	-23.28	-11.86	-23.28	-11.88	-21.98	-13.78
1.71	-25.54	-11.33	-23.29	-12.61	-23.28	-12.6	-21.98	-14.64
1.81	-25.54	-12.26	-23.29	-13.31	-23.29	-13.32	-21.99	-15.58
1.91	-25.55	-13.09	-23.3	-14.03	-23.3	-14.04	-22	-16.47
2.01	-25.57	-13.82	-23.31	-14.75	-23.3	-14.75	-22.02	-17.32
2.11	-25.59	-14.57	-23.31	-15.5	-23.31	-15.48	-22.05	-18.18
2.21	-25.6	-15.36	-23.32	-16.21	-23.32	-16.19	-22.06	-18.98
2.31	-25.61	-16.07	-23.33	-16.91	-23.33	-16.92	-22.07	-19.82
2.41	-25.62	-16.87	-23.33	-17.64	-23.33	-17.62	-22.09	-20.65
2.51	-25.65	-17.61	-23.35	-18.34	-23.34	-18.34	-22.11	-21.5
2.61	-25.69	-18.25	-23.35	-19.07	-23.35	-19.06	-22.14	-22.31
2.71	-25.72	-18.82	-23.36	-19.77	-23.36	-19.76	-22.16	-23.12
2.81	-25.75	-19.41	-23.37	-20.47	-23.37	-20.47	-22.19	-23.93
2.91	-25.77	-20.04	-23.39	-21.18	-23.38	-21.18	-22.22	-24.69
3.01	-25.8	-20.74	-23.4	-21.89	-23.39	-21.88	-22.24	-25.43
3.11	-25.83	-21.51	-23.4	-22.63	-23.4	-22.6	-22.26	-26.25
3.21	-25.87	-22.27	-23.41	-23.33	-23.41	-23.31	-22.28	-27.04
3.31	-25.92	-23.05	-23.42	-24.03	-23.42	-24.03	-22.31	-27.85
3.41	-25.96	-23.73	-23.43	-24.73	-23.43	-24.73	-22.34	-28.6
3.51	-25.99	-24.46	-23.44	-25.44	-23.44	-25.44	-22.38	-29.36
3.61	-26.02	-25.22	-23.45	-26.14	-23.45	-26.15	-22.4	-30.14
3.71	-26.06	-26.11	-23.47	-26.84	-23.46	-26.86	-22.43	-30.95
3.81	-26.13	-27.04	-23.48	-27.55	-23.48	-27.56	-22.45	-31.8
3.91	-26.19	-27.82	-23.49	-28.27	-23.49	-28.26	-22.5	-32.68
4.01	-26.25	-28.48	-23.5	-28.97	-23.5	-28.96	-22.54	-33.41
4.11	-26.26	-29.17	-23.51	-29.71	-23.51	-29.65	-22.58	-34.11
4.21	-26.3	-30.02	-23.53	-30.37	-23.52	-30.36	-22.6	-34.76
4.31	-26.35	-31.07	-23.53	-31.05	-23.54	-31.05	-22.62	-35.55
4.41	-26.41	-32.11	-23.55	-31.76	-23.55	-31.74	-22.64	-36.42
4.51	-26.49	-32.86	-23.57	-32.42	-23.57	-32.42	-22.68	-37.28
4.61	-26.56	-33.5	-23.58	-33.14	-23.58	-33.13	-22.72	-38.1
4.71	-26.59	-34.04	-23.6	-33.85	-23.59	-33.84	-22.78	-38.84
4.81	-26.6	-34.8	-23.61	-34.54	-23.6	-34.51	-22.82	-39.45
4.91	-26.6	-35.75	-23.63	-35.22	-23.62	-35.19	-22.85	-40.06
5.01	-26.64	-36.81	-23.63	-35.91	-23.63	-35.88	-22.88	-40.72
5.11	-26.72	-37.76	-23.65	-36.57	-23.65	-36.58	-22.89	-41.51
5.21	-26.82	-38.52	-23.67	-37.26	-23.66	-37.27	-22.93	-42.27
5.31	-26.9	-39.2	-23.68	-37.97	-23.68	-37.96	-22.98	-43.09
5.41	-26.98	-39.64	-23.7	-38.66	-23.7	-38.61	-23.04	-43.83
5.51	-27.03	-40.29	-23.72	-39.35	-23.71	-39.32	-23.1	-44.41
5.61	-27.08	-41.16	-23.73	-40.03	-23.73	-40.02	-23.15	-44.89
5.71	-27.17	-42.12	-23.75	-40.72	-23.75	-40.69	-23.18	-45.51
5.81	-27.26	-43.16	-23.76	-41.37	-23.76	-41.36	-23.2	-46.16
5.91	-27.39	-44.06	-23.78	-42.05	-23.78	-42.07	-23.22	-46.93
6.01	-27.5	-44.86	-23.8	-42.77	-23.8	-42.73	-23.26	-47.72
6.11	-27.6	-45.54	-23.82	-43.45	-23.82	-43.42	-23.31	-48.4
6.21	-27.65	-46.22	-23.85	-44.1	-23.84	-44.07	-23.36	-49.02
6.31	-27.71	-47.15	-23.86	-44.78	-23.86	-44.75	-23.4	-49.53
6.41	-27.77	-48.09	-23.88	-45.43	-23.88	-45.41	-23.44	-50.09
6.51	-27.84	-49.21	-23.91	-46.05	-23.91	-46.03	-23.47	-50.65
6.61	-27.95	-50.3	-23.93	-46.74	-23.92	-46.7	-23.5	-51.34
6.71	-28.06	-51.19	-23.95	-47.37	-23.94	-47.37	-23.54	-52.02
6.81	-28.16	-52.08	-23.96	-48.04	-23.96	-48.02	-23.59	-52.72
6.91	-28.23	-52.97	-23.99	-48.69	-23.99	-48.65	-23.65	-53.4
7.01	-28.28	-53.83	-24	-49.34	-24.01	-49.29	-23.69	-53.97
7.11	-28.36	-54.88	-24.03	-49.93	-24.03	-49.94	-23.73	-54.45
7.21	-28.44	-55.92	-24.05	-50.59	-24.05	-50.59	-23.76	-54.89
7.31	-28.53	-56.86	-24.07	-51.32	-24.07	-51.31	-23.76	-55.52
7.41	-28.62	-57.69	-24.11	-52.01	-24.11	-51.97	-23.76	-56.21
7.51	-28.7	-58.62	-24.14	-52.54	-24.14	-52.52	-23.79	-56.98
7.61	-28.79	-59.39	-24.16	-53.2	-24.16	-53.11	-23.84	-57.65
7.71	-28.87	-60.22	-24.19	-53.73	-24.18	-53.73	-23.9	-58.22
7.81	-28.96	-61.13	-24.21	-54.3	-24.21	-54.3	-23.94	-58.79
7.91	-29.09	-62.04	-24.24	-54.92	-24.24	-54.92	-23.97	-59.31
8.01	-29.22	-63.02	-24.27	-55.54	-24.27	-55.52	-23.99	-59.95
8.11	-29.36	-64.15	-24.29	-56.1	-24.3	-56.08	-24.02	-60.74
8.21	-29.52	-65.22	-24.32	-56.67	-24.32	-56.64	-24.05	-61.47
8.31	-29.67	-66.18	-24.34	-57.26	-24.35	-57.21	-24.09	-62.25
8.41	-29.76	-67.26	-24.37	-57.79	-24.37	-57.76	-24.13	-62.96
8.51	-29.86	-68.52	-24.41	-58.32	-24.41	-58.27	-24.18	-63.73
8.61	-29.93	-69.96	-24.44	-58.79	-24.44	-58.76	-24.21	-64.4
8.71	-30.01	-71.57	-24.46	-59.27	-24.46	-59.2	-24.25	-65.1
8.81	-30.11	-73.04	-24.49	-59.77	-24.48	-59.74	-24.29	-65.84
8.91	-30.25	-74.61	-24.51	-60.28	-24.5	-60.24	-24.33	-66.63
9.01	-30.39	-76.03	-24.53	-60.79	-24.53	-60.71	-24.38	-67.48
9.11	-30.53	-77.47	-24.55	-61.23	-24.55	-61.16	-24.44	-68.21
9.21	-30.65	-78.81	-24.57	-61.69	-24.56	-61.62	-24.5	-69.02
9.31	-30.74	-80.15	-24.58	-62.14	-24.57	-62.1	-24.57	-69.79
9.41	-30.83	-81.6	-24.59	-62.62	-24.59	-62.56	-24.63	-70.56
9.51	-30.88	-83.23	-24.61	-63.05	-24.61	-63.02	-24.7	-71.27
9.61	-31.02	-84.89	-24.62	-63.5	-24.61	-63.42	-24.77	-71.88
9.71	-31.13	-86.62	-24.62	-63.96	-24.62	-63.91	-24.84	-72.56
9.81	-31.25	-88.03	-24.63	-64.36	-24.63	-64.33	-24.92	-73.31
9.91	-31.38	-89.36	-24.63	-64.89	-24.63	-64.81	-25.01	-74.01
10.01	-31.44	-90.6	-24.64	-65.36	-24.64	-65.31	-25.08	-74.68
10.11	-31.53	-91.92	-24.65	-65.82	-24.64	-65.78	-25.2	-75.42
10.21	-31.63	-93.46	-24.65	-66.16	-24.64	-66.2	-25.31	-76.02
10.31	-31.76	-95.26	-24.64	-66.7	-24.64	-66.65	-25.41	-76.63
10.41	-31.87	-97.05	-24.64	-67.2	-24.64	-67.14	-25.51	-76.93
10.51	-32.08	-98.93	-24.64	-67.62	-24.63	-67.58	-25.6	-77.4
10.61	-32.23	-101.16	-24.63	-68.13	-24.63	-68.09	-25.7	-77.89
10.71	-32.41	-102.97	-24.62	-68.69	-24.62	-68.61	-25.79	-78.44
10.81	-32.53	-104.97	-24.62	-69.21	-24.62	-69.11	-25.91	-78.97
10.91	-32.67	-107.34	-24.63	-69.74	-24.62	-69.66	-26.04	-79.59
11.01	-32.8	-109.53	-24.62	-70.23	-24.62	-70.18	-26.19	-79.95
11.11	-32.89	-111.64	-24.6	-70.76	-24.61	-70.74	-26.29	-80.22
11.21	-32.99	-113.9	-24.62	-71.32	-24.6	-71.28	-26.4	-80.5
11.31	-33.11	-115.59	-24.62	-71.8	-24.6	-71.83	-26.47	-80.7
11.41	-33.18	-117.91	-24.61	-72.34	-24.6	-72.31	-26.54	-81.2
11.51	-33.26	-119.59	-24.6	-72.89	-24.59	-72.81	-26.66	-81.54
11.61	-33.28	-121.47	-24.6	-73.41	-24.59	-73.32	-26.76	-82.07
11.71	-33.27	-123.86	-24.59	-73.95	-24.59	-73.88	-26.88	-82.52
11.81	-33.32	-126.73	-24.57	-74.47	-24.58	-74.45	-27.04	-82.72
11.91	-33.47	-129.22	-24.58	-75.04	-24.57	-74.98	-27.15	-82.57
12.01	-33.45	-131.44	-24.57	-75.56	-24.57	-75.61	-27.19	-82.74
12.11	-33.41	-133.15	-24.58	-76.25	-24.57	-76.25	-27.3	-82.88
12.21	-33.4	-135.22	-24.59	-76.65	-24.57	-76.63	-27.35	-83.12
12.31	-33.42	-137.36	-24.58	-77.22	-24.56	-77.14	-27.43	-83.51
12.41	-33.37	-139.56	-24.55	-77.85	-24.56	-77.71	-27.48	-83.85
12.51	-33.38	-142.34	-24.56	-78.36	-24.56	-78.25	-27.64	-84.36
12.61	-33.36	-144.48	-24.54	-78.85	-24.55	-78.85	-27.77	-84.49
12.71	-33.44	-147.6	-24.53	-79.43	-24.54	-79.38	-27.9	-84.55
12.81	-33.5	-150.43	-24.55	-79.94	-24.55	-79.98	-28.01	-83.91
12.91	-33.71	-152.81	-24.53	-80.47	-24.52	-80.48	-28.07	-83.92
13.01	-33.65	-154.91	-24.54	-81.13	-24.54	-81.09	-28.14	-83.48
13.11	-33.69	-157.42	-24.53	-81.69	-24.52	-81.67	-28.16	-83.94
13.21	-33.65	-159.11	-24.57	-82.13	-24.56	-81.97	-28.23	-84.29
13.31	-33.41	-161.98	-24.52	-82.55	-24.52	-82.48	-28.4	-84.59
13.41	-33.3	-164.72	-24.5	-83.02	-24.52	-83	-28.49	-84.34
13.51	-33.16	-167.67	-24.48	-83.66	-24.49	-83.59	-28.59	-84.8
13.61	-33.04	-169.86	-24.49	-84.18	-24.48	-84.19	-28.67	-84.31
13.71	-33.03	-172.4	-24.47	-84.77	-24.47	-84.75	-28.75	-84.48
13.81	-32.91	-173.52	-24.47	-85.3	-24.46	-85.34	-28.82	-84.27
13.91	-32.79	-175.59	-24.47	-85.97	-24.45	-85.87	-28.87	-84.72
14.01	-32.58	-176.93	-24.44	-86.63	-24.44	-86.54	-28.94	-84.63
14.11	-32.32	-179.33	-24.43	-87.14	-24.44	-87.06	-29.08	-85.36
14.21	-32.13	178.27	-24.44	-87.6	-24.45	-87.46	-29.24	-85.34
14.31	-31.99	175.26	-24.4	-88.04	-24.41	-88.02	-29.34	-84.9
14.41	-31.97	173.74	-24.38	-88.68	-24.39	-88.74	-29.48	-84.59
14.51	-31.83	171.35	-24.4	-89.37	-24.4	-89.32	-29.5	-84.33
14.61	-31.82	170.29	-24.4	-89.92	-24.39	-89.88	-29.5	-84.14
14.71	-31.66	169.29	-24.38	-90.49	-24.36	-90.36	-29.49	-84.42
14.81	-31.54	168.57	-24.37	-91.21	-24.36	-91.04	-29.58	-84.76
14.91	-31.29	167.89	-24.37	-91.79	-24.37	-91.6	-29.69	-85
15.01	-31.09	165.37	-24.36	-92.17	-24.37	-92.03	-29.87	-84.62
15.11	-30.94	163.27	-24.34	-92.66	-24.34	-92.68	-29.88	-84.39
15.21	-30.91	161.13	-24.32	-93.29	-24.32	-93.3	-29.96	-83.65
15.31	-30.95	159.26	-24.33	-93.96	-24.31	-93.84	-29.94	-83.59
15.41	-30.87	158.15	-24.34	-94.34	-24.31	-94.31	-30.06	-83.67
15.51	-30.75	157.05	-24.32	-94.86	-24.3	-94.77	-30.07	-83.4
15.61	-30.43	156.2	-24.3	-95.44	-24.28	-95.29	-30.13	-84
15.71	-30.14	154.56	-24.26	-96.09	-24.27	-95.92	-30.31	-84.27
15.81	-29.89	152.77	-24.26	-96.68	-24.27	-96.58	-30.41	-84.08
15.91	-29.63	150.73	-24.26	-97.16	-24.25	-97.13	-30.46	-83.97
16.01	-29.58	148.22	-24.24	-97.63	-24.24	-97.58	-30.52	-84.06
16.11	-29.53	146.54	-24.23	-97.94	-24.21	-97.95	-30.57	-84.21
16.21	-29.52	145.38	-24.19	-98.63	-24.16	-98.51	-30.65	-85.05
16.31	-29.47	145.52	-24.17	-99.21	-24.14	-99.08	-30.81	-84.56
16.41	-29.22	145.02	-24.14	-99.79	-24.12	-99.6	-30.89	-84.86
16.51	-28.93	143.68	-24.11	-100.44	-24.09	-100.3	-30.95	-85.05
16.61	-28.8	141.95	-24.09	-101.05	-24.07	-100.91	-31.04	-85.55
16.71	-28.7	140.61	-24.06	-101.52	-24.04	-101.53	-31.3	-87.51
16.81	-28.65	139.33	-24.07	-102.13	-24.02	-102.21	-31.75	-86.55
16.91	-28.64	138.21	-24.04	-102.5	-23.98	-102.53	-32.23	-85.83
17.01	-28.67	139.17	-23.99	-103.15	-23.93	-103.27	-32.38	-81.55
17.11	-28.46	139.28	-23.98	-103.78	-23.9	-103.85	-32.09	-76.88
17.21	-28.18	138.96	-23.94	-104.3	-23.89	-104.56	-30.87	-79.1
17.31	-27.94	137.44	-23.92	-104.76	-23.89	-105.13	-31	-86.19
17.41	-27.83	135.71	-23.82	-105.16	-23.83	-105.71	-31.95	-93.77
17.51	-27.8	134.39	-23.76	-106.14	-23.79	-106.59	-33.8	-90.04
17.61	-27.82	132.84	-23.7	-106.49	-23.75	-107.05	-34.26	-79.46
17.71	-27.92	132.16	-23.63	-107.52	-23.68	-107.83	-33.05	-74.01
17.81	-27.89	132.06	-23.62	-108.34	-23.64	-108.55	-32.36	-77.14
17.91	-27.77	131.85	-23.59	-109.35	-23.63	-109.29	-32.8	-83.79
18.01	-27.45	130.91	-23.55	-110.13	-23.6	-109.95	-33.98	-85.12
18.11	-27.33	128.83	-23.53	-110.8	-23.58	-110.62	-35.09	-79.53
18.21	-27.28	128.02	-23.48	-111.73	-23.52	-111.55	-35.1	-72.28
18.31	-27.18	127.03	-23.45	-112.62	-23.49	-112.52	-34.99	-66.44
18.41	-27.18	126.32	-23.44	-113.19	-23.47	-113.19	-34.1	-67.28
18.51	-27.2	126.73	-23.4	-114.3	-23.41	-114.18	-34.39	-67.2
18.61	-27.04	126.83	-23.44	-115.09	-23.42	-114.86	-34.39	-69.05
18.71	-26.98	127.43	-23.39	-115.78	-23.38	-115.58	-34.88	-69.04
18.81	-26.72	127.03	-23.32	-116.6	-23.35	-116.37	-35.46	-67.74
18.91	-26.64	125.96	-23.29	-117.6	-23.29	-117.39	-36.24	-62.26
19.01	-26.54	125.65	-23.26	-118.59	-23.29	-118.53	-35.86	-56.09
19.11	-26.46	125.53	-23.28	-119.43	-23.3	-119.43	-35.62	-53.71
19.21	-26.45	125.31	-23.28	-120.13	-23.26	-119.98	-35.38	-53.58
19.31	-26.36	125.7	-23.19	-121.25	-23.17	-121.13	-36	-52.33
19.41	-26.15	126.16	-23.24	-122.63	-23.23	-122.46	-36.06	-45.65
19.51	-26.04	126.19	-23.27	-123.59	-23.26	-123.39	-35.91	-40.38
19.61	-25.77	125.29	-23.29	-124.28	-23.31	-124.06	-35.15	-38.99
19.71	-25.72	124.53	-23.27	-124.94	-23.28	-124.7	-35.29	-38.48
19.81	-25.77	123.85	-23.19	-125.84	-23.19	-125.8	-34.86	-34.88
19.91	-25.76	124.12	-23.22	-127.11	-23.24	-127.04	-34.64	-31.97
20.01	-25.67	125.25	-23.29	-128.16	-23.28	-128.14	-33.93	-29.02