!s2p File: Measurements: S11, S21, S12, S22								
# GHz S dB R 50.0								
0.01	-25.36	-0.06	-29.06	-0.41	-29.06	-0.52	-29.72	-3.5
0.11	-25.57	-1.52	-29.19	-1.29	-29.18	-1.25	-31.52	-8.44
0.21	-25.62	-1.87	-29.23	-1.76	-29.23	-1.73	-32.06	-7.23
0.31	-25.64	-2.36	-29.24	-2.32	-29.24	-2.34	-32.25	-6.5
0.41	-25.64	-2.91	-29.24	-2.93	-29.25	-2.86	-32.34	-6.49
0.51	-25.64	-3.45	-29.26	-3.49	-29.25	-3.5	-32.42	-6.62
0.61	-25.64	-4	-29.26	-4.1	-29.25	-4.1	-32.45	-6.96
0.71	-25.63	-4.62	-29.27	-4.74	-29.26	-4.76	-32.48	-7.34
0.81	-25.63	-5.17	-29.27	-5.37	-29.26	-5.37	-32.51	-7.91
0.91	-25.64	-5.78	-29.27	-6.01	-29.27	-5.99	-32.55	-8.34
1.01	-25.65	-6.39	-29.27	-6.64	-29.27	-6.62	-32.57	-8.76
1.11	-25.66	-7.02	-29.28	-7.23	-29.27	-7.25	-32.58	-9.43
1.21	-25.67	-7.7	-29.28	-7.92	-29.28	-7.88	-32.6	-9.99
1.31	-25.67	-8.45	-29.28	-8.51	-29.28	-8.51	-32.62	-10.75
1.41	-25.69	-9.21	-29.29	-9.18	-29.29	-9.15	-32.67	-11.6
1.51	-25.72	-9.9	-29.29	-9.79	-29.29	-9.78	-32.74	-12.03
1.61	-25.71	-10.52	-29.3	-10.44	-29.3	-10.44	-32.74	-12.48
1.71	-25.69	-11.37	-29.31	-11.04	-29.31	-11.04	-32.75	-13.32
1.81	-25.69	-12.32	-29.32	-11.69	-29.31	-11.67	-32.76	-14.35
1.91	-25.71	-13.12	-29.32	-12.35	-29.32	-12.34	-32.8	-15.16
2.01	-25.73	-13.88	-29.33	-12.95	-29.33	-12.93	-32.88	-16.03
2.11	-25.74	-14.61	-29.34	-13.6	-29.33	-13.61	-32.94	-16.82
2.21	-25.75	-15.37	-29.34	-14.2	-29.34	-14.2	-32.98	-17.42
2.31	-25.77	-16.15	-29.35	-14.87	-29.35	-14.86	-33.04	-18.07
2.41	-25.78	-16.96	-29.35	-15.47	-29.35	-15.47	-33.08	-18.82
2.51	-25.81	-17.64	-29.36	-16.1	-29.36	-16.09	-33.16	-19.58
2.61	-25.85	-18.36	-29.37	-16.73	-29.37	-16.74	-33.25	-20.21
2.71	-25.87	-18.91	-29.38	-17.35	-29.38	-17.35	-33.31	-20.86
2.81	-25.91	-19.48	-29.39	-18.02	-29.38	-18	-33.43	-21.5
2.91	-25.93	-20.13	-29.4	-18.63	-29.4	-18.6	-33.51	-21.94
3.01	-25.96	-20.85	-29.4	-19.22	-29.4	-19.23	-33.58	-22.43
3.11	-25.98	-21.61	-29.41	-19.91	-29.42	-19.88	-33.66	-23.1
3.21	-26.04	-22.39	-29.43	-20.49	-29.43	-20.47	-33.74	-23.61
3.31	-26.08	-23.12	-29.43	-21.11	-29.43	-21.1	-33.86	-24.17
3.41	-26.12	-23.84	-29.45	-21.75	-29.45	-21.76	-33.97	-24.57
3.51	-26.15	-24.54	-29.45	-22.38	-29.45	-22.36	-34.07	-25.02
3.61	-26.18	-25.34	-29.46	-23.04	-29.46	-22.97	-34.18	-25.55
3.71	-26.23	-26.25	-29.48	-23.62	-29.48	-23.64	-34.26	-26.23
3.81	-26.28	-27.2	-29.5	-24.2	-29.49	-24.24	-34.37	-27.08
3.91	-26.35	-27.98	-29.5	-24.82	-29.5	-24.86	-34.54	-27.8
4.01	-26.42	-28.63	-29.51	-25.51	-29.51	-25.47	-34.7	-28.22
4.11	-26.44	-29.37	-29.52	-26.13	-29.52	-26.03	-34.86	-28.28
4.21	-26.47	-30.2	-29.53	-26.76	-29.53	-26.72	-34.92	-28.35
4.31	-26.51	-31.23	-29.54	-27.39	-29.56	-27.27	-34.99	-28.95
4.41	-26.58	-32.32	-29.56	-28.01	-29.56	-27.93	-35.08	-29.77
4.51	-26.66	-33.09	-29.58	-28.53	-29.58	-28.54	-35.22	-30.67
4.61	-26.74	-33.75	-29.6	-29.17	-29.6	-29.2	-35.42	-31.22
4.71	-26.76	-34.26	-29.61	-29.86	-29.61	-29.76	-35.66	-31.47
4.81	-26.78	-35.05	-29.62	-30.44	-29.61	-30.42	-35.85	-31.15
4.91	-26.77	-36	-29.64	-31.06	-29.64	-30.99	-35.94	-30.83
5.01	-26.81	-37.08	-29.64	-31.64	-29.65	-31.6	-36.05	-30.84
5.11	-26.89	-38.05	-29.67	-32.25	-29.66	-32.19	-36.12	-31.36
5.21	-27	-38.86	-29.69	-32.83	-29.68	-32.83	-36.28	-31.79
5.31	-27.08	-39.49	-29.7	-33.45	-29.7	-33.46	-36.51	-32.31
5.41	-27.16	-39.96	-29.72	-34.1	-29.71	-34.03	-36.81	-32.34
5.51	-27.22	-40.6	-29.74	-34.68	-29.73	-34.66	-37.08	-31.43
5.61	-27.28	-41.44	-29.76	-35.34	-29.76	-35.29	-37.25	-30.5
5.71	-27.35	-42.45	-29.77	-35.9	-29.78	-35.89	-37.33	-29.85
5.81	-27.45	-43.57	-29.79	-36.54	-29.8	-36.46	-37.44	-29.52
5.91	-27.58	-44.47	-29.82	-37.13	-29.81	-37.11	-37.53	-29.94
6.01	-27.7	-45.29	-29.83	-37.74	-29.84	-37.67	-37.72	-30.2
6.11	-27.8	-45.98	-29.87	-38.38	-29.86	-38.28	-37.98	-29.92
6.21	-27.86	-46.61	-29.89	-38.9	-29.89	-38.92	-38.21	-28.99
6.31	-27.92	-47.56	-29.92	-39.49	-29.91	-39.46	-38.36	-27.79
6.41	-27.98	-48.53	-29.94	-40.08	-29.94	-40.08	-38.58	-26.52
6.51	-28.05	-49.71	-29.96	-40.59	-29.96	-40.63	-38.6	-25.45
6.61	-28.17	-50.79	-29.99	-41.19	-29.99	-41.17	-38.75	-25.02
6.71	-28.28	-51.75	-30.02	-41.78	-30.02	-41.72	-38.92	-24.38
6.81	-28.39	-52.65	-30.04	-42.32	-30.03	-42.26	-39.13	-23.69
6.91	-28.46	-53.5	-30.07	-42.89	-30.07	-42.81	-39.43	-22.74
7.01	-28.52	-54.4	-30.09	-43.45	-30.09	-43.39	-39.63	-21.06
7.11	-28.59	-55.46	-30.12	-43.97	-30.13	-43.95	-39.68	-19.25
7.21	-28.68	-56.54	-30.15	-44.5	-30.15	-44.45	-39.64	-17.43
7.31	-28.77	-57.53	-30.17	-45.23	-30.17	-45.24	-39.57	-17.28
7.41	-28.87	-58.42	-30.24	-45.8	-30.23	-45.76	-39.54	-17.08
7.51	-28.96	-59.34	-30.28	-46.15	-30.27	-46.11	-39.7	-16.78
7.61	-29.07	-60.16	-30.29	-46.71	-30.3	-46.61	-39.91	-15.26
7.71	-29.14	-61.01	-30.32	-47.15	-30.32	-47.07	-40.02	-13.36
7.81	-29.23	-61.96	-30.37	-47.58	-30.37	-47.57	-40.1	-11.29
7.91	-29.36	-62.79	-30.4	-48.05	-30.41	-48.06	-40.08	-9.81
8.01	-29.51	-63.95	-30.44	-48.5	-30.44	-48.45	-40.07	-8.56
8.11	-29.66	-65.04	-30.47	-48.91	-30.47	-48.82	-40.2	-8.04
8.21	-29.82	-66.16	-30.51	-49.32	-30.51	-49.34	-40.35	-7.44
8.31	-29.97	-67.13	-30.55	-49.82	-30.54	-49.76	-40.46	-6.56
8.41	-30.07	-68.24	-30.58	-50.24	-30.58	-50.18	-40.58	-4.87
8.51	-30.19	-69.47	-30.63	-50.52	-30.64	-50.42	-40.7	-3.55
8.61	-30.25	-70.91	-30.67	-50.74	-30.67	-50.72	-40.74	-2.24
8.71	-30.34	-72.52	-30.69	-51.06	-30.69	-50.97	-40.83	-0.77
8.81	-30.45	-74.14	-30.72	-51.38	-30.71	-51.3	-40.84	0.83
8.91	-30.58	-75.69	-30.73	-51.7	-30.73	-51.61	-40.98	1.53
9.01	-30.74	-77.08	-30.77	-52.06	-30.78	-51.85	-41.22	3.63
9.11	-30.88	-78.6	-30.79	-52.21	-30.8	-52.1	-41.28	5.82
9.21	-31	-79.95	-30.81	-52.35	-30.81	-52.32	-41.4	8.76
9.31	-31.11	-81.3	-30.81	-52.69	-30.82	-52.55	-41.48	11.11
9.41	-31.2	-82.86	-30.83	-52.89	-30.82	-52.82	-41.49	13.61
9.51	-31.25	-84.38	-30.86	-53.12	-30.85	-53.06	-41.45	16.67
9.61	-31.38	-86.18	-30.83	-53.35	-30.83	-53.23	-41.29	19.5
9.71	-31.51	-87.98	-30.85	-53.52	-30.85	-53.52	-41.12	22.59
9.81	-31.63	-89.44	-30.84	-53.82	-30.84	-53.72	-41.05	25.82
9.91	-31.74	-90.69	-30.82	-54.15	-30.83	-54.02	-40.85	29.13
10.01	-31.84	-91.98	-30.83	-54.38	-30.84	-54.25	-40.59	31.89
10.11	-31.92	-93.26	-30.82	-54.53	-30.81	-54.43	-40.35	35.67
10.21	-32.02	-94.82	-30.82	-54.7	-30.8	-54.7	-39.96	39.01
10.31	-32.15	-96.63	-30.77	-55.03	-30.78	-54.93	-39.5	41.29
10.41	-32.27	-98.66	-30.76	-55.36	-30.77	-55.3	-38.9	43.15
10.51	-32.46	-100.62	-30.73	-55.52	-30.74	-55.52	-38.45	44.21
10.61	-32.62	-102.98	-30.7	-55.89	-30.71	-55.89	-38.01	45.76
10.71	-32.82	-104.93	-30.68	-56.43	-30.68	-56.36	-37.66	46.64
10.81	-32.96	-106.9	-30.66	-56.89	-30.67	-56.75	-37.21	48.6
10.91	-33.07	-109.33	-30.65	-57.14	-30.65	-57.05	-36.81	49.92
11.01	-33.18	-111.42	-30.61	-57.47	-30.62	-57.4	-36.23	51.49
11.11	-33.26	-113.69	-30.6	-57.87	-30.59	-57.89	-35.78	51.5
11.21	-33.34	-116.13	-30.59	-58.39	-30.57	-58.33	-35.34	51.49
11.31	-33.48	-117.94	-30.57	-58.77	-30.57	-58.67	-34.95	51.12
11.41	-33.52	-120.58	-30.55	-59.11	-30.54	-59.11	-34.68	50.65
11.51	-33.62	-122.34	-30.53	-59.57	-30.52	-59.46	-34.34	51.01
11.61	-33.66	-124.11	-30.5	-59.97	-30.49	-59.86	-34.01	51.35
11.71	-33.63	-126.48	-30.49	-60.44	-30.49	-60.32	-33.7	51.5
11.81	-33.68	-129.16	-30.43	-60.79	-30.45	-60.74	-33.28	51.85
11.91	-33.76	-132	-30.42	-61.23	-30.42	-61.24	-32.83	50.98
12.01	-33.71	-134.37	-30.39	-61.79	-30.4	-61.82	-32.59	49.99
12.11	-33.68	-136.26	-30.42	-62.49	-30.41	-62.41	-32.26	49.61
12.21	-33.7	-138.41	-30.41	-62.54	-30.4	-62.54	-32.04	48.63
12.31	-33.71	-140.49	-30.37	-62.98	-30.37	-62.94	-31.83	48.21
12.41	-33.64	-142.6	-30.34	-63.65	-30.34	-63.5	-31.66	47.61
12.51	-33.64	-145.43	-30.32	-64.04	-30.32	-63.84	-31.39	47.98
12.61	-33.6	-147.43	-30.3	-64.44	-30.29	-64.4	-31.1	47.93
12.71	-33.62	-150.7	-30.27	-65.01	-30.28	-64.93	-30.76	47.44
12.81	-33.69	-153.72	-30.3	-65.28	-30.29	-65.22	-30.36	46.06
12.91	-33.82	-156.39	-30.23	-65.81	-30.22	-65.74	-30.17	45.17
13.01	-33.76	-158.58	-30.24	-66.28	-30.23	-66.21	-29.87	43.92
13.11	-33.82	-161.22	-30.22	-66.77	-30.21	-66.75	-29.76	43.02
13.21	-33.78	-163.03	-30.26	-66.99	-30.26	-66.7	-29.63	42.49
13.31	-33.51	-165.62	-30.16	-67.31	-30.15	-67.22	-29.37	42.77
13.41	-33.39	-168.23	-30.12	-67.59	-30.13	-67.58	-29.12	41.77
13.51	-33.18	-171.12	-30.08	-68.33	-30.09	-68.25	-29.01	41.5
13.61	-33.05	-173.36	-30.07	-68.78	-30.08	-68.71	-28.73	40.51
13.71	-33.04	-175.95	-30.03	-69.3	-30.03	-69.14	-28.55	39.97
13.81	-32.93	-177.13	-30	-69.68	-30	-69.7	-28.36	39.07
13.91	-32.77	-179.16	-29.99	-70.27	-29.97	-70.08	-28.25	38.35
14.01	-32.59	179.43	-29.96	-71	-29.94	-70.86	-28.09	37.58
14.11	-32.32	177.39	-29.95	-71.4	-29.96	-71.23	-27.97	37.69
14.21	-32.13	175.16	-29.92	-71.57	-29.94	-71.42	-27.74	37.22
14.31	-31.94	172.18	-29.84	-72.02	-29.86	-71.93	-27.55	36.57
14.41	-31.88	170.71	-29.81	-72.85	-29.83	-72.78	-27.31	36.09
14.51	-31.74	168.18	-29.82	-73.31	-29.82	-73.21	-27.15	34.96
14.61	-31.71	166.91	-29.82	-73.82	-29.8	-73.64	-27.01	33.8
14.71	-31.59	166.11	-29.75	-74.25	-29.73	-74.05	-26.93	32.82
14.81	-31.45	165.35	-29.73	-75.05	-29.73	-74.81	-26.83	32.37
14.91	-31.23	164.84	-29.75	-75.54	-29.75	-75.32	-26.7	31.93
15.01	-31	162.57	-29.71	-75.67	-29.72	-75.53	-26.49	31.62
15.11	-30.82	160.42	-29.67	-76.16	-29.66	-76.09	-26.35	30.65
15.21	-30.77	158.31	-29.63	-76.76	-29.63	-76.7	-26.14	29.78
15.31	-30.81	156.24	-29.62	-77.43	-29.61	-77.21	-26.03	28.79
15.41	-30.72	155.05	-29.62	-77.55	-29.6	-77.41	-25.91	28.15
15.51	-30.63	154.02	-29.56	-77.95	-29.53	-77.7	-25.8	27.27
15.61	-30.34	153.18	-29.51	-78.4	-29.5	-78.18	-25.74	26.63
15.71	-30.05	151.84	-29.45	-79.21	-29.46	-78.99	-25.63	26.53
15.81	-29.75	150.23	-29.47	-79.73	-29.46	-79.59	-25.49	26.03
15.91	-29.51	148.43	-29.44	-79.99	-29.44	-79.91	-25.35	25.2
16.01	-29.42	145.87	-29.39	-80.29	-29.37	-80.25	-25.26	24.57
16.11	-29.34	144.1	-29.34	-80.48	-29.32	-80.44	-25.16	23.85
16.21	-29.35	142.74	-29.24	-81.14	-29.22	-81.01	-25.13	23.32
16.31	-29.3	142.8	-29.2	-81.85	-29.17	-81.63	-25	22.95
16.41	-29.08	142.39	-29.15	-82.4	-29.12	-82.15	-24.91	22.4
16.51	-28.8	141.2	-29.11	-83.05	-29.08	-82.87	-24.82	21.69
16.61	-28.64	139.57	-29.04	-83.67	-29.02	-83.49	-24.75	21.35
16.71	-28.53	138.26	-28.99	-84.17	-28.97	-84.19	-24.77	21.55
16.81	-28.45	136.91	-29	-84.68	-28.94	-84.72	-24.54	21.77
16.91	-28.44	135.56	-28.91	-84.92	-28.86	-84.87	-24.37	21.99
17.01	-28.52	136.25	-28.83	-85.73	-28.76	-85.79	-24.03	21.12
17.11	-28.34	136.41	-28.8	-86.41	-28.71	-86.41	-23.73	19.3
17.21	-28.08	136.13	-28.74	-86.95	-28.68	-87.13	-23.85	15.54
17.31	-27.84	134.84	-28.7	-87.26	-28.67	-87.58	-24.22	15.68
17.41	-27.72	133.19	-28.54	-87.8	-28.56	-88.18	-24.48	18.77
17.51	-27.67	131.82	-28.47	-88.95	-28.49	-89.28	-23.9	21.49
17.61	-27.66	130.05	-28.38	-89.11	-28.42	-89.58	-23.3	20.63
17.71	-27.77	129.19	-28.26	-90.35	-28.31	-90.61	-22.99	16.98
17.81	-27.75	128.95	-28.22	-91.2	-28.25	-91.38	-23.07	14.63
17.91	-27.66	128.76	-28.17	-92.28	-28.21	-92.16	-23.33	14.68
18.01	-27.36	127.86	-28.11	-93.04	-28.14	-92.84	-23.28	16.16
18.11	-27.24	125.84	-28.05	-93.72	-28.09	-93.52	-22.94	17.03
18.21	-27.15	124.91	-27.98	-94.83	-28.01	-94.71	-22.65	16.14
18.31	-27.07	123.9	-27.93	-95.86	-27.96	-95.74	-22.37	15.32
18.41	-27.05	123.14	-27.88	-96.29	-27.91	-96.31	-22.32	12.94
18.51	-27.08	123.05	-27.8	-97.76	-27.8	-97.62	-22.3	12.67
18.61	-26.97	123.09	-27.81	-98.64	-27.81	-98.32	-22.32	11.71
18.71	-26.95	123.68	-27.73	-99.42	-27.73	-99.18	-22.3	11.74
18.81	-26.74	123.19	-27.62	-100.34	-27.64	-100.09	-22.22	11.81
18.91	-26.65	122.2	-27.56	-101.44	-27.55	-101.19	-22.07	12.27
19.01	-26.58	121.64	-27.48	-102.72	-27.5	-102.64	-21.84	11.55
19.11	-26.52	121.68	-27.5	-103.8	-27.51	-103.76	-21.71	10.83
19.21	-26.52	121.21	-27.46	-104.41	-27.44	-104.3	-21.64	9.7
19.31	-26.48	121.36	-27.3	-105.89	-27.27	-105.81	-21.67	9.75
19.41	-26.35	121.9	-27.36	-107.83	-27.34	-107.59	-21.49	9.97
19.51	-26.29	121.81	-27.34	-108.99	-27.32	-108.62	-21.32	9.86
19.61	-26.07	121.39	-27.37	-109.8	-27.39	-109.53	-21.14	8.65
19.71	-26.02	120.76	-27.31	-110.35	-27.32	-110.21	-21.12	8.16
19.81	-26.13	119.84	-27.1	-111.85	-27.1	-111.72	-20.99	7.75
19.91	-26.17	120.22	-27.16	-113.89	-27.17	-113.74	-20.83	7.55
20.01	-26.16	121.64	-27.23	-115.55	-27.2	-115.44	-20.62	6.99