!s2p File: Measurements: S11, S21, S12, S22								
# GHz S dB R 50.0								
0.01	-15.49	-0.77	-15.29	-0.35	-15.3	-0.39	-21.13	-1.64
0.11	-15.75	-1.8	-15.44	-1.39	-15.43	-1.4	-21.8	-3.56
0.21	-15.82	-2.32	-15.47	-2.1	-15.47	-2.08	-21.98	-3.68
0.31	-15.85	-2.9	-15.48	-2.83	-15.48	-2.82	-22.04	-3.99
0.41	-15.86	-3.52	-15.49	-3.58	-15.49	-3.58	-22.07	-4.56
0.51	-15.87	-4.16	-15.49	-4.37	-15.49	-4.36	-22.09	-5.18
0.61	-15.88	-4.81	-15.5	-5.15	-15.49	-5.16	-22.11	-5.84
0.71	-15.88	-5.5	-15.5	-5.95	-15.5	-5.94	-22.11	-6.54
0.81	-15.88	-6.18	-15.51	-6.75	-15.5	-6.75	-22.11	-7.3
0.91	-15.89	-6.88	-15.51	-7.55	-15.5	-7.54	-22.13	-8.03
1.01	-15.89	-7.59	-15.51	-8.35	-15.51	-8.34	-22.13	-8.78
1.11	-15.89	-8.29	-15.51	-9.15	-15.51	-9.14	-22.14	-9.54
1.21	-15.9	-9.02	-15.52	-9.94	-15.51	-9.94	-22.14	-10.31
1.31	-15.9	-9.78	-15.52	-10.76	-15.52	-10.75	-22.14	-11.14
1.41	-15.91	-10.55	-15.53	-11.57	-15.52	-11.56	-22.16	-11.98
1.51	-15.92	-11.29	-15.53	-12.37	-15.53	-12.37	-22.17	-12.71
1.61	-15.92	-12.03	-15.53	-13.16	-15.53	-13.18	-22.17	-13.45
1.71	-15.92	-12.8	-15.54	-13.97	-15.53	-13.97	-22.17	-14.29
1.81	-15.92	-13.64	-15.54	-14.78	-15.54	-14.77	-22.17	-15.2
1.91	-15.92	-14.43	-15.55	-15.57	-15.54	-15.58	-22.18	-16.07
2.01	-15.93	-15.2	-15.55	-16.39	-15.55	-16.38	-22.2	-16.93
2.11	-15.94	-15.97	-15.56	-17.19	-15.55	-17.18	-22.21	-17.74
2.21	-15.95	-16.74	-15.56	-17.99	-15.56	-17.99	-22.22	-18.56
2.31	-15.95	-17.5	-15.57	-18.79	-15.56	-18.79	-22.23	-19.37
2.41	-15.96	-18.28	-15.57	-19.58	-15.57	-19.58	-22.24	-20.21
2.51	-15.97	-19.04	-15.58	-20.39	-15.58	-20.39	-22.26	-21.02
2.61	-15.98	-19.77	-15.58	-21.18	-15.58	-21.18	-22.28	-21.83
2.71	-16	-20.5	-15.59	-21.98	-15.58	-21.98	-22.29	-22.62
2.81	-16.01	-21.21	-15.59	-22.77	-15.59	-22.78	-22.31	-23.41
2.91	-16.02	-21.95	-15.6	-23.56	-15.6	-23.57	-22.33	-24.2
3.01	-16.04	-22.7	-15.61	-24.36	-15.6	-24.36	-22.35	-24.93
3.11	-16.05	-23.47	-15.61	-25.16	-15.61	-25.16	-22.36	-25.74
3.21	-16.07	-24.24	-15.62	-25.96	-15.61	-25.96	-22.38	-26.56
3.31	-16.08	-25.02	-15.62	-26.76	-15.62	-26.76	-22.4	-27.36
3.41	-16.1	-25.77	-15.63	-27.55	-15.62	-27.56	-22.43	-28.11
3.51	-16.11	-26.54	-15.63	-28.35	-15.63	-28.35	-22.44	-28.85
3.61	-16.13	-27.31	-15.64	-29.13	-15.64	-29.16	-22.46	-29.65
3.71	-16.15	-28.11	-15.65	-29.93	-15.65	-29.96	-22.48	-30.47
3.81	-16.17	-28.95	-15.66	-30.74	-15.65	-30.75	-22.49	-31.32
3.91	-16.2	-29.74	-15.66	-31.52	-15.66	-31.55	-22.53	-32.21
4.01	-16.22	-30.49	-15.67	-32.34	-15.67	-32.35	-22.56	-32.96
4.11	-16.23	-31.26	-15.67	-33.15	-15.67	-33.13	-22.59	-33.71
4.21	-16.24	-32.04	-15.68	-33.94	-15.68	-33.93	-22.6	-34.4
4.31	-16.26	-32.89	-15.68	-34.7	-15.69	-34.72	-22.61	-35.23
4.41	-16.29	-33.76	-15.7	-35.5	-15.7	-35.52	-22.62	-36.1
4.51	-16.32	-34.53	-15.71	-36.29	-15.71	-36.3	-22.65	-36.98
4.61	-16.35	-35.28	-15.71	-37.09	-15.71	-37.1	-22.68	-37.8
4.71	-16.36	-35.98	-15.72	-37.91	-15.72	-37.9	-22.73	-38.59
4.81	-16.37	-36.75	-15.73	-38.69	-15.73	-38.69	-22.76	-39.28
4.91	-16.38	-37.56	-15.74	-39.49	-15.74	-39.47	-22.78	-39.94
5.01	-16.4	-38.4	-15.74	-40.27	-15.75	-40.27	-22.79	-40.65
5.11	-16.43	-39.22	-15.75	-41.06	-15.75	-41.05	-22.8	-41.47
5.21	-16.46	-39.98	-15.76	-41.85	-15.76	-41.85	-22.83	-42.29
5.31	-16.49	-40.72	-15.77	-42.65	-15.77	-42.64	-22.86	-43.16
5.41	-16.53	-41.43	-15.78	-43.44	-15.78	-43.43	-22.91	-43.92
5.51	-16.55	-42.14	-15.79	-44.22	-15.79	-44.23	-22.96	-44.6
5.61	-16.57	-42.92	-15.8	-45.03	-15.8	-45.02	-23	-45.18
5.71	-16.6	-43.72	-15.81	-45.82	-15.81	-45.82	-23.02	-45.87
5.81	-16.64	-44.57	-15.82	-46.59	-15.82	-46.59	-23.03	-46.56
5.91	-16.68	-45.36	-15.83	-47.39	-15.83	-47.39	-23.05	-47.41
6.01	-16.72	-46.15	-15.84	-48.2	-15.84	-48.18	-23.07	-48.27
6.11	-16.76	-46.89	-15.85	-48.98	-15.85	-48.98	-23.1	-49.03
6.21	-16.78	-47.63	-15.87	-49.75	-15.87	-49.77	-23.15	-49.74
6.31	-16.8	-48.4	-15.88	-50.54	-15.88	-50.55	-23.18	-50.35
6.41	-16.82	-49.24	-15.89	-51.33	-15.89	-51.33	-23.22	-51.03
6.51	-16.85	-50.07	-15.9	-52.08	-15.9	-52.1	-23.23	-51.64
6.61	-16.89	-50.94	-15.91	-52.89	-15.91	-52.88	-23.26	-52.43
6.71	-16.93	-51.76	-15.93	-53.68	-15.93	-53.67	-23.29	-53.22
6.81	-16.96	-52.54	-15.94	-54.46	-15.94	-54.44	-23.33	-54.04
6.91	-16.99	-53.33	-15.95	-55.21	-15.95	-55.21	-23.37	-54.86
7.01	-17.01	-54.11	-15.96	-56	-15.97	-55.99	-23.42	-55.52
7.11	-17.04	-54.91	-15.97	-56.74	-15.98	-56.76	-23.45	-56.14
7.21	-17.07	-55.76	-15.99	-57.53	-15.99	-57.55	-23.47	-56.72
7.31	-17.1	-56.53	-16	-58.36	-16	-58.35	-23.46	-57.48
7.41	-17.13	-57.32	-16.02	-59.15	-16.02	-59.14	-23.46	-58.25
7.51	-17.16	-58.14	-16.04	-59.89	-16.04	-59.87	-23.48	-59.16
7.61	-17.2	-58.91	-16.05	-60.65	-16.05	-60.62	-23.53	-59.92
7.71	-17.22	-59.69	-16.06	-61.4	-16.07	-61.38	-23.57	-60.66
7.81	-17.25	-60.46	-16.08	-62.11	-16.09	-62.14	-23.62	-61.4
7.91	-17.29	-61.24	-16.1	-62.89	-16.1	-62.91	-23.64	-62.04
8.01	-17.34	-62.07	-16.12	-63.66	-16.12	-63.65	-23.67	-62.82
8.11	-17.38	-62.94	-16.13	-64.39	-16.13	-64.38	-23.69	-63.68
8.21	-17.43	-63.77	-16.15	-65.13	-16.15	-65.14	-23.72	-64.58
8.31	-17.48	-64.57	-16.16	-65.91	-16.17	-65.88	-23.75	-65.47
8.41	-17.51	-65.4	-16.17	-66.61	-16.18	-66.61	-23.79	-66.31
8.51	-17.55	-66.28	-16.19	-67.35	-16.2	-67.33	-23.83	-67.21
8.61	-17.57	-67.19	-16.21	-68.05	-16.22	-68.05	-23.87	-68.04
8.71	-17.61	-68.14	-16.23	-68.77	-16.23	-68.72	-23.9	-68.88
8.81	-17.65	-69.05	-16.25	-69.48	-16.25	-69.44	-23.94	-69.75
8.91	-17.69	-69.98	-16.26	-70.17	-16.26	-70.16	-23.97	-70.69
9.01	-17.74	-70.87	-16.27	-70.91	-16.28	-70.84	-24.02	-71.7
9.11	-17.78	-71.78	-16.28	-71.57	-16.29	-71.53	-24.08	-72.56
9.21	-17.82	-72.67	-16.3	-72.26	-16.3	-72.24	-24.14	-73.52
9.31	-17.86	-73.56	-16.31	-72.96	-16.31	-72.93	-24.2	-74.45
9.41	-17.9	-74.48	-16.31	-73.66	-16.32	-73.61	-24.25	-75.36
9.51	-17.94	-75.38	-16.33	-74.35	-16.33	-74.32	-24.33	-76.28
9.61	-17.99	-76.28	-16.34	-75.06	-16.34	-75	-24.4	-77.08
9.71	-18.03	-77.26	-16.34	-75.74	-16.35	-75.7	-24.46	-77.93
9.81	-18.08	-78.13	-16.35	-76.4	-16.35	-76.4	-24.54	-78.84
9.91	-18.12	-78.95	-16.36	-77.13	-16.36	-77.1	-24.63	-79.72
10.01	-18.16	-79.81	-16.36	-77.85	-16.37	-77.8	-24.71	-80.64
10.11	-18.2	-80.65	-16.37	-78.54	-16.37	-78.47	-24.81	-81.58
10.21	-18.25	-81.53	-16.38	-79.21	-16.38	-79.18	-24.92	-82.44
10.31	-18.31	-82.42	-16.38	-79.92	-16.38	-79.86	-25.01	-83.22
10.41	-18.35	-83.31	-16.38	-80.61	-16.39	-80.6	-25.13	-83.84
10.51	-18.43	-84.23	-16.39	-81.29	-16.39	-81.29	-25.22	-84.54
10.61	-18.49	-85.21	-16.39	-82.02	-16.39	-82.03	-25.33	-85.3
10.71	-18.56	-86.07	-16.39	-82.8	-16.4	-82.72	-25.41	-86.09
10.81	-18.62	-86.95	-16.39	-83.55	-16.4	-83.45	-25.54	-86.93
10.91	-18.67	-87.93	-16.4	-84.28	-16.4	-84.2	-25.67	-87.85
11.01	-18.74	-88.79	-16.4	-84.98	-16.41	-84.92	-25.82	-88.57
11.11	-18.78	-89.68	-16.4	-85.69	-16.41	-85.68	-25.94	-89.18
11.21	-18.84	-90.68	-16.41	-86.44	-16.41	-86.42	-26.06	-89.75
11.31	-18.9	-91.52	-16.42	-87.15	-16.41	-87.16	-26.15	-90.21
11.41	-18.95	-92.47	-16.42	-87.92	-16.42	-87.91	-26.24	-90.98
11.51	-19	-93.3	-16.42	-88.7	-16.42	-88.59	-26.36	-91.7
11.61	-19.05	-94.18	-16.43	-89.41	-16.42	-89.33	-26.48	-92.58
11.71	-19.09	-95.08	-16.42	-90.15	-16.44	-90.11	-26.6	-93.4
11.81	-19.15	-96.09	-16.42	-90.86	-16.44	-90.81	-26.78	-94.04
11.91	-19.22	-96.97	-16.44	-91.61	-16.44	-91.58	-26.93	-94.28
12.01	-19.25	-97.97	-16.44	-92.34	-16.44	-92.39	-27.01	-94.77
12.11	-19.3	-98.87	-16.45	-93.17	-16.45	-93.16	-27.14	-95.31
12.21	-19.35	-99.75	-16.47	-93.85	-16.45	-93.85	-27.23	-95.81
12.31	-19.4	-100.61	-16.47	-94.66	-16.47	-94.59	-27.34	-96.55
12.41	-19.44	-101.52	-16.46	-95.45	-16.47	-95.3	-27.41	-97.26
12.51	-19.51	-102.45	-16.48	-96.18	-16.48	-96.07	-27.59	-98.25
12.61	-19.55	-103.34	-16.47	-96.85	-16.49	-96.81	-27.76	-98.81
12.71	-19.62	-104.3	-16.47	-97.6	-16.49	-97.58	-27.95	-99.24
12.81	-19.69	-105.28	-16.49	-98.33	-16.5	-98.37	-28.15	-99.14
12.91	-19.78	-106.06	-16.5	-99.1	-16.49	-99.08	-28.24	-99.45
13.01	-19.83	-107.03	-16.5	-99.9	-16.5	-99.86	-28.39	-99.4
13.11	-19.92	-107.84	-16.51	-100.71	-16.51	-100.65	-28.46	-100.03
13.21	-19.96	-108.6	-16.54	-101.43	-16.54	-101.27	-28.58	-100.74
13.31	-20.01	-109.78	-16.52	-102.08	-16.53	-101.97	-28.79	-101.57
13.41	-20.06	-110.81	-16.52	-102.79	-16.54	-102.77	-28.97	-101.82
13.51	-20.12	-111.96	-16.53	-103.54	-16.54	-103.53	-29.08	-102.69
13.61	-20.16	-112.98	-16.54	-104.27	-16.54	-104.27	-29.29	-102.64
13.71	-20.24	-113.96	-16.53	-105.01	-16.53	-105.01	-29.44	-103.15
13.81	-20.27	-114.91	-16.55	-105.83	-16.55	-105.81	-29.59	-103.32
13.91	-20.35	-115.88	-16.56	-106.65	-16.56	-106.49	-29.69	-104.06
14.01	-20.38	-116.82	-16.56	-107.42	-16.56	-107.33	-29.85	-104.41
14.11	-20.41	-117.87	-16.56	-108.14	-16.58	-108.04	-30.04	-105.6
14.21	-20.46	-118.92	-16.57	-108.88	-16.59	-108.75	-30.3	-106.22
14.31	-20.54	-120.12	-16.57	-109.54	-16.59	-109.47	-30.53	-106.33
14.41	-20.58	-120.96	-16.57	-110.3	-16.58	-110.3	-30.78	-106.45
14.51	-20.65	-122.09	-16.58	-111.14	-16.59	-111.09	-30.93	-106.48
14.61	-20.7	-122.9	-16.61	-111.93	-16.6	-111.84	-31.04	-106.31
14.71	-20.73	-123.85	-16.61	-112.66	-16.6	-112.5	-31.15	-106.64
14.81	-20.76	-124.63	-16.61	-113.48	-16.61	-113.3	-31.31	-107.39
14.91	-20.75	-125.67	-16.63	-114.28	-16.63	-114.09	-31.53	-108.18
15.01	-20.83	-126.75	-16.62	-114.91	-16.64	-114.78	-31.89	-108.48
15.11	-20.88	-127.97	-16.63	-115.64	-16.64	-115.57	-32.05	-108.27
15.21	-20.97	-128.85	-16.64	-116.37	-16.64	-116.36	-32.31	-107.59
15.31	-21.06	-129.57	-16.66	-117.17	-16.65	-117.09	-32.43	-107.55
15.41	-21.1	-130.51	-16.68	-117.88	-16.67	-117.79	-32.73	-107.99
15.51	-21.15	-131.31	-16.69	-118.61	-16.67	-118.46	-32.87	-107.68
15.61	-21.17	-132.65	-16.7	-119.38	-16.69	-119.21	-33.03	-108.5
15.71	-21.21	-133.82	-16.68	-120.13	-16.69	-119.92	-33.34	-109.39
15.81	-21.25	-134.99	-16.7	-120.87	-16.71	-120.71	-33.63	-109.73
15.91	-21.29	-136.28	-16.71	-121.57	-16.71	-121.5	-33.93	-109.57
16.01	-21.4	-137.31	-16.72	-122.26	-16.72	-122.21	-34.17	-109.64
16.11	-21.46	-138.36	-16.73	-122.89	-16.72	-122.86	-34.41	-109.68
16.21	-21.52	-139.06	-16.74	-123.68	-16.71	-123.58	-34.57	-110.63
16.31	-21.5	-139.75	-16.75	-124.42	-16.73	-124.23	-34.97	-110.56
16.41	-21.5	-140.98	-16.75	-125.1	-16.73	-124.91	-35.21	-111.1
16.51	-21.52	-142.3	-16.75	-125.91	-16.73	-125.72	-35.48	-111.45
16.61	-21.57	-143.42	-16.74	-126.64	-16.74	-126.47	-35.75	-112.25
16.71	-21.59	-144.44	-16.76	-127.23	-16.74	-127.21	-36.11	-115.65
16.81	-21.65	-145.49	-16.76	-128.02	-16.74	-128.01	-37.15	-116.51
16.91	-21.71	-146.33	-16.79	-128.66	-16.73	-128.62	-38.17	-117.29
17.01	-21.66	-146.77	-16.78	-129.32	-16.73	-129.36	-39.19	-110.78
17.11	-21.63	-147.85	-16.8	-130.06	-16.73	-130.07	-39.51	-99.98
17.21	-21.6	-149.09	-16.79	-130.65	-16.74	-130.82	-37.21	-97.68
17.31	-21.63	-150.37	-16.78	-131.29	-16.76	-131.56	-36.95	-110.08
17.41	-21.65	-151.54	-16.73	-131.86	-16.75	-132.27	-37.72	-126.79
17.51	-21.7	-152.61	-16.71	-132.76	-16.73	-133.14	-41.68	-136.3
17.61	-21.79	-153.42	-16.69	-133.31	-16.73	-133.8	-46.38	-121.17
17.71	-21.82	-154.04	-16.67	-134.32	-16.71	-134.52	-44.24	-87.91
17.81	-21.82	-154.74	-16.67	-135.14	-16.7	-135.25	-42.33	-90.91
17.91	-21.81	-155.82	-16.66	-136.16	-16.7	-136.07	-42.8	-109.13
18.01	-21.8	-157.54	-16.67	-137.04	-16.71	-136.87	-46.14	-124.18
18.11	-21.91	-158.53	-16.67	-137.84	-16.72	-137.57	-55.3	-129.28
18.21	-21.88	-159.8	-16.66	-138.62	-16.7	-138.46	-57.91	-28.08
18.31	-21.9	-161.01	-16.65	-139.48	-16.68	-139.35	-50.23	-0.1
18.41	-21.92	-162.02	-16.67	-140.2	-16.69	-140.14	-47.41	-20.93
18.51	-21.87	-162.96	-16.67	-141	-16.67	-140.88	-47.83	-12.72
18.61	-21.87	-164.04	-16.7	-141.91	-16.69	-141.64	-48.18	-12.76
18.71	-21.78	-164.74	-16.68	-142.63	-16.68	-142.41	-48.38	2.67
18.81	-21.72	-166.31	-16.65	-143.51	-16.67	-143.23	-47.42	19.59
18.91	-21.73	-167.33	-16.65	-144.4	-16.66	-144.15	-44.31	34.35
19.01	-21.69	-168.74	-16.63	-145.23	-16.66	-145.12	-41.92	29.6
19.11	-21.68	-169.79	-16.65	-146.03	-16.67	-145.98	-40.82	28.02
19.21	-21.66	-170.79	-16.67	-146.87	-16.66	-146.69	-40.27	24.25
19.31	-21.59	-172.06	-16.64	-147.72	-16.63	-147.61	-40.1	29.95
19.41	-21.56	-173.41	-16.66	-148.86	-16.66	-148.69	-38.57	33.79
19.51	-21.5	-174.53	-16.69	-149.72	-16.67	-149.47	-37.37	34.55
19.61	-21.51	-176.18	-16.69	-150.54	-16.7	-150.29	-36.51	29.73
19.71	-21.52	-177.1	-16.69	-151.35	-16.7	-151.13	-36.26	30.29
19.81	-21.5	-178.19	-16.66	-152.08	-16.67	-151.99	-35.57	29.05
19.91	-21.49	-179.16	-16.66	-153.13	-16.68	-153.05	-34.86	30.22
20.01	-21.42	179.56	-16.7	-154.13	-16.68	-154.03	-33.93	28.32