!s2p File: Measurements: S11, S21, S12, S22								
# GHz S dB R 50.0								
0.01	-14.6	-1.29	-4.41	-0.44	-4.41	-0.45	-17.86	-1.89
0.11	-15.03	-2.3	-4.53	-1.45	-4.53	-1.45	-18.51	-3.12
0.21	-15.13	-2.6	-4.56	-2.29	-4.56	-2.29	-18.65	-3.38
0.31	-15.16	-3.06	-4.57	-3.17	-4.57	-3.17	-18.7	-3.88
0.41	-15.19	-3.58	-4.58	-4.08	-4.57	-4.07	-18.73	-4.5
0.51	-15.19	-4.16	-4.58	-4.99	-4.58	-4.99	-18.74	-5.2
0.61	-15.21	-4.76	-4.59	-5.91	-4.58	-5.91	-18.76	-5.91
0.71	-15.2	-5.4	-4.59	-6.84	-4.59	-6.83	-18.76	-6.68
0.81	-15.21	-6.02	-4.59	-7.77	-4.59	-7.76	-18.77	-7.45
0.91	-15.21	-6.68	-4.59	-8.69	-4.59	-8.69	-18.78	-8.25
1.01	-15.22	-7.32	-4.6	-9.62	-4.6	-9.62	-18.79	-9.03
1.11	-15.22	-8.01	-4.6	-10.55	-4.6	-10.55	-18.79	-9.85
1.21	-15.23	-8.68	-4.61	-11.48	-4.6	-11.48	-18.8	-10.68
1.31	-15.23	-9.41	-4.61	-12.42	-4.61	-12.41	-18.81	-11.54
1.41	-15.24	-10.14	-4.62	-13.36	-4.61	-13.35	-18.82	-12.42
1.51	-15.25	-10.84	-4.62	-14.29	-4.62	-14.28	-18.84	-13.21
1.61	-15.25	-11.53	-4.63	-15.22	-4.62	-15.22	-18.84	-14.05
1.71	-15.24	-12.27	-4.63	-16.15	-4.63	-16.15	-18.85	-14.91
1.81	-15.25	-13.04	-4.64	-17.08	-4.63	-17.08	-18.86	-15.84
1.91	-15.25	-13.79	-4.64	-18.01	-4.64	-18.01	-18.88	-16.7
2.01	-15.26	-14.52	-4.65	-18.95	-4.64	-18.94	-18.9	-17.62
2.11	-15.27	-15.25	-4.65	-19.88	-4.65	-19.87	-18.92	-18.47
2.21	-15.28	-15.98	-4.66	-20.8	-4.66	-20.79	-18.94	-19.33
2.31	-15.28	-16.7	-4.67	-21.72	-4.66	-21.72	-18.96	-20.16
2.41	-15.29	-17.44	-4.67	-22.64	-4.67	-22.64	-18.98	-21.01
2.51	-15.3	-18.13	-4.68	-23.57	-4.68	-23.57	-19.01	-21.84
2.61	-15.31	-18.84	-4.68	-24.5	-4.68	-24.49	-19.03	-22.69
2.71	-15.32	-19.51	-4.69	-25.42	-4.69	-25.42	-19.06	-23.49
2.81	-15.34	-20.18	-4.7	-26.34	-4.7	-26.33	-19.09	-24.34
2.91	-15.35	-20.87	-4.71	-27.26	-4.7	-27.26	-19.11	-25.12
3.01	-15.36	-21.57	-4.71	-28.19	-4.71	-28.17	-19.14	-25.91
3.11	-15.37	-22.29	-4.72	-29.1	-4.72	-29.1	-19.16	-26.74
3.21	-15.39	-23.02	-4.73	-30.02	-4.72	-30.02	-19.19	-27.57
3.31	-15.41	-23.72	-4.73	-30.94	-4.73	-30.94	-19.23	-28.39
3.41	-15.43	-24.44	-4.74	-31.86	-4.74	-31.86	-19.25	-29.2
3.51	-15.43	-25.13	-4.75	-32.77	-4.75	-32.78	-19.29	-29.98
3.61	-15.45	-25.86	-4.76	-33.68	-4.76	-33.7	-19.32	-30.78
3.71	-15.46	-26.6	-4.77	-34.6	-4.76	-34.62	-19.35	-31.6
3.81	-15.48	-27.37	-4.77	-35.53	-4.77	-35.54	-19.38	-32.46
3.91	-15.5	-28.1	-4.78	-36.45	-4.78	-36.46	-19.42	-33.33
4.01	-15.53	-28.79	-4.79	-37.38	-4.79	-37.38	-19.47	-34.1
4.11	-15.54	-29.48	-4.79	-38.3	-4.8	-38.29	-19.51	-34.89
4.21	-15.55	-30.22	-4.8	-39.21	-4.8	-39.2	-19.55	-35.63
4.31	-15.57	-30.98	-4.81	-40.11	-4.82	-40.12	-19.57	-36.45
4.41	-15.59	-31.78	-4.82	-41.02	-4.83	-41.04	-19.6	-37.25
4.51	-15.61	-32.48	-4.83	-41.93	-4.83	-41.96	-19.65	-38.12
4.61	-15.64	-33.18	-4.84	-42.86	-4.84	-42.88	-19.69	-38.88
4.71	-15.65	-33.82	-4.85	-43.8	-4.85	-43.79	-19.75	-39.65
4.81	-15.66	-34.51	-4.86	-44.72	-4.86	-44.7	-19.8	-40.35
4.91	-15.67	-35.22	-4.87	-45.62	-4.87	-45.6	-19.84	-41.03
5.01	-15.68	-35.98	-4.88	-46.53	-4.88	-46.52	-19.88	-41.72
5.11	-15.7	-36.69	-4.89	-47.42	-4.89	-47.42	-19.91	-42.5
5.21	-15.73	-37.4	-4.9	-48.34	-4.9	-48.34	-19.95	-43.21
5.31	-15.75	-38.04	-4.91	-49.26	-4.91	-49.26	-20	-44.02
5.41	-15.78	-38.68	-4.92	-50.18	-4.92	-50.16	-20.06	-44.73
5.51	-15.79	-39.29	-4.94	-51.09	-4.93	-51.07	-20.12	-45.37
5.61	-15.81	-40.01	-4.94	-52	-4.95	-51.99	-20.16	-45.96
5.71	-15.83	-40.73	-4.95	-52.93	-4.96	-52.9	-20.2	-46.62
5.81	-15.86	-41.49	-4.96	-53.81	-4.97	-53.8	-20.24	-47.28
5.91	-15.89	-42.17	-4.98	-54.72	-4.98	-54.72	-20.27	-48.07
6.01	-15.92	-42.89	-4.99	-55.64	-4.99	-55.63	-20.32	-48.82
6.11	-15.94	-43.51	-5	-56.56	-5	-56.54	-20.36	-49.55
6.21	-15.95	-44.2	-5.02	-57.45	-5.02	-57.44	-20.42	-50.18
6.31	-15.97	-44.89	-5.03	-58.35	-5.03	-58.34	-20.46	-50.78
6.41	-15.98	-45.65	-5.04	-59.25	-5.04	-59.25	-20.52	-51.47
6.51	-15.99	-46.41	-5.06	-60.14	-5.06	-60.15	-20.56	-52.08
6.61	-16.02	-47.16	-5.07	-61.06	-5.07	-61.05	-20.61	-52.77
6.71	-16.04	-47.89	-5.08	-61.98	-5.08	-61.95	-20.66	-53.46
6.81	-16.06	-48.61	-5.1	-62.87	-5.1	-62.84	-20.71	-54.2
6.91	-16.07	-49.34	-5.11	-63.75	-5.11	-63.74	-20.77	-54.94
7.01	-16.08	-50.1	-5.12	-64.65	-5.12	-64.64	-20.83	-55.53
7.11	-16.09	-50.84	-5.14	-65.51	-5.14	-65.54	-20.87	-56.16
7.21	-16.11	-51.62	-5.15	-66.44	-5.15	-66.45	-20.93	-56.68
7.31	-16.13	-52.3	-5.17	-67.37	-5.17	-67.35	-20.94	-57.29
7.41	-16.13	-53.04	-5.18	-68.26	-5.18	-68.24	-20.96	-58.09
7.51	-16.15	-53.82	-5.2	-69.14	-5.2	-69.11	-21.02	-58.86
7.61	-16.16	-54.54	-5.21	-70.04	-5.21	-70	-21.09	-59.52
7.71	-16.17	-55.27	-5.22	-70.9	-5.23	-70.87	-21.14	-60.18
7.81	-16.18	-56.05	-5.24	-71.73	-5.25	-71.77	-21.2	-60.83
7.91	-16.2	-56.79	-5.26	-72.65	-5.27	-72.66	-21.24	-61.37
8.01	-16.22	-57.66	-5.27	-73.53	-5.28	-73.53	-21.29	-62.14
8.11	-16.26	-58.46	-5.29	-74.4	-5.3	-74.4	-21.34	-62.88
8.21	-16.28	-59.28	-5.31	-75.28	-5.31	-75.28	-21.38	-63.71
8.31	-16.31	-60.08	-5.32	-76.17	-5.33	-76.13	-21.44	-64.48
8.41	-16.32	-60.91	-5.33	-77	-5.34	-76.99	-21.5	-65.27
8.51	-16.35	-61.82	-5.35	-77.87	-5.36	-77.85	-21.57	-66.11
8.61	-16.36	-62.76	-5.37	-78.73	-5.38	-78.71	-21.63	-66.88
8.71	-16.39	-63.76	-5.39	-79.6	-5.4	-79.54	-21.71	-67.65
8.81	-16.42	-64.65	-5.41	-80.44	-5.41	-80.39	-21.76	-68.41
8.91	-16.45	-65.6	-5.42	-81.27	-5.42	-81.26	-21.84	-69.27
9.01	-16.49	-66.48	-5.43	-82.14	-5.44	-82.06	-21.92	-70.19
9.11	-16.52	-67.42	-5.44	-82.94	-5.45	-82.9	-22.02	-70.98
9.21	-16.56	-68.33	-5.46	-83.79	-5.46	-83.76	-22.13	-71.79
9.31	-16.6	-69.25	-5.48	-84.65	-5.48	-84.59	-22.23	-72.57
9.41	-16.64	-70.14	-5.48	-85.47	-5.49	-85.43	-22.33	-73.35
9.51	-16.67	-71.03	-5.5	-86.32	-5.5	-86.29	-22.45	-74.09
9.61	-16.72	-71.97	-5.52	-87.18	-5.51	-87.11	-22.56	-74.66
9.71	-16.76	-72.87	-5.52	-88	-5.53	-87.95	-22.69	-75.38
9.81	-16.8	-73.72	-5.53	-88.81	-5.53	-88.8	-22.82	-75.99
9.91	-16.86	-74.51	-5.54	-89.68	-5.54	-89.64	-22.95	-76.62
10.01	-16.89	-75.34	-5.55	-90.53	-5.55	-90.47	-23.08	-77.32
10.11	-16.94	-76.13	-5.56	-91.4	-5.57	-91.31	-23.23	-77.87
10.21	-16.98	-76.97	-5.57	-92.19	-5.57	-92.17	-23.4	-78.45
10.31	-17.04	-77.81	-5.58	-93.06	-5.59	-93	-23.54	-78.88
10.41	-17.09	-78.63	-5.59	-93.9	-5.59	-93.87	-23.69	-79.11
10.51	-17.16	-79.41	-5.6	-94.73	-5.6	-94.73	-23.85	-79.46
10.61	-17.22	-80.28	-5.61	-95.61	-5.61	-95.59	-24	-79.77
10.71	-17.28	-81.03	-5.61	-96.51	-5.62	-96.43	-24.13	-80.12
10.81	-17.33	-81.8	-5.62	-97.38	-5.63	-97.28	-24.31	-80.52
10.91	-17.39	-82.73	-5.63	-98.25	-5.63	-98.15	-24.47	-81
11.01	-17.46	-83.5	-5.63	-99.11	-5.65	-99.04	-24.67	-81.18
11.11	-17.5	-84.27	-5.65	-99.95	-5.66	-99.92	-24.83	-81.19
11.21	-17.56	-85.02	-5.67	-100.81	-5.66	-100.8	-25	-81.37
11.31	-17.61	-85.71	-5.68	-101.66	-5.67	-101.67	-25.15	-81.35
11.41	-17.65	-86.53	-5.68	-102.57	-5.68	-102.54	-25.3	-81.34
11.51	-17.69	-87.22	-5.7	-103.49	-5.69	-103.35	-25.48	-81.36
11.61	-17.74	-87.98	-5.7	-104.33	-5.7	-104.22	-25.65	-81.49
11.71	-17.78	-88.76	-5.7	-105.18	-5.72	-105.12	-25.8	-81.6
11.81	-17.82	-89.56	-5.71	-106.04	-5.73	-105.96	-26.01	-81.39
11.91	-17.88	-90.29	-5.73	-106.91	-5.74	-106.86	-26.17	-80.8
12.01	-17.92	-91.03	-5.74	-107.75	-5.75	-107.78	-26.3	-80.44
12.11	-17.94	-91.73	-5.76	-108.66	-5.76	-108.63	-26.44	-80.27
12.21	-17.96	-92.45	-5.78	-109.53	-5.76	-109.48	-26.61	-80.08
12.31	-18	-93.16	-5.78	-110.46	-5.78	-110.36	-26.74	-79.71
12.41	-18.03	-94.07	-5.78	-111.39	-5.79	-111.18	-26.86	-79.47
12.51	-18.07	-94.85	-5.8	-112.23	-5.81	-112.07	-27.06	-79.37
12.61	-18.11	-95.63	-5.81	-113.04	-5.82	-112.96	-27.22	-78.85
12.71	-18.18	-96.38	-5.81	-113.9	-5.83	-113.85	-27.36	-78.03
12.81	-18.23	-96.99	-5.83	-114.75	-5.84	-114.77	-27.55	-76.99
12.91	-18.28	-97.62	-5.85	-115.64	-5.85	-115.6	-27.62	-76.16
13.01	-18.31	-98.47	-5.86	-116.56	-5.85	-116.5	-27.75	-75.14
13.11	-18.36	-99.07	-5.87	-117.5	-5.87	-117.41	-27.83	-74.7
13.21	-18.36	-99.84	-5.9	-118.37	-5.9	-118.18	-27.99	-74.48
13.31	-18.42	-100.85	-5.9	-119.18	-5.9	-119.03	-28.2	-73.31
13.41	-18.44	-101.78	-5.9	-120.06	-5.92	-119.98	-28.27	-72.1
13.51	-18.5	-102.69	-5.92	-120.91	-5.94	-120.82	-28.34	-71.78
13.61	-18.52	-103.44	-5.93	-121.71	-5.94	-121.7	-28.44	-70.46
13.71	-18.57	-104.41	-5.93	-122.6	-5.94	-122.58	-28.59	-69.29
13.81	-18.6	-105.12	-5.96	-123.55	-5.96	-123.5	-28.61	-68.02
13.91	-18.64	-105.89	-5.98	-124.47	-5.97	-124.29	-28.66	-67.35
14.01	-18.65	-106.73	-5.99	-125.35	-5.99	-125.19	-28.69	-66.32
14.11	-18.67	-107.62	-5.99	-126.21	-6.01	-126.05	-28.87	-65.7
14.21	-18.72	-108.61	-6.01	-127.1	-6.03	-126.92	-28.97	-64.28
14.31	-18.78	-109.58	-6.02	-127.93	-6.04	-127.81	-28.97	-62.51
14.41	-18.81	-110.08	-6.03	-128.76	-6.05	-128.71	-28.98	-61.1
14.51	-18.84	-110.91	-6.05	-129.7	-6.06	-129.6	-28.97	-60.03
14.61	-18.84	-111.57	-6.08	-130.58	-6.07	-130.46	-28.91	-58.79
14.71	-18.85	-112.5	-6.1	-131.46	-6.08	-131.26	-28.83	-57.8
14.81	-18.85	-113.22	-6.1	-132.37	-6.1	-132.14	-28.84	-56.98
14.91	-18.82	-114.21	-6.12	-133.25	-6.13	-133.04	-28.86	-55.94
15.01	-18.88	-115.21	-6.12	-134.07	-6.14	-133.87	-28.86	-54.26
15.11	-18.92	-116.16	-6.14	-134.92	-6.15	-134.8	-28.73	-53.14
15.21	-18.98	-116.68	-6.16	-135.77	-6.16	-135.7	-28.6	-51.91
15.31	-19	-117.32	-6.19	-136.65	-6.18	-136.52	-28.51	-51.01
15.41	-19	-118.11	-6.2	-137.51	-6.19	-137.39	-28.46	-49.79
15.51	-18.99	-119.02	-6.23	-138.37	-6.2	-138.21	-28.32	-49.04
15.61	-19.02	-120.31	-6.24	-139.29	-6.23	-139.07	-28.28	-48.39
15.71	-19.06	-121.48	-6.24	-140.15	-6.25	-139.89	-28.27	-47.53
15.81	-19.1	-122.46	-6.26	-140.99	-6.26	-140.78	-28.17	-46.77
15.91	-19.13	-123.37	-6.27	-141.84	-6.28	-141.71	-28.08	-45.9
16.01	-19.18	-124.29	-6.3	-142.65	-6.29	-142.56	-27.97	-45.02
16.11	-19.19	-125.15	-6.32	-143.44	-6.31	-143.39	-27.88	-44.3
16.21	-19.22	-125.96	-6.34	-144.36	-6.32	-144.25	-27.8	-43.8
16.31	-19.2	-126.8	-6.35	-145.2	-6.34	-144.99	-27.67	-42.6
16.41	-19.2	-127.97	-6.36	-146.02	-6.35	-145.78	-27.55	-42.22
16.51	-19.22	-129.22	-6.38	-146.93	-6.37	-146.71	-27.45	-41.86
16.61	-19.27	-130.29	-6.39	-147.81	-6.38	-147.59	-27.37	-41.47
16.71	-19.29	-131.23	-6.41	-148.52	-6.4	-148.44	-27.4	-40.98
16.81	-19.33	-131.91	-6.43	-149.4	-6.4	-149.33	-27.3	-39.18
16.91	-19.34	-132.7	-6.46	-150.21	-6.41	-150.14	-27.26	-37.55
17.01	-19.29	-133.38	-6.47	-150.96	-6.43	-150.93	-26.88	-35.56
17.11	-19.25	-134.39	-6.5	-151.78	-6.44	-151.73	-26.41	-34.78
17.21	-19.24	-135.74	-6.5	-152.51	-6.46	-152.58	-25.98	-37.55
17.31	-19.28	-137.09	-6.5	-153.33	-6.48	-153.47	-26.2	-39.41
17.41	-19.33	-138.24	-6.48	-154.06	-6.49	-154.33	-26.63	-39.13
17.51	-19.38	-139.03	-6.48	-154.98	-6.5	-155.22	-26.6	-34.51
17.61	-19.44	-139.74	-6.47	-155.73	-6.5	-156.06	-26.09	-31.89
17.71	-19.45	-140.28	-6.47	-156.78	-6.51	-156.89	-25.43	-32.7
17.81	-19.42	-141.03	-6.5	-157.65	-6.52	-157.69	-25.21	-34.68
17.91	-19.42	-141.98	-6.51	-158.69	-6.54	-158.56	-25.39	-35.47
18.01	-19.46	-143.44	-6.53	-159.63	-6.56	-159.42	-25.47	-34.04
18.11	-19.54	-144.35	-6.54	-160.53	-6.57	-160.26	-25.33	-32.17
18.21	-19.57	-145.39	-6.55	-161.34	-6.58	-161.17	-24.97	-31.22
18.31	-19.59	-146.35	-6.55	-162.21	-6.58	-162.04	-24.65	-30.91
18.41	-19.61	-147.27	-6.57	-163.06	-6.59	-162.94	-24.36	-32.14
18.51	-19.58	-148.25	-6.59	-163.89	-6.6	-163.74	-24.25	-32.32
18.61	-19.57	-149.01	-6.63	-164.82	-6.62	-164.56	-24.11	-33.16
18.71	-19.5	-150.01	-6.63	-165.66	-6.63	-165.45	-24.07	-33.28
18.81	-19.51	-151.44	-6.63	-166.61	-6.65	-166.34	-24.01	-32.81
18.91	-19.55	-152.46	-6.65	-167.52	-6.65	-167.25	-23.9	-31.9
19.01	-19.59	-153.52	-6.65	-168.34	-6.67	-168.18	-23.61	-31.93
19.11	-19.58	-154.27	-6.67	-169.13	-6.68	-169.03	-23.42	-32.47
19.21	-19.57	-154.98	-6.7	-170.04	-6.69	-169.86	-23.26	-32.87
19.31	-19.53	-156.12	-6.71	-170.89	-6.7	-170.74	-23.18	-32.98
19.41	-19.5	-157.1	-6.72	-171.83	-6.72	-171.65	-23.02	-32.57
19.51	-19.49	-158.25	-6.75	-172.77	-6.74	-172.52	-22.82	-32.47
19.61	-19.55	-159.5	-6.76	-173.65	-6.76	-173.4	-22.6	-33.08
19.71	-19.55	-160.22	-6.76	-174.49	-6.77	-174.27	-22.5	-33.62
19.81	-19.61	-160.95	-6.78	-175.3	-6.78	-175.18	-22.28	-34.24
19.91	-19.59	-161.4	-6.78	-176.19	-6.79	-176.04	-22.2	-34.56
20.01	-19.57	-162.26	-6.81	-177.04	-6.79	-176.9	-21.98	-34.67