!s2p File: Measurements: S11, S21, S12, S22								
# GHz S dB R 50.0								
0.01	-13.98	-1.01	-7.3	-0.43	-7.3	-0.41	-20.01	-1.77
0.11	-14.32	-2.05	-7.42	-1.47	-7.42	-1.47	-20.69	-3.59
0.21	-14.41	-2.46	-7.45	-2.28	-7.45	-2.28	-20.88	-3.78
0.31	-14.44	-2.97	-7.46	-3.12	-7.46	-3.12	-20.93	-4.18
0.41	-14.46	-3.53	-7.47	-4	-7.47	-3.99	-20.97	-4.76
0.51	-14.47	-4.13	-7.47	-4.88	-7.47	-4.88	-20.98	-5.4
0.61	-14.47	-4.75	-7.48	-5.78	-7.47	-5.77	-21	-6.16
0.71	-14.47	-5.41	-7.48	-6.67	-7.48	-6.68	-21	-6.9
0.81	-14.48	-6.05	-7.49	-7.58	-7.48	-7.58	-21.01	-7.7
0.91	-14.48	-6.72	-7.49	-8.48	-7.48	-8.48	-21.02	-8.49
1.01	-14.49	-7.4	-7.49	-9.39	-7.49	-9.38	-21.03	-9.26
1.11	-14.49	-8.09	-7.49	-10.29	-7.49	-10.29	-21.03	-10.1
1.21	-14.49	-8.79	-7.5	-11.2	-7.5	-11.19	-21.03	-10.93
1.31	-14.49	-9.51	-7.5	-12.11	-7.5	-12.1	-21.04	-11.79
1.41	-14.5	-10.24	-7.51	-13.03	-7.5	-13.01	-21.05	-12.69
1.51	-14.51	-10.96	-7.51	-13.93	-7.51	-13.93	-21.06	-13.49
1.61	-14.51	-11.67	-7.52	-14.83	-7.51	-14.84	-21.07	-14.31
1.71	-14.5	-12.41	-7.52	-15.74	-7.52	-15.74	-21.06	-15.23
1.81	-14.5	-13.2	-7.53	-16.64	-7.52	-16.64	-21.07	-16.16
1.91	-14.51	-13.96	-7.53	-17.55	-7.53	-17.55	-21.08	-17.07
2.01	-14.51	-14.69	-7.54	-18.46	-7.53	-18.46	-21.1	-17.97
2.11	-14.52	-15.44	-7.54	-19.37	-7.54	-19.36	-21.11	-18.87
2.21	-14.52	-16.17	-7.55	-20.27	-7.54	-20.27	-21.13	-19.75
2.31	-14.53	-16.92	-7.55	-21.17	-7.55	-21.17	-21.13	-20.58
2.41	-14.53	-17.66	-7.56	-22.07	-7.56	-22.07	-21.15	-21.47
2.51	-14.54	-18.37	-7.56	-22.97	-7.56	-22.97	-21.17	-22.34
2.61	-14.55	-19.09	-7.57	-23.87	-7.57	-23.87	-21.18	-23.19
2.71	-14.56	-19.79	-7.58	-24.77	-7.57	-24.77	-21.21	-24.04
2.81	-14.57	-20.48	-7.58	-25.67	-7.58	-25.67	-21.23	-24.92
2.91	-14.58	-21.19	-7.59	-26.57	-7.59	-26.57	-21.25	-25.71
3.01	-14.59	-21.91	-7.6	-27.47	-7.59	-27.46	-21.26	-26.52
3.11	-14.6	-22.65	-7.6	-28.36	-7.6	-28.36	-21.28	-27.38
3.21	-14.61	-23.38	-7.61	-29.26	-7.61	-29.26	-21.3	-28.23
3.31	-14.62	-24.13	-7.61	-30.16	-7.61	-30.16	-21.33	-29.11
3.41	-14.64	-24.86	-7.62	-31.05	-7.62	-31.06	-21.35	-29.92
3.51	-14.64	-25.58	-7.63	-31.95	-7.63	-31.95	-21.37	-30.73
3.61	-14.66	-26.33	-7.63	-32.83	-7.63	-32.86	-21.39	-31.56
3.71	-14.67	-27.08	-7.64	-33.73	-7.64	-33.75	-21.41	-32.46
3.81	-14.68	-27.87	-7.65	-34.64	-7.65	-34.65	-21.44	-33.35
3.91	-14.7	-28.63	-7.66	-35.54	-7.66	-35.55	-21.47	-34.28
4.01	-14.72	-29.33	-7.66	-36.44	-7.66	-36.45	-21.5	-35.13
4.11	-14.72	-30.08	-7.67	-37.35	-7.67	-37.33	-21.54	-35.92
4.21	-14.74	-30.84	-7.68	-38.24	-7.68	-38.23	-21.55	-36.7
4.31	-14.75	-31.63	-7.69	-39.11	-7.69	-39.13	-21.57	-37.56
4.41	-14.77	-32.44	-7.69	-40.01	-7.7	-40.02	-21.59	-38.42
4.51	-14.79	-33.16	-7.71	-40.9	-7.71	-40.92	-21.62	-39.39
4.61	-14.81	-33.9	-7.71	-41.8	-7.71	-41.81	-21.65	-40.23
4.71	-14.81	-34.58	-7.72	-42.72	-7.72	-42.7	-21.7	-41.06
4.81	-14.82	-35.3	-7.73	-43.62	-7.73	-43.6	-21.73	-41.82
4.91	-14.83	-36.09	-7.74	-44.51	-7.74	-44.48	-21.76	-42.54
5.01	-14.84	-36.85	-7.74	-45.38	-7.75	-45.37	-21.78	-43.29
5.11	-14.86	-37.61	-7.76	-46.26	-7.76	-46.26	-21.79	-44.15
5.21	-14.88	-38.35	-7.77	-47.15	-7.77	-47.15	-21.82	-44.94
5.31	-14.9	-39.04	-7.78	-48.05	-7.78	-48.05	-21.86	-45.87
5.41	-14.92	-39.73	-7.79	-48.95	-7.79	-48.94	-21.91	-46.69
5.51	-14.93	-40.39	-7.8	-49.84	-7.79	-49.83	-21.96	-47.39
5.61	-14.95	-41.16	-7.81	-50.75	-7.81	-50.73	-21.99	-48.03
5.71	-14.97	-41.92	-7.81	-51.64	-7.82	-51.61	-22.02	-48.8
5.81	-14.99	-42.7	-7.83	-52.5	-7.83	-52.5	-22.04	-49.51
5.91	-15.02	-43.44	-7.84	-53.4	-7.84	-53.39	-22.05	-50.39
6.01	-15.04	-44.18	-7.85	-54.3	-7.85	-54.28	-22.08	-51.27
6.11	-15.07	-44.88	-7.86	-55.2	-7.86	-55.18	-22.12	-52.09
6.21	-15.08	-45.6	-7.87	-56.07	-7.87	-56.07	-22.16	-52.82
6.31	-15.09	-46.35	-7.88	-56.96	-7.89	-56.95	-22.19	-53.5
6.41	-15.1	-47.15	-7.9	-57.83	-7.9	-57.84	-22.23	-54.26
6.51	-15.12	-47.95	-7.91	-58.7	-7.91	-58.72	-22.26	-54.98
6.61	-15.14	-48.73	-7.92	-59.61	-7.92	-59.6	-22.29	-55.78
6.71	-15.16	-49.51	-7.93	-60.5	-7.93	-60.49	-22.32	-56.59
6.81	-15.17	-50.25	-7.95	-61.38	-7.95	-61.36	-22.36	-57.46
6.91	-15.19	-51.04	-7.96	-62.25	-7.96	-62.23	-22.41	-58.33
7.01	-15.2	-51.83	-7.97	-63.13	-7.97	-63.12	-22.45	-59.02
7.11	-15.21	-52.61	-7.98	-63.98	-7.99	-64	-22.48	-59.75
7.21	-15.23	-53.41	-7.99	-64.88	-8	-64.89	-22.51	-60.34
7.31	-15.25	-54.15	-8.01	-65.79	-8.01	-65.78	-22.51	-61.12
7.41	-15.26	-54.91	-8.03	-66.68	-8.03	-66.65	-22.51	-62.01
7.51	-15.27	-55.71	-8.04	-67.54	-8.04	-67.51	-22.54	-62.91
7.61	-15.29	-56.46	-8.05	-68.43	-8.06	-68.38	-22.59	-63.76
7.71	-15.3	-57.23	-8.07	-69.27	-8.07	-69.24	-22.63	-64.56
7.81	-15.31	-58.03	-8.08	-70.08	-8.09	-70.12	-22.68	-65.34
7.91	-15.34	-58.78	-8.1	-70.99	-8.11	-70.98	-22.7	-66.05
8.01	-15.36	-59.64	-8.11	-71.85	-8.12	-71.85	-22.73	-66.93
8.11	-15.39	-60.46	-8.13	-72.7	-8.14	-72.7	-22.76	-67.81
8.21	-15.42	-61.29	-8.15	-73.57	-8.15	-73.56	-22.78	-68.79
8.31	-15.44	-62.1	-8.16	-74.45	-8.16	-74.41	-22.81	-69.74
8.41	-15.45	-62.95	-8.17	-75.26	-8.18	-75.24	-22.85	-70.7
8.51	-15.47	-63.86	-8.19	-76.12	-8.2	-76.1	-22.89	-71.7
8.61	-15.48	-64.77	-8.21	-76.96	-8.22	-76.93	-22.93	-72.63
8.71	-15.51	-65.75	-8.22	-77.81	-8.23	-77.74	-22.98	-73.57
8.81	-15.53	-66.64	-8.24	-78.63	-8.24	-78.58	-23.01	-74.52
8.91	-15.56	-67.58	-8.26	-79.45	-8.26	-79.42	-23.06	-75.53
9.01	-15.59	-68.47	-8.27	-80.3	-8.27	-80.22	-23.11	-76.65
9.11	-15.62	-69.37	-8.28	-81.09	-8.29	-81.04	-23.18	-77.66
9.21	-15.65	-70.3	-8.29	-81.92	-8.3	-81.88	-23.25	-78.67
9.31	-15.68	-71.21	-8.31	-82.76	-8.31	-82.7	-23.32	-79.74
9.41	-15.71	-72.12	-8.31	-83.57	-8.32	-83.52	-23.38	-80.72
9.51	-15.73	-73.04	-8.33	-84.4	-8.33	-84.36	-23.46	-81.68
9.61	-15.77	-73.95	-8.34	-85.24	-8.34	-85.17	-23.55	-82.58
9.71	-15.8	-74.88	-8.35	-86.04	-8.36	-86	-23.64	-83.59
9.81	-15.84	-75.76	-8.36	-86.84	-8.36	-86.82	-23.73	-84.55
9.91	-15.87	-76.57	-8.37	-87.68	-8.37	-87.64	-23.83	-85.53
10.01	-15.9	-77.44	-8.37	-88.53	-8.38	-88.46	-23.92	-86.58
10.11	-15.93	-78.29	-8.39	-89.37	-8.39	-89.28	-24.04	-87.46
10.21	-15.97	-79.18	-8.4	-90.16	-8.4	-90.13	-24.16	-88.51
10.31	-16.02	-80.06	-8.41	-91	-8.41	-90.94	-24.27	-89.32
10.41	-16.06	-80.91	-8.41	-91.82	-8.42	-91.79	-24.39	-90.03
10.51	-16.11	-81.78	-8.43	-92.63	-8.43	-92.63	-24.51	-90.84
10.61	-16.16	-82.7	-8.43	-93.5	-8.43	-93.47	-24.63	-91.64
10.71	-16.21	-83.52	-8.44	-94.38	-8.44	-94.3	-24.73	-92.48
10.81	-16.25	-84.4	-8.44	-95.23	-8.45	-95.13	-24.87	-93.39
10.91	-16.3	-85.38	-8.45	-96.09	-8.46	-95.99	-24.99	-94.4
11.01	-16.35	-86.19	-8.46	-96.92	-8.47	-96.86	-25.17	-95.2
11.11	-16.39	-87.04	-8.47	-97.75	-8.48	-97.72	-25.29	-95.84
11.21	-16.43	-87.88	-8.48	-98.59	-8.48	-98.57	-25.44	-96.65
11.31	-16.47	-88.67	-8.5	-99.43	-8.49	-99.43	-25.55	-97.2
11.41	-16.51	-89.56	-8.5	-100.32	-8.5	-100.28	-25.67	-97.91
11.51	-16.54	-90.37	-8.51	-101.22	-8.51	-101.09	-25.82	-98.72
11.61	-16.58	-91.23	-8.52	-102.04	-8.52	-101.92	-25.95	-99.59
11.71	-16.61	-92.11	-8.51	-102.89	-8.54	-102.83	-26.07	-100.44
11.81	-16.65	-93	-8.52	-103.73	-8.55	-103.65	-26.27	-101.19
11.91	-16.7	-93.84	-8.54	-104.58	-8.55	-104.53	-26.44	-101.45
12.01	-16.73	-94.67	-8.55	-105.4	-8.56	-105.44	-26.56	-101.98
12.11	-16.75	-95.48	-8.57	-106.31	-8.57	-106.26	-26.68	-102.6
12.21	-16.77	-96.28	-8.58	-107.16	-8.57	-107.1	-26.82	-103.19
12.31	-16.81	-97.15	-8.59	-108.08	-8.59	-107.98	-26.95	-103.92
12.41	-16.83	-98.1	-8.59	-108.99	-8.6	-108.78	-27.05	-104.58
12.51	-16.87	-98.99	-8.61	-109.82	-8.62	-109.66	-27.24	-105.64
12.61	-16.9	-99.89	-8.61	-110.62	-8.63	-110.53	-27.43	-106.18
12.71	-16.96	-100.75	-8.62	-111.46	-8.64	-111.4	-27.61	-106.71
12.81	-17.02	-101.5	-8.63	-112.3	-8.65	-112.31	-27.85	-106.91
12.91	-17.07	-102.24	-8.65	-113.17	-8.65	-113.12	-27.98	-107.09
13.01	-17.09	-103.1	-8.66	-114.08	-8.66	-114	-28.17	-107.25
13.11	-17.14	-103.9	-8.67	-115	-8.67	-114.89	-28.27	-107.86
13.21	-17.15	-104.74	-8.7	-115.86	-8.7	-115.67	-28.42	-108.67
13.31	-17.19	-105.83	-8.69	-116.65	-8.7	-116.51	-28.68	-109.46
13.41	-17.22	-106.84	-8.7	-117.5	-8.72	-117.44	-28.87	-109.6
13.51	-17.27	-107.83	-8.71	-118.35	-8.73	-118.27	-28.99	-110.44
13.61	-17.3	-108.7	-8.73	-119.16	-8.74	-119.13	-29.23	-110.52
13.71	-17.34	-109.66	-8.73	-120.03	-8.74	-119.99	-29.45	-111.1
13.81	-17.37	-110.49	-8.76	-120.95	-8.76	-120.9	-29.64	-111.29
13.91	-17.4	-111.42	-8.77	-121.88	-8.77	-121.69	-29.76	-111.91
14.01	-17.42	-112.33	-8.78	-122.74	-8.78	-122.58	-29.94	-112.19
14.11	-17.44	-113.36	-8.79	-123.59	-8.8	-123.42	-30.17	-113.46
14.21	-17.48	-114.42	-8.8	-124.47	-8.82	-124.27	-30.45	-114.04
14.31	-17.54	-115.45	-8.81	-125.26	-8.83	-125.15	-30.74	-114.07
14.41	-17.58	-116.14	-8.82	-126.09	-8.84	-126.02	-31	-114.19
14.51	-17.61	-117.02	-8.84	-127.03	-8.85	-126.92	-31.23	-114.22
14.61	-17.62	-117.78	-8.87	-127.91	-8.86	-127.76	-31.42	-114.01
14.71	-17.64	-118.74	-8.88	-128.76	-8.88	-128.56	-31.56	-113.97
14.81	-17.64	-119.56	-8.89	-129.66	-8.89	-129.42	-31.77	-114.76
14.91	-17.63	-120.63	-8.91	-130.54	-8.91	-130.31	-32.02	-115.39
15.01	-17.68	-121.66	-8.91	-131.34	-8.93	-131.13	-32.42	-115.73
15.11	-17.72	-122.68	-8.92	-132.17	-8.94	-132.05	-32.65	-115.42
15.21	-17.79	-123.39	-8.94	-133.02	-8.95	-132.93	-32.96	-114.42
15.31	-17.82	-124.09	-8.97	-133.9	-8.96	-133.75	-33.15	-114.28
15.41	-17.82	-124.93	-8.99	-134.75	-8.98	-134.6	-33.51	-114.45
15.51	-17.82	-125.88	-9.01	-135.61	-8.99	-135.4	-33.71	-113.73
15.61	-17.84	-127.16	-9.02	-136.5	-9.02	-136.27	-33.93	-114.37
15.71	-17.88	-128.37	-9.02	-137.35	-9.04	-137.08	-34.32	-115.19
15.81	-17.91	-129.49	-9.04	-138.17	-9.05	-137.96	-34.63	-115.33
15.91	-17.95	-130.46	-9.05	-139.01	-9.06	-138.87	-35.02	-115
16.01	-18.01	-131.44	-9.08	-139.82	-9.08	-139.71	-35.37	-114.63
16.11	-18.04	-132.29	-9.1	-140.6	-9.09	-140.53	-35.72	-114.44
16.21	-18.05	-133.13	-9.12	-141.5	-9.1	-141.36	-35.98	-114.61
16.31	-18.03	-134.02	-9.14	-142.34	-9.12	-142.1	-36.5	-113.86
16.41	-18.03	-135.19	-9.15	-143.13	-9.14	-142.88	-36.8	-113.93
16.51	-18.05	-136.51	-9.16	-144.03	-9.15	-143.81	-37.11	-113.94
16.61	-18.1	-137.57	-9.17	-144.89	-9.16	-144.66	-37.51	-114.32
16.71	-18.11	-138.55	-9.19	-145.58	-9.18	-145.5	-37.99	-117.26
16.81	-18.15	-139.4	-9.21	-146.44	-9.19	-146.37	-39.23	-117.31
16.91	-18.17	-140.2	-9.24	-147.24	-9.2	-147.16	-40.71	-117.12
17.01	-18.12	-140.98	-9.26	-147.97	-9.22	-147.93	-42.07	-106.44
17.11	-18.09	-142.03	-9.29	-148.77	-9.23	-148.71	-42.09	-90.1
17.21	-18.07	-143.37	-9.28	-149.48	-9.25	-149.56	-39.4	-89.38
17.31	-18.1	-144.74	-9.28	-150.27	-9.27	-150.44	-39.35	-102.89
17.41	-18.16	-145.89	-9.26	-150.96	-9.28	-151.26	-40.69	-121.53
17.51	-18.21	-146.86	-9.25	-151.89	-9.28	-152.14	-46.51	-127.74
17.61	-18.26	-147.58	-9.25	-152.6	-9.28	-152.96	-52.01	-75.39
17.71	-18.27	-148.28	-9.25	-153.64	-9.29	-153.74	-45.3	-51.61
17.81	-18.26	-149.15	-9.27	-154.5	-9.3	-154.54	-43.59	-60.83
17.91	-18.26	-150.24	-9.28	-155.56	-9.32	-155.39	-45.83	-73.19
18.01	-18.29	-151.76	-9.3	-156.49	-9.34	-156.25	-50.54	-58.62
18.11	-18.37	-152.76	-9.31	-157.39	-9.35	-157.08	-49.88	-3.66
18.21	-18.39	-153.9	-9.32	-158.18	-9.36	-157.98	-45.07	2.61
18.31	-18.42	-154.94	-9.32	-159.05	-9.35	-158.84	-42.48	4.02
18.41	-18.44	-155.86	-9.34	-159.87	-9.37	-159.73	-41.31	-5.04
18.51	-18.41	-156.83	-9.36	-160.68	-9.37	-160.49	-40.96	-2.77
18.61	-18.4	-157.76	-9.4	-161.61	-9.39	-161.3	-40.81	-3.89
18.71	-18.35	-158.75	-9.4	-162.42	-9.4	-162.16	-40.66	0.68
18.81	-18.34	-160.3	-9.4	-163.35	-9.42	-163.04	-40.17	7.03
18.91	-18.39	-161.43	-9.41	-164.26	-9.42	-163.95	-38.88	14.2
19.01	-18.42	-162.58	-9.41	-165.07	-9.44	-164.87	-37.53	12.22
19.11	-18.43	-163.44	-9.43	-165.85	-9.44	-165.72	-36.89	10.8
19.21	-18.43	-164.25	-9.46	-166.75	-9.45	-166.52	-36.34	9.39
19.31	-18.39	-165.44	-9.46	-167.57	-9.45	-167.4	-36.14	11.15
19.41	-18.38	-166.53	-9.48	-168.55	-9.48	-168.32	-35.31	13.32
19.51	-18.37	-167.73	-9.51	-169.48	-9.5	-169.17	-34.53	13.85
19.61	-18.43	-169.13	-9.51	-170.33	-9.53	-170.03	-33.91	11.38
19.71	-18.46	-169.95	-9.52	-171.19	-9.53	-170.91	-33.68	11.4
19.81	-18.52	-170.87	-9.54	-171.95	-9.54	-171.78	-33.14	9.44
19.91	-18.53	-171.48	-9.53	-172.82	-9.55	-172.66	-32.81	9.98
20.01	-18.52	-172.31	-9.56	-173.69	-9.55	-173.51	-32.12	9