!s2p File: Measurements: S11, S21, S12, S22								
# GHz S dB R 50.0								
0.01	-15.35	-0.76	-10.85	-0.41	-10.86	-0.39	-16.21	-1.28
0.11	-15.62	-1.88	-10.98	-1.43	-10.98	-1.43	-16.72	-2.99
0.21	-15.7	-2.39	-11.01	-2.18	-11.01	-2.18	-16.84	-3.5
0.31	-15.72	-2.99	-11.02	-2.98	-11.02	-2.98	-16.89	-4.18
0.41	-15.74	-3.61	-11.03	-3.8	-11.03	-3.78	-16.91	-4.98
0.51	-15.75	-4.28	-11.04	-4.62	-11.03	-4.62	-16.93	-5.83
0.61	-15.75	-4.94	-11.04	-5.46	-11.04	-5.46	-16.94	-6.75
0.71	-15.75	-5.65	-11.04	-6.31	-11.04	-6.32	-16.95	-7.68
0.81	-15.76	-6.35	-11.05	-7.17	-11.04	-7.17	-16.95	-8.64
0.91	-15.76	-7.08	-11.05	-8.02	-11.05	-8.02	-16.97	-9.58
1.01	-15.77	-7.79	-11.06	-8.87	-11.05	-8.87	-16.98	-10.54
1.11	-15.77	-8.52	-11.06	-9.72	-11.05	-9.72	-16.98	-11.53
1.21	-15.78	-9.26	-11.06	-10.58	-11.06	-10.58	-16.99	-12.49
1.31	-15.78	-10.04	-11.07	-11.44	-11.06	-11.44	-17	-13.5
1.41	-15.79	-10.83	-11.07	-12.31	-11.07	-12.3	-17.02	-14.53
1.51	-15.8	-11.59	-11.07	-13.17	-11.07	-13.16	-17.03	-15.47
1.61	-15.8	-12.34	-11.08	-14.02	-11.07	-14.02	-17.05	-16.44
1.71	-15.8	-13.14	-11.08	-14.87	-11.08	-14.87	-17.05	-17.47
1.81	-15.8	-13.98	-11.09	-15.73	-11.08	-15.73	-17.07	-18.52
1.91	-15.81	-14.79	-11.09	-16.58	-11.09	-16.58	-17.08	-19.55
2.01	-15.81	-15.58	-11.1	-17.45	-11.1	-17.44	-17.1	-20.57
2.11	-15.82	-16.36	-11.1	-18.3	-11.1	-18.29	-17.12	-21.58
2.21	-15.83	-17.16	-11.11	-19.15	-11.11	-19.14	-17.14	-22.58
2.31	-15.84	-17.95	-11.11	-20	-11.11	-20	-17.16	-23.59
2.41	-15.84	-18.74	-11.12	-20.85	-11.12	-20.85	-17.18	-24.6
2.51	-15.86	-19.5	-11.13	-21.7	-11.12	-21.7	-17.21	-25.59
2.61	-15.87	-20.26	-11.13	-22.55	-11.13	-22.55	-17.24	-26.6
2.71	-15.88	-21	-11.14	-23.4	-11.14	-23.4	-17.26	-27.59
2.81	-15.9	-21.74	-11.15	-24.25	-11.14	-24.24	-17.29	-28.58
2.91	-15.91	-22.49	-11.15	-25.09	-11.15	-25.09	-17.32	-29.55
3.01	-15.93	-23.27	-11.16	-25.94	-11.16	-25.93	-17.34	-30.51
3.11	-15.94	-24.05	-11.17	-26.79	-11.16	-26.79	-17.37	-31.52
3.21	-15.96	-24.84	-11.17	-27.64	-11.17	-27.63	-17.4	-32.49
3.31	-15.98	-25.63	-11.18	-28.49	-11.18	-28.48	-17.43	-33.49
3.41	-16	-26.4	-11.19	-29.33	-11.18	-29.33	-17.47	-34.47
3.51	-16.01	-27.18	-11.19	-30.17	-11.19	-30.18	-17.5	-35.43
3.61	-16.02	-27.97	-11.2	-31.01	-11.2	-31.02	-17.53	-36.43
3.71	-16.04	-28.8	-11.21	-31.85	-11.21	-31.88	-17.56	-37.44
3.81	-16.07	-29.64	-11.22	-32.71	-11.21	-32.73	-17.59	-38.46
3.91	-16.09	-30.44	-11.22	-33.57	-11.22	-33.57	-17.64	-39.5
4.01	-16.12	-31.22	-11.23	-34.41	-11.23	-34.41	-17.68	-40.48
4.11	-16.13	-32	-11.24	-35.27	-11.24	-35.25	-17.72	-41.45
4.21	-16.14	-32.81	-11.25	-36.11	-11.24	-36.09	-17.75	-42.39
4.31	-16.16	-33.67	-11.25	-36.92	-11.25	-36.94	-17.78	-43.38
4.41	-16.19	-34.54	-11.26	-37.77	-11.26	-37.78	-17.81	-44.4
4.51	-16.22	-35.35	-11.27	-38.6	-11.27	-38.63	-17.85	-45.45
4.61	-16.25	-36.11	-11.28	-39.46	-11.28	-39.48	-17.9	-46.47
4.71	-16.26	-36.85	-11.29	-40.32	-11.29	-40.32	-17.95	-47.46
4.81	-16.28	-37.62	-11.3	-41.17	-11.3	-41.15	-18	-48.39
4.91	-16.29	-38.45	-11.31	-42	-11.31	-41.99	-18.04	-49.31
5.01	-16.31	-39.28	-11.31	-42.84	-11.32	-42.83	-18.08	-50.24
5.11	-16.34	-40.12	-11.33	-43.66	-11.33	-43.66	-18.11	-51.23
5.21	-16.37	-40.91	-11.34	-44.49	-11.34	-44.5	-18.16	-52.22
5.31	-16.4	-41.67	-11.35	-45.35	-11.35	-45.35	-18.2	-53.28
5.41	-16.43	-42.37	-11.36	-46.2	-11.36	-46.19	-18.26	-54.27
5.51	-16.46	-43.11	-11.37	-47.03	-11.37	-47.02	-18.33	-55.2
5.61	-16.48	-43.91	-11.38	-47.89	-11.38	-47.87	-18.38	-56.06
5.71	-16.51	-44.72	-11.39	-48.72	-11.39	-48.7	-18.43	-57
5.81	-16.55	-45.58	-11.4	-49.54	-11.4	-49.54	-18.47	-57.91
5.91	-16.59	-46.38	-11.41	-50.37	-11.41	-50.37	-18.51	-58.92
6.01	-16.63	-47.2	-11.42	-51.23	-11.42	-51.22	-18.56	-59.94
6.11	-16.67	-47.95	-11.44	-52.07	-11.43	-52.06	-18.61	-60.94
6.21	-16.69	-48.71	-11.45	-52.89	-11.45	-52.89	-18.67	-61.87
6.31	-16.71	-49.5	-11.46	-53.72	-11.46	-53.72	-18.72	-62.77
6.41	-16.74	-50.34	-11.48	-54.54	-11.47	-54.56	-18.79	-63.71
6.51	-16.76	-51.22	-11.49	-55.37	-11.49	-55.38	-18.84	-64.63
6.61	-16.8	-52.08	-11.5	-56.21	-11.5	-56.2	-18.88	-65.59
6.71	-16.84	-52.91	-11.51	-57.05	-11.51	-57.04	-18.94	-66.6
6.81	-16.87	-53.72	-11.53	-57.87	-11.53	-57.86	-19	-67.62
6.91	-16.9	-54.54	-11.54	-58.68	-11.54	-58.68	-19.07	-68.66
7.01	-16.93	-55.33	-11.55	-59.5	-11.55	-59.5	-19.13	-69.61
7.11	-16.95	-56.18	-11.57	-60.3	-11.57	-60.32	-19.19	-70.51
7.21	-16.98	-57.03	-11.58	-61.15	-11.58	-61.17	-19.25	-71.37
7.31	-17.01	-57.82	-11.6	-62.01	-11.59	-62	-19.29	-72.29
7.41	-17.04	-58.63	-11.61	-62.84	-11.61	-62.82	-19.32	-73.27
7.51	-17.07	-59.47	-11.63	-63.64	-11.63	-63.62	-19.38	-74.35
7.61	-17.1	-60.27	-11.64	-64.47	-11.64	-64.42	-19.45	-75.36
7.71	-17.13	-61.09	-11.66	-65.26	-11.66	-65.23	-19.52	-76.36
7.81	-17.16	-61.91	-11.67	-66.01	-11.68	-66.05	-19.59	-77.35
7.91	-17.2	-62.7	-11.69	-66.86	-11.7	-66.86	-19.65	-78.25
8.01	-17.24	-63.58	-11.71	-67.67	-11.71	-67.67	-19.71	-79.26
8.11	-17.28	-64.47	-11.72	-68.45	-11.73	-68.45	-19.76	-80.34
8.21	-17.33	-65.31	-11.74	-69.26	-11.74	-69.26	-19.82	-81.4
8.31	-17.38	-66.17	-11.75	-70.07	-11.76	-70.05	-19.88	-82.46
8.41	-17.41	-67.03	-11.77	-70.84	-11.78	-70.84	-19.95	-83.52
8.51	-17.44	-67.95	-11.79	-71.63	-11.8	-71.62	-20.01	-84.63
8.61	-17.47	-68.92	-11.81	-72.4	-11.81	-72.39	-20.07	-85.71
8.71	-17.5	-69.93	-11.82	-73.18	-11.83	-73.13	-20.14	-86.79
8.81	-17.54	-70.86	-11.84	-73.95	-11.84	-73.91	-20.21	-87.87
8.91	-17.59	-71.85	-11.86	-74.7	-11.86	-74.69	-20.27	-89
9.01	-17.64	-72.76	-11.87	-75.49	-11.88	-75.42	-20.34	-90.24
9.11	-17.68	-73.73	-11.88	-76.21	-11.89	-76.18	-20.42	-91.37
9.21	-17.72	-74.68	-11.9	-76.97	-11.9	-76.94	-20.51	-92.57
9.31	-17.77	-75.62	-11.91	-77.76	-11.91	-77.7	-20.59	-93.74
9.41	-17.81	-76.59	-11.92	-78.49	-11.93	-78.45	-20.67	-94.91
9.51	-17.84	-77.52	-11.94	-79.25	-11.94	-79.23	-20.77	-96.09
9.61	-17.9	-78.5	-11.95	-80.02	-11.95	-79.97	-20.86	-97.2
9.71	-17.94	-79.48	-11.96	-80.76	-11.96	-80.73	-20.96	-98.39
9.81	-17.99	-80.41	-11.97	-81.48	-11.97	-81.49	-21.06	-99.62
9.91	-18.04	-81.29	-11.98	-82.27	-11.98	-82.24	-21.16	-100.81
10.01	-18.09	-82.18	-11.98	-83.04	-11.99	-82.98	-21.26	-102.03
10.11	-18.14	-83.09	-12	-83.8	-12	-83.74	-21.37	-103.33
10.21	-18.19	-84.01	-12.01	-84.52	-12.01	-84.5	-21.5	-104.64
10.31	-18.25	-84.95	-12.02	-85.3	-12.02	-85.25	-21.62	-105.79
10.41	-18.3	-85.88	-12.02	-86.05	-12.02	-86.03	-21.76	-106.9
10.51	-18.37	-86.84	-12.04	-86.79	-12.03	-86.79	-21.88	-108.01
10.61	-18.44	-87.86	-12.04	-87.58	-12.04	-87.57	-22.01	-109.23
10.71	-18.51	-88.77	-12.05	-88.39	-12.05	-88.33	-22.12	-110.43
10.81	-18.58	-89.68	-12.05	-89.17	-12.05	-89.09	-22.25	-111.77
10.91	-18.64	-90.74	-12.06	-89.95	-12.06	-89.88	-22.38	-113.14
11.01	-18.71	-91.65	-12.06	-90.72	-12.07	-90.66	-22.54	-114.46
11.11	-18.76	-92.56	-12.07	-91.48	-12.08	-91.47	-22.69	-115.62
11.21	-18.82	-93.59	-12.09	-92.26	-12.09	-92.26	-22.84	-116.81
11.31	-18.88	-94.43	-12.1	-93.03	-12.09	-93.04	-22.97	-117.92
11.41	-18.94	-95.43	-12.1	-93.83	-12.1	-93.81	-23.1	-119.17
11.51	-18.99	-96.33	-12.11	-94.66	-12.11	-94.55	-23.24	-120.46
11.61	-19.05	-97.22	-12.12	-95.41	-12.11	-95.32	-23.37	-121.85
11.71	-19.1	-98.19	-12.11	-96.18	-12.13	-96.15	-23.51	-123.28
11.81	-19.16	-99.18	-12.12	-96.94	-12.14	-96.9	-23.71	-124.68
11.91	-19.24	-100.15	-12.14	-97.74	-12.14	-97.72	-23.89	-125.82
12.01	-19.27	-101.11	-12.15	-98.49	-12.15	-98.55	-24.03	-126.92
12.11	-19.31	-102.01	-12.16	-99.35	-12.16	-99.33	-24.19	-128.2
12.21	-19.37	-102.94	-12.18	-100.11	-12.16	-100.08	-24.33	-129.41
12.31	-19.43	-103.85	-12.18	-100.95	-12.18	-100.87	-24.48	-130.72
12.41	-19.47	-104.81	-12.18	-101.78	-12.19	-101.62	-24.6	-132.01
12.51	-19.54	-105.83	-12.2	-102.55	-12.2	-102.43	-24.76	-133.74
12.61	-19.59	-106.73	-12.2	-103.26	-12.21	-103.21	-24.95	-135.31
12.71	-19.66	-107.73	-12.2	-104.04	-12.22	-104.01	-25.15	-136.82
12.81	-19.74	-108.7	-12.22	-104.81	-12.23	-104.85	-25.41	-138.07
12.91	-19.83	-109.54	-12.24	-105.61	-12.24	-105.59	-25.58	-139.26
13.01	-19.89	-110.57	-12.25	-106.45	-12.24	-106.4	-25.8	-140.46
13.11	-19.98	-111.42	-12.26	-107.29	-12.25	-107.21	-25.93	-141.81
13.21	-20.01	-112.22	-12.29	-108.07	-12.29	-107.91	-26.06	-143.39
13.31	-20.07	-113.5	-12.28	-108.77	-12.28	-108.65	-26.28	-145.46
13.41	-20.12	-114.53	-12.28	-109.53	-12.3	-109.51	-26.51	-146.99
13.51	-20.19	-115.73	-12.29	-110.31	-12.31	-110.28	-26.63	-148.67
13.61	-20.24	-116.76	-12.3	-111.06	-12.31	-111.07	-26.88	-150.27
13.71	-20.31	-117.82	-12.3	-111.84	-12.31	-111.85	-27.08	-152.16
13.81	-20.35	-118.82	-12.33	-112.69	-12.32	-112.67	-27.3	-153.61
13.91	-20.44	-119.84	-12.34	-113.53	-12.33	-113.38	-27.43	-155.28
14.01	-20.47	-120.82	-12.35	-114.34	-12.34	-114.21	-27.63	-156.93
14.11	-20.51	-121.92	-12.35	-115.1	-12.36	-114.98	-27.76	-159.45
14.21	-20.57	-123.01	-12.36	-115.88	-12.38	-115.74	-27.99	-161.83
14.31	-20.65	-124.32	-12.36	-116.59	-12.38	-116.52	-28.24	-163.83
14.41	-20.7	-125.06	-12.37	-117.36	-12.38	-117.36	-28.5	-166.14
14.51	-20.77	-126.23	-12.39	-118.24	-12.39	-118.18	-28.73	-168.02
14.61	-20.81	-127.1	-12.42	-119.04	-12.41	-118.94	-28.95	-169.72
14.71	-20.85	-128.07	-12.43	-119.81	-12.41	-119.65	-29.13	-171.45
14.81	-20.89	-128.92	-12.43	-120.65	-12.43	-120.46	-29.27	-173.71
14.91	-20.88	-129.95	-12.44	-121.46	-12.45	-121.28	-29.42	-176.26
15.01	-20.96	-131.14	-12.44	-122.16	-12.46	-122	-29.64	-179.46
15.11	-21.02	-132.4	-12.45	-122.92	-12.47	-122.84	-29.88	178.33
15.21	-21.11	-133.23	-12.47	-123.69	-12.47	-123.65	-30.17	175.66
15.31	-21.2	-134.05	-12.49	-124.51	-12.48	-124.4	-30.39	173.43
15.41	-21.24	-135.01	-12.51	-125.27	-12.5	-125.14	-30.56	170.48
15.51	-21.28	-135.92	-12.53	-126.04	-12.51	-125.86	-30.77	168.18
15.61	-21.31	-137.39	-12.54	-126.84	-12.53	-126.65	-30.83	165.57
15.71	-21.36	-138.6	-12.53	-127.62	-12.54	-127.39	-30.89	162.02
15.81	-21.41	-139.84	-12.55	-128.38	-12.55	-128.21	-30.99	158.92
15.91	-21.46	-141.15	-12.56	-129.13	-12.56	-129.04	-31.12	155.78
16.01	-21.55	-142.25	-12.58	-129.84	-12.57	-129.78	-31.21	152.6
16.11	-21.62	-143.36	-12.59	-130.53	-12.58	-130.49	-31.3	149.4
16.21	-21.69	-144.15	-12.61	-131.35	-12.58	-131.24	-31.3	146.64
16.31	-21.68	-144.93	-12.61	-132.12	-12.6	-131.92	-31.36	142.84
16.41	-21.68	-146.17	-12.62	-132.84	-12.6	-132.61	-31.37	139.89
16.51	-21.71	-147.56	-12.62	-133.67	-12.61	-133.48	-31.37	136.99
16.61	-21.77	-148.73	-12.63	-134.45	-12.62	-134.27	-31.3	134.11
16.71	-21.8	-149.8	-12.64	-135.07	-12.63	-135.04	-31.02	131.37
16.81	-21.87	-150.79	-12.65	-135.87	-12.63	-135.85	-30.83	126.44
16.91	-21.92	-151.74	-12.68	-136.56	-12.63	-136.52	-30.6	122.16
17.01	-21.9	-152.2	-12.68	-137.23	-12.64	-137.25	-30.65	116.38
17.11	-21.87	-153.3	-12.71	-138	-12.65	-137.98	-30.97	110.79
17.21	-21.84	-154.57	-12.7	-138.64	-12.66	-138.76	-31.87	111.26
17.31	-21.88	-155.97	-12.69	-139.34	-12.68	-139.56	-31.4	114.41
17.41	-21.92	-157.25	-12.66	-139.97	-12.68	-140.32	-30.3	115.18
17.51	-21.98	-158.27	-12.65	-140.85	-12.67	-141.16	-29.33	107.38
17.61	-22.08	-159.2	-12.63	-141.46	-12.67	-141.88	-29.13	99.76
17.71	-22.13	-159.84	-12.62	-142.47	-12.66	-142.63	-29.58	93.67
17.81	-22.14	-160.46	-12.64	-143.28	-12.66	-143.37	-29.93	92.41
17.91	-22.15	-161.57	-12.64	-144.28	-12.67	-144.17	-29.64	94.04
18.01	-22.14	-163.31	-12.65	-145.17	-12.69	-144.97	-28.98	92.41
18.11	-22.26	-164.46	-12.65	-145.97	-12.7	-145.71	-28.35	88.59
18.21	-22.26	-165.77	-12.66	-146.74	-12.69	-146.58	-28.12	83.76
18.31	-22.26	-166.94	-12.65	-147.57	-12.68	-147.44	-27.89	79.78
18.41	-22.31	-168.03	-12.67	-148.33	-12.69	-148.25	-28.06	76.74
18.51	-22.28	-169	-12.68	-149.12	-12.69	-148.98	-27.87	75.2
18.61	-22.28	-169.93	-12.71	-150.01	-12.7	-149.73	-27.84	73.79
18.71	-22.21	-170.65	-12.7	-150.76	-12.7	-150.54	-27.62	73.09
18.81	-22.15	-172.15	-12.69	-151.64	-12.71	-151.35	-27.3	72.06
18.91	-22.18	-173.34	-12.7	-152.51	-12.7	-152.23	-26.84	70.21
19.01	-22.17	-174.66	-12.69	-153.29	-12.71	-153.16	-26.58	67.04
19.11	-22.16	-175.65	-12.7	-154.04	-12.72	-153.98	-26.44	64.97
19.21	-22.16	-176.6	-12.73	-154.88	-12.72	-154.72	-26.33	63
19.31	-22.1	-177.72	-12.72	-155.67	-12.71	-155.56	-26.1	62.29
19.41	-22.06	-178.96	-12.73	-156.68	-12.73	-156.5	-25.75	60.48
19.51	-22.02	179.98	-12.76	-157.56	-12.75	-157.28	-25.47	58.49
19.61	-22.02	178.34	-12.76	-158.39	-12.77	-158.12	-25.35	56
19.71	-22.05	177.34	-12.76	-159.15	-12.78	-158.92	-25.23	55.09
19.81	-22.08	176.46	-12.76	-159.87	-12.77	-159.76	-25.02	53.09
19.91	-22.08	175.74	-12.76	-160.8	-12.77	-160.68	-24.78	51.76
20.01	-22.01	174.72	-12.79	-161.66	-12.77	-161.54	-24.53	49.44