!s2p File: Measurements: S11, S21, S12, S22								
# GHz S dB R 50.0								
0.01	-13.29	-1.04	-6.33	-0.46	-6.32	-0.44	-14.64	-1.33
0.11	-13.63	-2.08	-6.45	-1.45	-6.45	-1.45	-15.07	-2.3
0.21	-13.71	-2.58	-6.48	-2.27	-6.48	-2.26	-15.16	-2.79
0.31	-13.74	-3.19	-6.49	-3.13	-6.49	-3.13	-15.19	-3.39
0.41	-13.76	-3.85	-6.5	-4.01	-6.49	-4	-15.21	-4.07
0.51	-13.77	-4.55	-6.5	-4.9	-6.5	-4.89	-15.22	-4.81
0.61	-13.77	-5.26	-6.51	-5.8	-6.5	-5.8	-15.23	-5.56
0.71	-13.77	-6	-6.51	-6.71	-6.51	-6.7	-15.23	-6.33
0.81	-13.78	-6.74	-6.52	-7.62	-6.51	-7.61	-15.24	-7.12
0.91	-13.79	-7.5	-6.52	-8.52	-6.51	-8.52	-15.25	-7.91
1.01	-13.79	-8.26	-6.52	-9.43	-6.52	-9.43	-15.25	-8.71
1.11	-13.8	-9.03	-6.53	-10.34	-6.52	-10.34	-15.25	-9.52
1.21	-13.81	-9.81	-6.53	-11.25	-6.53	-11.25	-15.26	-10.32
1.31	-13.81	-10.62	-6.53	-12.17	-6.53	-12.16	-15.26	-11.17
1.41	-13.82	-11.43	-6.54	-13.08	-6.53	-13.08	-15.27	-12.01
1.51	-13.83	-12.23	-6.54	-14	-6.54	-13.99	-15.27	-12.8
1.61	-13.83	-13.02	-6.55	-14.91	-6.54	-14.91	-15.28	-13.61
1.71	-13.83	-13.83	-6.55	-15.82	-6.55	-15.81	-15.28	-14.45
1.81	-13.84	-14.7	-6.56	-16.73	-6.56	-16.72	-15.29	-15.32
1.91	-13.84	-15.53	-6.56	-17.64	-6.56	-17.63	-15.29	-16.18
2.01	-13.86	-16.35	-6.57	-18.56	-6.57	-18.55	-15.31	-17.04
2.11	-13.86	-17.16	-6.58	-19.46	-6.57	-19.46	-15.32	-17.87
2.21	-13.87	-17.98	-6.58	-20.37	-6.58	-20.37	-15.33	-18.71
2.31	-13.88	-18.8	-6.59	-21.28	-6.59	-21.27	-15.34	-19.52
2.41	-13.89	-19.61	-6.59	-22.18	-6.59	-22.18	-15.35	-20.37
2.51	-13.91	-20.4	-6.6	-23.08	-6.6	-23.08	-15.36	-21.17
2.61	-13.92	-21.2	-6.61	-23.98	-6.61	-23.99	-15.37	-22
2.71	-13.94	-21.96	-6.62	-24.88	-6.61	-24.88	-15.38	-22.8
2.81	-13.95	-22.73	-6.62	-25.79	-6.62	-25.79	-15.4	-23.62
2.91	-13.97	-23.51	-6.63	-26.69	-6.63	-26.69	-15.41	-24.41
3.01	-13.98	-24.31	-6.64	-27.59	-6.63	-27.59	-15.43	-25.21
3.11	-14	-25.11	-6.64	-28.49	-6.64	-28.49	-15.44	-26.02
3.21	-14.02	-25.92	-6.65	-29.39	-6.65	-29.39	-15.45	-26.84
3.31	-14.03	-26.73	-6.66	-30.3	-6.66	-30.29	-15.47	-27.65
3.41	-14.05	-27.52	-6.67	-31.19	-6.66	-31.19	-15.48	-28.46
3.51	-14.07	-28.33	-6.67	-32.08	-6.67	-32.09	-15.5	-29.24
3.61	-14.09	-29.14	-6.68	-32.98	-6.68	-32.99	-15.51	-30.04
3.71	-14.1	-29.96	-6.69	-33.87	-6.69	-33.89	-15.53	-30.86
3.81	-14.13	-30.82	-6.7	-34.78	-6.7	-34.79	-15.54	-31.69
3.91	-14.15	-31.63	-6.71	-35.67	-6.71	-35.69	-15.56	-32.53
4.01	-14.18	-32.41	-6.72	-36.59	-6.71	-36.59	-15.59	-33.33
4.11	-14.19	-33.21	-6.72	-37.49	-6.72	-37.48	-15.61	-34.11
4.21	-14.21	-34.02	-6.73	-38.37	-6.73	-38.37	-15.62	-34.89
4.31	-14.23	-34.88	-6.74	-39.26	-6.74	-39.27	-15.63	-35.68
4.41	-14.25	-35.76	-6.75	-40.14	-6.75	-40.16	-15.64	-36.5
4.51	-14.28	-36.55	-6.76	-41.04	-6.76	-41.06	-15.66	-37.35
4.61	-14.31	-37.35	-6.77	-41.95	-6.77	-41.96	-15.69	-38.14
4.71	-14.33	-38.08	-6.78	-42.86	-6.78	-42.85	-15.71	-38.93
4.81	-14.34	-38.86	-6.79	-43.76	-6.79	-43.74	-15.74	-39.66
4.91	-14.36	-39.69	-6.8	-44.64	-6.8	-44.63	-15.75	-40.41
5.01	-14.37	-40.52	-6.81	-45.52	-6.81	-45.52	-15.77	-41.15
5.11	-14.4	-41.34	-6.82	-46.4	-6.82	-46.4	-15.78	-41.95
5.21	-14.44	-42.12	-6.83	-47.29	-6.83	-47.29	-15.8	-42.71
5.31	-14.46	-42.89	-6.84	-48.2	-6.84	-48.19	-15.82	-43.53
5.41	-14.49	-43.63	-6.85	-49.09	-6.85	-49.08	-15.85	-44.31
5.51	-14.52	-44.35	-6.87	-49.97	-6.86	-49.96	-15.88	-45.03
5.61	-14.54	-45.16	-6.88	-50.87	-6.88	-50.85	-15.9	-45.71
5.71	-14.57	-45.98	-6.89	-51.77	-6.89	-51.74	-15.92	-46.45
5.81	-14.6	-46.82	-6.9	-52.63	-6.9	-52.62	-15.94	-47.19
5.91	-14.64	-47.61	-6.91	-53.52	-6.91	-53.51	-15.95	-47.98
6.01	-14.67	-48.4	-6.92	-54.42	-6.92	-54.4	-15.97	-48.78
6.11	-14.7	-49.15	-6.94	-55.31	-6.93	-55.29	-15.99	-49.57
6.21	-14.73	-49.91	-6.95	-56.18	-6.95	-56.18	-16.01	-50.29
6.31	-14.75	-50.7	-6.96	-57.06	-6.96	-57.05	-16.03	-50.98
6.41	-14.77	-51.53	-6.98	-57.94	-6.98	-57.94	-16.06	-51.72
6.51	-14.79	-52.38	-6.99	-58.81	-6.99	-58.81	-16.07	-52.43
6.61	-14.83	-53.21	-7	-59.71	-7	-59.69	-16.09	-53.2
6.71	-14.85	-54.03	-7.01	-60.59	-7.02	-60.57	-16.12	-53.96
6.81	-14.88	-54.81	-7.03	-61.46	-7.03	-61.44	-16.14	-54.76
6.91	-14.9	-55.64	-7.04	-62.33	-7.04	-62.31	-16.17	-55.53
7.01	-14.93	-56.46	-7.06	-63.2	-7.06	-63.2	-16.19	-56.25
7.11	-14.95	-57.28	-7.07	-64.04	-7.07	-64.07	-16.21	-56.96
7.21	-14.98	-58.13	-7.08	-64.94	-7.09	-64.95	-16.23	-57.64
7.31	-15.01	-58.89	-7.1	-65.85	-7.1	-65.83	-16.24	-58.34
7.41	-15.03	-59.7	-7.12	-66.73	-7.12	-66.7	-16.24	-59.16
7.51	-15.05	-60.51	-7.13	-67.58	-7.13	-67.55	-16.27	-59.97
7.61	-15.08	-61.3	-7.14	-68.46	-7.15	-68.42	-16.3	-60.73
7.71	-15.1	-62.12	-7.16	-69.29	-7.16	-69.27	-16.32	-61.49
7.81	-15.12	-62.93	-7.18	-70.1	-7.18	-70.14	-16.35	-62.24
7.91	-15.16	-63.74	-7.19	-71	-7.2	-71	-16.37	-62.91
8.01	-15.19	-64.63	-7.21	-71.86	-7.21	-71.85	-16.39	-63.7
8.11	-15.23	-65.48	-7.23	-72.71	-7.23	-72.7	-16.41	-64.5
8.21	-15.27	-66.35	-7.25	-73.57	-7.25	-73.56	-16.42	-65.32
8.31	-15.3	-67.19	-7.26	-74.44	-7.26	-74.4	-16.45	-66.12
8.41	-15.32	-68.07	-7.27	-75.24	-7.28	-75.23	-16.47	-66.94
8.51	-15.36	-69	-7.29	-76.09	-7.3	-76.07	-16.5	-67.78
8.61	-15.38	-69.95	-7.31	-76.93	-7.32	-76.91	-16.53	-68.58
8.71	-15.41	-70.96	-7.32	-77.77	-7.33	-77.72	-16.56	-69.37
8.81	-15.44	-71.88	-7.35	-78.59	-7.34	-78.55	-16.58	-70.16
8.91	-15.48	-72.85	-7.36	-79.41	-7.36	-79.39	-16.61	-71.01
9.01	-15.52	-73.78	-7.37	-80.25	-7.38	-80.17	-16.64	-71.87
9.11	-15.56	-74.71	-7.38	-81.03	-7.39	-80.99	-16.68	-72.67
9.21	-15.6	-75.66	-7.4	-81.86	-7.4	-81.82	-16.73	-73.49
9.31	-15.65	-76.61	-7.41	-82.7	-7.41	-82.64	-16.77	-74.32
9.41	-15.68	-77.54	-7.42	-83.51	-7.43	-83.45	-16.81	-75.12
9.51	-15.72	-78.48	-7.44	-84.33	-7.44	-84.29	-16.85	-75.9
9.61	-15.77	-79.43	-7.45	-85.17	-7.45	-85.1	-16.9	-76.64
9.71	-15.81	-80.39	-7.46	-85.97	-7.47	-85.91	-16.95	-77.42
9.81	-15.86	-81.29	-7.47	-86.75	-7.47	-86.74	-17	-78.18
9.91	-15.91	-82.11	-7.48	-87.59	-7.48	-87.56	-17.05	-78.92
10.01	-15.95	-83	-7.49	-88.43	-7.5	-88.37	-17.1	-79.71
10.11	-15.99	-83.88	-7.5	-89.28	-7.51	-89.19	-17.16	-80.45
10.21	-16.04	-84.78	-7.52	-90.05	-7.51	-90.03	-17.22	-81.21
10.31	-16.1	-85.7	-7.52	-90.89	-7.53	-90.83	-17.27	-81.87
10.41	-16.15	-86.57	-7.53	-91.7	-7.54	-91.67	-17.34	-82.5
10.51	-16.22	-87.48	-7.55	-92.52	-7.54	-92.51	-17.39	-83.14
10.61	-16.28	-88.42	-7.56	-93.37	-7.55	-93.34	-17.45	-83.81
10.71	-16.34	-89.25	-7.56	-94.24	-7.56	-94.16	-17.5	-84.51
10.81	-16.4	-90.15	-7.57	-95.09	-7.57	-94.99	-17.56	-85.19
10.91	-16.45	-91.11	-7.58	-95.92	-7.58	-95.84	-17.62	-85.94
11.01	-16.53	-91.99	-7.58	-96.76	-7.59	-96.7	-17.69	-86.57
11.11	-16.57	-92.85	-7.59	-97.58	-7.61	-97.55	-17.75	-87.14
11.21	-16.63	-93.71	-7.61	-98.42	-7.61	-98.41	-17.82	-87.79
11.31	-16.69	-94.52	-7.63	-99.25	-7.62	-99.25	-17.86	-88.33
11.41	-16.74	-95.38	-7.63	-100.12	-7.63	-100.09	-17.91	-88.98
11.51	-16.78	-96.2	-7.65	-101.01	-7.64	-100.89	-17.98	-89.6
11.61	-16.83	-97.06	-7.65	-101.83	-7.65	-101.72	-18.03	-90.24
11.71	-16.88	-97.95	-7.65	-102.65	-7.67	-102.6	-18.09	-90.95
11.81	-16.93	-98.87	-7.66	-103.48	-7.68	-103.42	-18.17	-91.53
11.91	-17	-99.7	-7.68	-104.33	-7.69	-104.29	-18.23	-91.95
12.01	-17.04	-100.53	-7.69	-105.14	-7.7	-105.19	-18.27	-92.48
12.11	-17.08	-101.33	-7.71	-106.03	-7.71	-106	-18.32	-93.05
12.21	-17.11	-102.11	-7.73	-106.87	-7.71	-106.82	-18.38	-93.65
12.31	-17.16	-102.96	-7.73	-107.77	-7.73	-107.68	-18.43	-94.23
12.41	-17.19	-103.9	-7.73	-108.66	-7.75	-108.48	-18.47	-94.82
12.51	-17.26	-104.8	-7.75	-109.48	-7.76	-109.34	-18.55	-95.57
12.61	-17.3	-105.68	-7.76	-110.27	-7.77	-110.2	-18.61	-96.07
12.71	-17.37	-106.57	-7.77	-111.09	-7.78	-111.06	-18.67	-96.56
12.81	-17.44	-107.3	-7.78	-111.92	-7.79	-111.95	-18.75	-96.99
12.91	-17.51	-108.03	-7.81	-112.78	-7.8	-112.74	-18.8	-97.4
13.01	-17.55	-108.9	-7.81	-113.67	-7.81	-113.61	-18.86	-97.82
13.11	-17.62	-109.66	-7.83	-114.58	-7.82	-114.49	-18.89	-98.39
13.21	-17.63	-110.46	-7.86	-115.42	-7.85	-115.24	-18.95	-99.06
13.31	-17.69	-111.56	-7.85	-116.19	-7.85	-116.06	-19.04	-99.62
13.41	-17.73	-112.54	-7.86	-117.03	-7.87	-116.98	-19.1	-100.05
13.51	-17.79	-113.54	-7.87	-117.86	-7.89	-117.81	-19.14	-100.65
13.61	-17.83	-114.39	-7.89	-118.65	-7.89	-118.64	-19.21	-101.06
13.71	-17.89	-115.35	-7.89	-119.5	-7.89	-119.5	-19.28	-101.62
13.81	-17.93	-116.17	-7.92	-120.42	-7.91	-120.4	-19.33	-102.01
13.91	-17.98	-117.05	-7.93	-121.33	-7.93	-121.15	-19.37	-102.6
14.01	-18.01	-117.9	-7.94	-122.18	-7.94	-122.04	-19.43	-103.06
14.11	-18.04	-118.93	-7.95	-123	-7.96	-122.86	-19.5	-103.77
14.21	-18.09	-119.95	-7.96	-123.86	-7.98	-123.7	-19.58	-104.35
14.31	-18.17	-120.99	-7.97	-124.64	-7.99	-124.56	-19.67	-104.66
14.41	-18.22	-121.67	-7.98	-125.45	-8	-125.43	-19.73	-105.05
14.51	-18.27	-122.49	-8.01	-126.37	-8.01	-126.3	-19.79	-105.5
14.61	-18.3	-123.2	-8.03	-127.23	-8.02	-127.12	-19.84	-105.84
14.71	-18.32	-124.12	-8.05	-128.07	-8.03	-127.9	-19.88	-106.24
14.81	-18.34	-124.86	-8.05	-128.96	-8.05	-128.75	-19.93	-106.84
14.91	-18.33	-125.87	-8.07	-129.81	-8.07	-129.63	-20	-107.38
15.01	-18.4	-126.93	-8.07	-130.59	-8.09	-130.42	-20.09	-107.87
15.11	-18.46	-127.9	-8.09	-131.42	-8.1	-131.33	-20.15	-108.18
15.21	-18.54	-128.61	-8.11	-132.24	-8.11	-132.19	-20.22	-108.4
15.31	-18.58	-129.18	-8.13	-133.1	-8.12	-133	-20.26	-108.79
15.41	-18.6	-130.01	-8.15	-133.93	-8.14	-133.81	-20.34	-109.26
15.51	-18.61	-130.9	-8.17	-134.77	-8.15	-134.61	-20.38	-109.56
15.61	-18.64	-132.17	-8.18	-135.65	-8.18	-135.46	-20.44	-110.15
15.71	-18.68	-133.36	-8.18	-136.49	-8.2	-136.25	-20.52	-110.74
15.81	-18.73	-134.38	-8.2	-137.29	-8.21	-137.12	-20.58	-111.16
15.91	-18.78	-135.39	-8.22	-138.1	-8.22	-138.01	-20.65	-111.62
16.01	-18.85	-136.3	-8.24	-138.89	-8.24	-138.84	-20.72	-112.02
16.11	-18.89	-137.1	-8.26	-139.66	-8.25	-139.63	-20.79	-112.47
16.21	-18.92	-137.91	-8.28	-140.55	-8.26	-140.46	-20.84	-113.01
16.31	-18.91	-138.66	-8.3	-141.38	-8.28	-141.19	-20.95	-113.28
16.41	-18.91	-139.83	-8.31	-142.16	-8.3	-141.94	-20.99	-113.7
16.51	-18.94	-141.1	-8.32	-143.03	-8.31	-142.84	-21.04	-114.19
16.61	-19	-142.15	-8.33	-143.9	-8.32	-143.7	-21.1	-114.74
16.71	-19.02	-143.07	-8.35	-144.56	-8.34	-144.54	-21.19	-115.63
16.81	-19.08	-143.81	-8.37	-145.41	-8.35	-145.38	-21.35	-116.13
16.91	-19.11	-144.56	-8.4	-146.19	-8.35	-146.15	-21.55	-116.59
17.01	-19.07	-145.18	-8.42	-146.91	-8.37	-146.91	-21.71	-115.91
17.11	-19.04	-146.16	-8.45	-147.69	-8.39	-147.68	-21.8	-114.82
17.21	-19.02	-147.49	-8.44	-148.39	-8.4	-148.51	-21.5	-114.18
17.31	-19.06	-148.87	-8.44	-149.16	-8.43	-149.38	-21.39	-116.36
17.41	-19.12	-150.03	-8.42	-149.84	-8.43	-150.2	-21.5	-119.05
17.51	-19.19	-150.86	-8.41	-150.75	-8.43	-151.06	-21.96	-119.88
17.61	-19.25	-151.54	-8.41	-151.44	-8.44	-151.86	-22.28	-118.64
17.71	-19.29	-152.12	-8.4	-152.49	-8.45	-152.64	-22.22	-116.8
17.81	-19.27	-152.9	-8.43	-153.33	-8.46	-153.41	-22.05	-116.96
17.91	-19.28	-153.92	-8.43	-154.37	-8.47	-154.24	-22.04	-119.12
18.01	-19.31	-155.44	-8.45	-155.29	-8.49	-155.09	-22.3	-120.52
18.11	-19.4	-156.44	-8.46	-156.16	-8.51	-155.9	-22.62	-121.02
18.21	-19.44	-157.51	-8.48	-156.93	-8.52	-156.78	-22.84	-120.12
18.31	-19.48	-158.47	-8.48	-157.77	-8.51	-157.64	-22.98	-119.4
18.41	-19.51	-159.31	-8.5	-158.59	-8.52	-158.5	-22.91	-118.75
18.51	-19.48	-160.23	-8.52	-159.4	-8.53	-159.25	-22.96	-119.14
18.61	-19.48	-160.98	-8.55	-160.31	-8.55	-160.04	-22.95	-119.54
18.71	-19.41	-161.93	-8.56	-161.1	-8.55	-160.89	-23.05	-120.4
18.81	-19.41	-163.42	-8.56	-162.02	-8.58	-161.75	-23.21	-121.14
18.91	-19.47	-164.54	-8.57	-162.9	-8.58	-162.64	-23.47	-121.56
19.01	-19.5	-165.63	-8.57	-163.69	-8.6	-163.55	-23.61	-120.64
19.11	-19.52	-166.42	-8.59	-164.44	-8.61	-164.38	-23.67	-120.38
19.21	-19.54	-167.09	-8.62	-165.33	-8.61	-165.16	-23.71	-120.3
19.31	-19.51	-168.17	-8.63	-166.13	-8.62	-166.02	-23.81	-120.94
19.41	-19.49	-169.19	-8.64	-167.06	-8.64	-166.9	-24.02	-120.86
19.51	-19.48	-170.32	-8.67	-167.99	-8.66	-167.73	-24.19	-120.58
19.61	-19.54	-171.69	-8.68	-168.83	-8.69	-168.58	-24.25	-119.84
19.71	-19.58	-172.42	-8.68	-169.64	-8.69	-169.43	-24.29	-120.1
19.81	-19.66	-173.29	-8.69	-170.4	-8.7	-170.29	-24.36	-119.4
19.91	-19.67	-173.68	-8.69	-171.25	-8.71	-171.15	-24.46	-119.64
20.01	-19.67	-174.49	-8.72	-172.08	-8.71	-171.97	-24.6	-118.68