!s2p File: Measurements: S11, S21, S12, S22								
# GHz S dB R 50.0								
0.01	-25.12	-0.06	-22.09	-0.51	-22.09	-0.32	-15.23	-1.23
0.11	-25.34	-1.54	-22.21	-1.31	-22.2	-1.29	-15.64	-2.22
0.21	-25.4	-1.9	-22.24	-1.92	-22.24	-1.9	-15.72	-2.69
0.31	-25.41	-2.39	-22.25	-2.57	-22.25	-2.58	-15.76	-3.29
0.41	-25.42	-2.93	-22.26	-3.25	-22.26	-3.23	-15.77	-3.95
0.51	-25.41	-3.48	-22.26	-3.97	-22.26	-3.95	-15.78	-4.66
0.61	-25.41	-4.04	-22.27	-4.66	-22.26	-4.67	-15.79	-5.42
0.71	-25.41	-4.64	-22.27	-5.4	-22.27	-5.4	-15.8	-6.18
0.81	-25.41	-5.23	-22.28	-6.13	-22.27	-6.12	-15.8	-6.95
0.91	-25.42	-5.85	-22.28	-6.84	-22.27	-6.85	-15.81	-7.72
1.01	-25.43	-6.45	-22.29	-7.56	-22.28	-7.57	-15.81	-8.49
1.11	-25.44	-7.07	-22.29	-8.3	-22.28	-8.27	-15.82	-9.27
1.21	-25.45	-7.74	-22.29	-9.03	-22.29	-9.01	-15.82	-10.06
1.31	-25.45	-8.49	-22.3	-9.75	-22.3	-9.74	-15.83	-10.87
1.41	-25.47	-9.25	-22.3	-10.5	-22.3	-10.48	-15.84	-11.7
1.51	-25.5	-9.95	-22.31	-11.22	-22.31	-11.21	-15.85	-12.46
1.61	-25.49	-10.61	-22.32	-11.94	-22.31	-11.93	-15.86	-13.23
1.71	-25.47	-11.45	-22.32	-12.66	-22.32	-12.66	-15.86	-14.06
1.81	-25.48	-12.38	-22.33	-13.38	-22.33	-13.37	-15.86	-14.9
1.91	-25.49	-13.19	-22.34	-14.12	-22.33	-14.1	-15.87	-15.73
2.01	-25.51	-13.95	-22.35	-14.85	-22.34	-14.83	-15.89	-16.56
2.11	-25.52	-14.7	-22.35	-15.56	-22.35	-15.55	-15.9	-17.38
2.21	-25.53	-15.45	-22.36	-16.27	-22.36	-16.28	-15.91	-18.16
2.31	-25.55	-16.24	-22.38	-17.01	-22.37	-16.99	-15.92	-18.96
2.41	-25.56	-17.01	-22.38	-17.72	-22.38	-17.72	-15.93	-19.76
2.51	-25.59	-17.72	-22.39	-18.44	-22.39	-18.42	-15.95	-20.55
2.61	-25.62	-18.41	-22.4	-19.16	-22.4	-19.13	-15.96	-21.35
2.71	-25.65	-19.01	-22.41	-19.87	-22.4	-19.87	-15.98	-22.13
2.81	-25.69	-19.58	-22.42	-20.59	-22.42	-20.58	-16	-22.91
2.91	-25.71	-20.21	-22.43	-21.28	-22.43	-21.27	-16.02	-23.69
3.01	-25.73	-20.94	-22.44	-21.99	-22.44	-21.97	-16.03	-24.43
3.11	-25.76	-21.71	-22.45	-22.71	-22.45	-22.69	-16.04	-25.22
3.21	-25.81	-22.47	-22.46	-23.43	-22.46	-23.41	-16.06	-25.98
3.31	-25.85	-23.22	-22.47	-24.13	-22.47	-24.11	-16.08	-26.76
3.41	-25.9	-23.92	-22.48	-24.84	-22.48	-24.82	-16.1	-27.5
3.51	-25.92	-24.65	-22.49	-25.53	-22.49	-25.53	-16.12	-28.25
3.61	-25.96	-25.45	-22.51	-26.24	-22.5	-26.25	-16.13	-29.02
3.71	-26	-26.36	-22.52	-26.95	-22.52	-26.95	-16.15	-29.8
3.81	-26.06	-27.26	-22.53	-27.65	-22.53	-27.67	-16.17	-30.59
3.91	-26.12	-28.04	-22.55	-28.35	-22.54	-28.36	-16.19	-31.39
4.01	-26.18	-28.7	-22.56	-29.07	-22.55	-29.07	-16.22	-32.12
4.11	-26.2	-29.43	-22.57	-29.78	-22.57	-29.76	-16.24	-32.86
4.21	-26.23	-30.26	-22.58	-30.45	-22.58	-30.45	-16.25	-33.56
4.31	-26.28	-31.3	-22.6	-31.12	-22.6	-31.14	-16.27	-34.32
4.41	-26.34	-32.35	-22.61	-31.87	-22.61	-31.8	-16.28	-35.12
4.51	-26.43	-33.15	-22.63	-32.53	-22.62	-32.51	-16.3	-35.92
4.61	-26.5	-33.76	-22.64	-33.22	-22.64	-33.22	-16.33	-36.68
4.71	-26.52	-34.32	-22.66	-33.93	-22.65	-33.89	-16.36	-37.41
4.81	-26.53	-35.09	-22.68	-34.63	-22.67	-34.59	-16.39	-38.08
4.91	-26.54	-36.04	-22.69	-35.31	-22.68	-35.27	-16.41	-38.75
5.01	-26.58	-37.07	-22.7	-36.01	-22.7	-35.97	-16.42	-39.44
5.11	-26.65	-38.06	-22.72	-36.64	-22.71	-36.63	-16.44	-40.19
5.21	-26.76	-38.82	-22.73	-37.36	-22.73	-37.32	-16.46	-40.94
5.31	-26.84	-39.48	-22.75	-38.02	-22.75	-38	-16.48	-41.68
5.41	-26.91	-39.97	-22.76	-38.71	-22.76	-38.68	-16.52	-42.42
5.51	-26.96	-40.59	-22.79	-39.38	-22.78	-39.37	-16.55	-43.06
5.61	-27.02	-41.46	-22.8	-40.1	-22.8	-40.06	-16.58	-43.68
5.71	-27.1	-42.44	-22.82	-40.78	-22.82	-40.73	-16.6	-44.34
5.81	-27.2	-43.51	-22.84	-41.42	-22.83	-41.39	-16.61	-45
5.91	-27.32	-44.4	-22.86	-42.11	-22.85	-42.08	-16.63	-45.75
6.01	-27.43	-45.16	-22.87	-42.8	-22.87	-42.74	-16.65	-46.49
6.11	-27.53	-45.87	-22.9	-43.45	-22.89	-43.43	-16.67	-47.18
6.21	-27.59	-46.58	-22.91	-44.11	-22.91	-44.1	-16.71	-47.85
6.31	-27.64	-47.44	-22.94	-44.78	-22.93	-44.75	-16.73	-48.46
6.41	-27.7	-48.46	-22.96	-45.43	-22.95	-45.42	-16.75	-49.09
6.51	-27.77	-49.55	-22.98	-46.06	-22.98	-46.03	-16.77	-49.72
6.61	-27.88	-50.63	-23	-46.73	-23	-46.68	-16.79	-50.41
6.71	-27.99	-51.54	-23.02	-47.38	-23.02	-47.33	-16.81	-51.11
6.81	-28.09	-52.4	-23.04	-48.01	-23.04	-47.98	-16.84	-51.81
6.91	-28.16	-53.3	-23.07	-48.66	-23.06	-48.6	-16.87	-52.5
7.01	-28.21	-54.22	-23.08	-49.28	-23.08	-49.26	-16.9	-53.12
7.11	-28.28	-55.28	-23.11	-49.89	-23.1	-49.88	-16.92	-53.73
7.21	-28.37	-56.31	-23.13	-50.53	-23.12	-50.53	-16.93	-54.31
7.31	-28.46	-57.22	-23.15	-51.25	-23.14	-51.23	-16.94	-54.96
7.41	-28.55	-58.11	-23.19	-51.91	-23.18	-51.89	-16.94	-55.64
7.51	-28.63	-58.98	-23.21	-52.47	-23.21	-52.41	-16.96	-56.38
7.61	-28.72	-59.79	-23.23	-53.07	-23.23	-53.03	-16.99	-57.03
7.71	-28.79	-60.66	-23.26	-53.64	-23.25	-53.6	-17.02	-57.69
7.81	-28.88	-61.52	-23.28	-54.19	-23.28	-54.2	-17.04	-58.33
7.91	-29.02	-62.45	-23.31	-54.85	-23.31	-54.83	-17.06	-58.92
8.01	-29.15	-63.55	-23.34	-55.39	-23.33	-55.38	-17.08	-59.59
8.11	-29.28	-64.55	-23.36	-55.93	-23.36	-55.89	-17.1	-60.3
8.21	-29.43	-65.67	-23.39	-56.52	-23.38	-56.53	-17.12	-61.02
8.31	-29.59	-66.63	-23.41	-57.1	-23.41	-57.07	-17.14	-61.72
8.41	-29.66	-67.8	-23.44	-57.64	-23.44	-57.61	-17.16	-62.4
8.51	-29.77	-69.01	-23.47	-58.17	-23.47	-58.15	-17.19	-63.11
8.61	-29.84	-70.5	-23.49	-58.68	-23.5	-58.64	-17.21	-63.76
8.71	-29.92	-72.01	-23.52	-59.14	-23.51	-59.07	-17.23	-64.45
8.81	-30.03	-73.58	-23.54	-59.66	-23.53	-59.62	-17.25	-65.13
8.91	-30.15	-75.18	-23.56	-60.14	-23.55	-60.11	-17.28	-65.84
9.01	-30.31	-76.53	-23.58	-60.67	-23.58	-60.59	-17.3	-66.58
9.11	-30.43	-77.93	-23.6	-61.11	-23.6	-61.05	-17.33	-67.27
9.21	-30.55	-79.41	-23.61	-61.56	-23.61	-61.52	-17.37	-67.95
9.31	-30.65	-80.71	-23.63	-62.04	-23.62	-61.99	-17.4	-68.66
9.41	-30.72	-82.23	-23.64	-62.52	-23.64	-62.48	-17.43	-69.35
9.51	-30.78	-83.73	-23.66	-62.98	-23.65	-62.96	-17.47	-70.01
9.61	-30.93	-85.44	-23.67	-63.47	-23.65	-63.4	-17.5	-70.61
9.71	-31.03	-87.2	-23.67	-63.88	-23.67	-63.89	-17.54	-71.27
9.81	-31.14	-88.69	-23.68	-64.37	-23.67	-64.34	-17.58	-71.92
9.91	-31.26	-89.89	-23.68	-64.86	-23.67	-64.83	-17.61	-72.57
10.01	-31.34	-91.16	-23.69	-65.35	-23.68	-65.34	-17.65	-73.22
10.11	-31.42	-92.45	-23.7	-65.82	-23.68	-65.74	-17.7	-73.86
10.21	-31.52	-94.05	-23.7	-66.23	-23.69	-66.25	-17.75	-74.48
10.31	-31.64	-95.82	-23.69	-66.76	-23.69	-66.72	-17.79	-75.07
10.41	-31.77	-97.65	-23.69	-67.26	-23.69	-67.18	-17.84	-75.58
10.51	-31.95	-99.62	-23.71	-67.71	-23.69	-67.69	-17.87	-76.08
10.61	-32.1	-101.76	-23.69	-68.2	-23.68	-68.19	-17.92	-76.66
10.71	-32.29	-103.59	-23.69	-68.79	-23.68	-68.71	-17.96	-77.25
10.81	-32.41	-105.61	-23.69	-69.35	-23.68	-69.26	-18	-77.83
10.91	-32.52	-107.87	-23.69	-69.85	-23.68	-69.79	-18.05	-78.43
11.01	-32.66	-110.04	-23.68	-70.35	-23.68	-70.28	-18.11	-78.93
11.11	-32.75	-112.18	-23.67	-70.9	-23.68	-70.84	-18.16	-79.41
11.21	-32.85	-114.45	-23.69	-71.43	-23.67	-71.42	-18.2	-79.89
11.31	-32.97	-116.21	-23.69	-71.91	-23.67	-71.95	-18.23	-80.31
11.41	-33.05	-118.4	-23.68	-72.46	-23.67	-72.47	-18.25	-80.91
11.51	-33.08	-120.14	-23.68	-73.03	-23.67	-72.91	-18.3	-81.38
11.61	-33.13	-122	-23.68	-73.57	-23.65	-73.46	-18.33	-81.98
11.71	-33.13	-124.31	-23.67	-74.07	-23.67	-74.01	-18.38	-82.59
11.81	-33.17	-127.11	-23.65	-74.57	-23.66	-74.53	-18.44	-83.07
11.91	-33.3	-129.6	-23.66	-75.15	-23.65	-75.11	-18.47	-83.35
12.01	-33.3	-131.84	-23.66	-75.65	-23.65	-75.73	-18.49	-83.81
12.11	-33.25	-133.54	-23.67	-76.33	-23.66	-76.36	-18.53	-84.26
12.21	-33.24	-135.48	-23.68	-76.75	-23.65	-76.72	-18.55	-84.74
12.31	-33.27	-137.75	-23.67	-77.34	-23.66	-77.3	-18.58	-85.31
12.41	-33.2	-139.79	-23.65	-77.94	-23.64	-77.83	-18.6	-85.82
12.51	-33.22	-142.58	-23.65	-78.44	-23.65	-78.37	-18.65	-86.44
12.61	-33.22	-144.94	-23.64	-78.94	-23.64	-78.93	-18.7	-86.89
12.71	-33.28	-147.85	-23.64	-79.48	-23.64	-79.49	-18.74	-87.32
12.81	-33.37	-150.72	-23.65	-79.97	-23.65	-80.08	-18.79	-87.53
12.91	-33.52	-153.05	-23.64	-80.59	-23.63	-80.55	-18.81	-87.93
13.01	-33.46	-154.96	-23.64	-81.19	-23.63	-81.15	-18.83	-88.2
13.11	-33.51	-157.52	-23.63	-81.79	-23.62	-81.77	-18.84	-88.77
13.21	-33.47	-159.25	-23.67	-82.22	-23.66	-82.08	-18.86	-89.33
13.31	-33.22	-162.1	-23.62	-82.61	-23.62	-82.57	-18.92	-89.87
13.41	-33.12	-164.74	-23.61	-83.13	-23.62	-83.12	-18.95	-90.23
13.51	-32.99	-167.67	-23.6	-83.73	-23.61	-83.73	-18.98	-90.84
13.61	-32.9	-169.86	-23.6	-84.26	-23.6	-84.31	-19.01	-91.12
13.71	-32.87	-172.27	-23.58	-84.77	-23.58	-84.83	-19.05	-91.59
13.81	-32.75	-173.59	-23.58	-85.4	-23.57	-85.43	-19.08	-92.02
13.91	-32.6	-175.6	-23.58	-86.05	-23.56	-85.91	-19.08	-92.54
14.01	-32.41	-176.91	-23.57	-86.7	-23.55	-86.6	-19.12	-93.01
14.11	-32.16	-179.18	-23.56	-87.19	-23.56	-87.12	-19.16	-93.64
14.21	-31.97	178.45	-23.56	-87.67	-23.57	-87.57	-19.21	-94.12
14.31	-31.85	175.36	-23.52	-88.14	-23.54	-88.1	-19.26	-94.46
14.41	-31.81	173.91	-23.52	-88.77	-23.52	-88.79	-19.3	-94.81
14.51	-31.68	171.63	-23.52	-89.42	-23.52	-89.42	-19.32	-95.21
14.61	-31.67	170.38	-23.53	-90	-23.51	-89.95	-19.32	-95.57
14.71	-31.53	169.58	-23.51	-90.5	-23.49	-90.38	-19.32	-96.05
14.81	-31.39	168.74	-23.5	-91.18	-23.49	-91.05	-19.35	-96.61
14.91	-31.13	168.08	-23.51	-91.79	-23.51	-91.64	-19.39	-97.15
15.01	-30.94	165.64	-23.49	-92.17	-23.5	-92.08	-19.44	-97.58
15.11	-30.79	163.38	-23.47	-92.69	-23.47	-92.66	-19.46	-97.95
15.21	-30.78	161.32	-23.46	-93.29	-23.46	-93.29	-19.49	-98.2
15.31	-30.84	159.45	-23.47	-93.92	-23.44	-93.84	-19.5	-98.6
15.41	-30.74	158.41	-23.47	-94.35	-23.45	-94.34	-19.54	-99.16
15.51	-30.63	157.39	-23.45	-94.86	-23.43	-94.78	-19.55	-99.51
15.61	-30.31	156.37	-23.43	-95.44	-23.42	-95.32	-19.57	-100.13
15.71	-30	154.78	-23.4	-96.1	-23.41	-95.94	-19.62	-100.71
15.81	-29.75	153.06	-23.41	-96.66	-23.41	-96.57	-19.65	-101.15
15.91	-29.52	151.06	-23.4	-97.11	-23.4	-97.12	-19.68	-101.63
16.01	-29.46	148.46	-23.39	-97.59	-23.38	-97.6	-19.71	-102.15
16.11	-29.4	146.78	-23.38	-98	-23.35	-98.03	-19.74	-102.62
16.21	-29.43	145.73	-23.35	-98.68	-23.31	-98.62	-19.76	-103.33
16.31	-29.36	145.75	-23.31	-99.27	-23.29	-99.14	-19.82	-103.69
16.41	-29.09	145.26	-23.29	-99.79	-23.27	-99.65	-19.84	-104.2
16.51	-28.81	143.87	-23.27	-100.48	-23.25	-100.38	-19.86	-104.71
16.61	-28.69	142.2	-23.25	-101.07	-23.23	-100.96	-19.88	-105.34
16.71	-28.59	140.87	-23.23	-101.52	-23.2	-101.6	-19.94	-106.41
16.81	-28.55	139.55	-23.23	-102.18	-23.19	-102.24	-20.07	-106.93
16.91	-28.53	138.39	-23.21	-102.53	-23.15	-102.62	-20.22	-107.43
17.01	-28.57	139.38	-23.17	-103.2	-23.11	-103.34	-20.33	-106.81
17.11	-28.36	139.46	-23.16	-103.8	-23.09	-103.92	-20.37	-105.78
17.21	-28.08	139.11	-23.12	-104.33	-23.08	-104.62	-20.01	-105.48
17.31	-27.84	137.63	-23.1	-104.76	-23.08	-105.19	-19.89	-107.98
17.41	-27.74	135.89	-23	-105.27	-23.02	-105.82	-20.01	-110.86
17.51	-27.69	134.58	-22.96	-106.18	-22.98	-106.65	-20.46	-111.5
17.61	-27.72	133.01	-22.9	-106.48	-22.95	-107.12	-20.69	-110.24
17.71	-27.81	132.3	-22.84	-107.57	-22.89	-107.91	-20.55	-108.74
17.81	-27.8	132.24	-22.83	-108.36	-22.85	-108.6	-20.35	-109.28
17.91	-27.67	132.08	-22.79	-109.36	-22.84	-109.32	-20.32	-111.76
18.01	-27.34	131.13	-22.77	-110.17	-22.82	-110.05	-20.55	-113.26
18.11	-27.25	128.99	-22.74	-110.83	-22.79	-110.64	-20.85	-113.71
18.21	-27.18	128.13	-22.71	-111.75	-22.75	-111.66	-21.02	-112.97
18.31	-27.08	127.21	-22.68	-112.6	-22.72	-112.53	-21.13	-112.39
18.41	-27.08	126.46	-22.67	-113.26	-22.7	-113.3	-20.99	-112.18
18.51	-27.11	126.93	-22.65	-114.3	-22.67	-114.29	-21.03	-112.75
18.61	-26.95	127.03	-22.69	-115.13	-22.68	-114.9	-20.99	-113.59
18.71	-26.88	127.66	-22.65	-115.82	-22.65	-115.66	-21.07	-114.57
18.81	-26.63	127.24	-22.59	-116.63	-22.62	-116.45	-21.19	-115.43
18.91	-26.55	126.11	-22.57	-117.64	-22.58	-117.45	-21.42	-116.03
19.01	-26.44	125.86	-22.55	-118.58	-22.59	-118.54	-21.55	-115.44
19.11	-26.36	125.74	-22.58	-119.42	-22.6	-119.42	-21.58	-115.4
19.21	-26.36	125.43	-22.58	-120.13	-22.57	-120.01	-21.56	-115.64
19.31	-26.26	125.84	-22.52	-121.18	-22.5	-121.16	-21.67	-116.71
19.41	-26.05	126.32	-22.57	-122.51	-22.57	-122.4	-21.85	-116.72
19.51	-25.92	126.27	-22.61	-123.5	-22.6	-123.28	-22	-116.66
19.61	-25.68	125.36	-22.64	-124.05	-22.66	-123.94	-22.01	-116.09
19.71	-25.62	124.57	-22.63	-124.7	-22.64	-124.57	-22.03	-116.76
19.81	-25.67	123.93	-22.57	-125.68	-22.58	-125.66	-22.14	-116.48
19.91	-25.67	124.14	-22.61	-126.78	-22.64	-126.79	-22.22	-116.61
20.01	-25.56	125.29	-22.7	-127.74	-22.69	-127.73	-22.32	-115.86