!s2p File: Measurements: S11, S21, S12, S22								
# GHz S dB R 50.0								
0.01	-25.14	-0.14	-18.58	-0.39	-18.58	-0.38	-15.85	-1.48
0.11	-25.34	-1.57	-18.71	-1.37	-18.71	-1.36	-16.38	-3.09
0.21	-25.4	-1.91	-18.74	-2.02	-18.74	-2	-16.51	-3.59
0.31	-25.41	-2.4	-18.76	-2.71	-18.75	-2.71	-16.55	-4.27
0.41	-25.42	-2.93	-18.77	-3.46	-18.76	-3.44	-16.58	-5.08
0.51	-25.42	-3.5	-18.77	-4.21	-18.77	-4.19	-16.59	-5.98
0.61	-25.42	-4.05	-18.77	-4.97	-18.77	-4.96	-16.61	-6.91
0.71	-25.41	-4.69	-18.78	-5.73	-18.77	-5.72	-16.62	-7.86
0.81	-25.42	-5.25	-18.78	-6.5	-18.78	-6.49	-16.63	-8.84
0.91	-25.43	-5.88	-18.78	-7.27	-18.78	-7.27	-16.64	-9.81
1.01	-25.43	-6.51	-18.79	-8.06	-18.79	-8.04	-16.65	-10.8
1.11	-25.44	-7.13	-18.79	-8.83	-18.79	-8.82	-16.67	-11.8
1.21	-25.46	-7.8	-18.8	-9.6	-18.79	-9.58	-16.68	-12.8
1.31	-25.46	-8.55	-18.81	-10.38	-18.8	-10.36	-16.69	-13.82
1.41	-25.48	-9.34	-18.81	-11.17	-18.81	-11.14	-16.71	-14.87
1.51	-25.5	-10.01	-18.82	-11.94	-18.81	-11.92	-16.74	-15.84
1.61	-25.49	-10.69	-18.83	-12.72	-18.82	-12.71	-16.75	-16.83
1.71	-25.48	-11.5	-18.83	-13.48	-18.83	-13.46	-16.77	-17.87
1.81	-25.48	-12.44	-18.84	-14.25	-18.83	-14.24	-16.78	-18.95
1.91	-25.49	-13.27	-18.85	-15.03	-18.84	-15.01	-16.81	-19.98
2.01	-25.51	-14.03	-18.85	-15.8	-18.85	-15.79	-16.84	-21.03
2.11	-25.52	-14.78	-18.86	-16.58	-18.86	-16.56	-16.86	-22.06
2.21	-25.53	-15.56	-18.87	-17.34	-18.87	-17.32	-16.89	-23.07
2.31	-25.55	-16.31	-18.88	-18.08	-18.88	-18.09	-16.92	-24.08
2.41	-25.56	-17.12	-18.89	-18.88	-18.88	-18.85	-16.95	-25.1
2.51	-25.59	-17.79	-18.9	-19.63	-18.89	-19.62	-16.98	-26.12
2.61	-25.62	-18.51	-18.91	-20.39	-18.9	-20.39	-17.02	-27.13
2.71	-25.65	-19.08	-18.92	-21.16	-18.91	-21.14	-17.06	-28.12
2.81	-25.69	-19.69	-18.93	-21.91	-18.92	-21.91	-17.09	-29.12
2.91	-25.71	-20.34	-18.94	-22.68	-18.93	-22.67	-17.13	-30.1
3.01	-25.73	-21.06	-18.94	-23.43	-18.94	-23.41	-17.17	-31.06
3.11	-25.77	-21.81	-18.96	-24.2	-18.95	-24.18	-17.21	-32.06
3.21	-25.81	-22.55	-18.97	-24.95	-18.96	-24.94	-17.25	-33.05
3.31	-25.86	-23.36	-18.98	-25.71	-18.97	-25.7	-17.29	-34.03
3.41	-25.9	-24.06	-18.99	-26.46	-18.98	-26.44	-17.34	-34.99
3.51	-25.92	-24.81	-19	-27.21	-18.99	-27.2	-17.38	-35.95
3.61	-25.96	-25.58	-19.01	-27.94	-19.01	-27.97	-17.43	-36.93
3.71	-26.01	-26.48	-19.03	-28.72	-19.02	-28.72	-17.47	-37.91
3.81	-26.06	-27.38	-19.04	-29.46	-19.03	-29.47	-17.52	-38.9
3.91	-26.13	-28.22	-19.05	-30.21	-19.05	-30.21	-17.57	-39.92
4.01	-26.19	-28.87	-19.06	-30.97	-19.06	-30.95	-17.63	-40.88
4.11	-26.2	-29.62	-19.07	-31.75	-19.07	-31.69	-17.69	-41.81
4.21	-26.23	-30.4	-19.09	-32.46	-19.08	-32.44	-17.74	-42.7
4.31	-26.28	-31.45	-19.1	-33.2	-19.1	-33.19	-17.78	-43.67
4.41	-26.34	-32.52	-19.11	-33.94	-19.11	-33.92	-17.83	-44.65
4.51	-26.42	-33.27	-19.13	-34.66	-19.13	-34.66	-17.89	-45.66
4.61	-26.5	-33.93	-19.15	-35.43	-19.14	-35.41	-17.95	-46.61
4.71	-26.52	-34.54	-19.16	-36.17	-19.16	-36.15	-18.02	-47.54
4.81	-26.53	-35.26	-19.17	-36.92	-19.17	-36.9	-18.09	-48.41
4.91	-26.54	-36.26	-19.19	-37.64	-19.18	-37.62	-18.14	-49.26
5.01	-26.58	-37.26	-19.2	-38.37	-19.2	-38.36	-18.2	-50.14
5.11	-26.65	-38.23	-19.22	-39.09	-19.21	-39.08	-18.25	-51.05
5.21	-26.75	-39.02	-19.23	-39.81	-19.23	-39.81	-18.32	-51.95
5.31	-26.83	-39.66	-19.25	-40.55	-19.25	-40.54	-18.39	-52.94
5.41	-26.91	-40.17	-19.27	-41.29	-19.26	-41.27	-18.46	-53.84
5.51	-26.96	-40.81	-19.29	-42.01	-19.28	-42.01	-18.55	-54.67
5.61	-27.02	-41.64	-19.3	-42.76	-19.29	-42.74	-18.62	-55.44
5.71	-27.09	-42.61	-19.32	-43.49	-19.31	-43.45	-18.68	-56.25
5.81	-27.19	-43.68	-19.33	-44.19	-19.33	-44.17	-18.75	-57.06
5.91	-27.3	-44.57	-19.35	-44.91	-19.35	-44.89	-18.81	-57.96
6.01	-27.41	-45.36	-19.37	-45.65	-19.36	-45.64	-18.88	-58.88
6.11	-27.51	-46.08	-19.39	-46.38	-19.39	-46.36	-18.95	-59.71
6.21	-27.57	-46.82	-19.41	-47.06	-19.41	-47.07	-19.03	-60.51
6.31	-27.63	-47.67	-19.43	-47.79	-19.42	-47.78	-19.1	-61.27
6.41	-27.68	-48.71	-19.45	-48.49	-19.44	-48.5	-19.18	-62.07
6.51	-27.76	-49.8	-19.47	-49.17	-19.47	-49.16	-19.25	-62.81
6.61	-27.86	-50.84	-19.49	-49.91	-19.48	-49.87	-19.33	-63.64
6.71	-27.97	-51.83	-19.51	-50.6	-19.5	-50.58	-19.4	-64.46
6.81	-28.06	-52.71	-19.53	-51.3	-19.52	-51.26	-19.48	-65.29
6.91	-28.14	-53.63	-19.55	-51.98	-19.55	-51.96	-19.57	-66.13
7.01	-28.19	-54.53	-19.57	-52.68	-19.56	-52.65	-19.65	-66.89
7.11	-28.26	-55.49	-19.59	-53.33	-19.59	-53.35	-19.73	-67.62
7.21	-28.34	-56.61	-19.61	-54.04	-19.61	-54.04	-19.81	-68.25
7.31	-28.42	-57.48	-19.64	-54.79	-19.63	-54.78	-19.86	-68.99
7.41	-28.51	-58.4	-19.67	-55.5	-19.66	-55.48	-19.91	-69.76
7.51	-28.59	-59.31	-19.69	-56.12	-19.68	-56.1	-19.99	-70.59
7.61	-28.67	-60.13	-19.71	-56.8	-19.71	-56.75	-20.08	-71.38
7.71	-28.74	-61.03	-19.73	-57.42	-19.73	-57.41	-20.16	-72.11
7.81	-28.82	-61.95	-19.75	-58.03	-19.76	-58.07	-20.24	-72.86
7.91	-28.95	-62.79	-19.78	-58.76	-19.78	-58.72	-20.32	-73.53
8.01	-29.08	-63.94	-19.81	-59.38	-19.8	-59.38	-20.4	-74.26
8.11	-29.21	-64.96	-19.83	-60	-19.83	-59.97	-20.47	-75.12
8.21	-29.35	-66.08	-19.86	-60.65	-19.86	-60.66	-20.54	-75.94
8.31	-29.49	-67.09	-19.88	-61.29	-19.88	-61.28	-20.62	-76.75
8.41	-29.57	-68.22	-19.9	-61.9	-19.9	-61.88	-20.71	-77.55
8.51	-29.68	-69.53	-19.93	-62.49	-19.93	-62.46	-20.78	-78.36
8.61	-29.74	-71.01	-19.96	-63.07	-19.96	-63.05	-20.86	-79.15
8.71	-29.82	-72.59	-19.98	-63.64	-19.98	-63.59	-20.95	-79.94
8.81	-29.92	-74.11	-20.01	-64.23	-20	-64.18	-21.03	-80.71
8.91	-30.04	-75.64	-20.03	-64.79	-20.02	-64.76	-21.11	-81.59
9.01	-30.18	-77.03	-20.05	-65.38	-20.05	-65.32	-21.19	-82.51
9.11	-30.3	-78.56	-20.06	-65.9	-20.07	-65.85	-21.29	-83.33
9.21	-30.42	-79.94	-20.09	-66.43	-20.08	-66.4	-21.4	-84.23
9.31	-30.51	-81.41	-20.1	-66.99	-20.09	-66.97	-21.5	-85.04
9.41	-30.58	-82.91	-20.11	-67.54	-20.11	-67.5	-21.6	-85.9
9.51	-30.64	-84.47	-20.13	-68.09	-20.13	-68.05	-21.72	-86.7
9.61	-30.77	-86.22	-20.15	-68.63	-20.14	-68.57	-21.83	-87.43
9.71	-30.86	-87.86	-20.16	-69.16	-20.15	-69.12	-21.94	-88.23
9.81	-30.99	-89.45	-20.16	-69.69	-20.16	-69.67	-22.05	-89.05
9.91	-31.08	-90.66	-20.17	-70.25	-20.16	-70.22	-22.19	-89.86
10.01	-31.16	-92.1	-20.18	-70.82	-20.18	-70.77	-22.3	-90.64
10.11	-31.24	-93.48	-20.19	-71.34	-20.18	-71.27	-22.44	-91.48
10.21	-31.34	-95.04	-20.2	-71.85	-20.19	-71.83	-22.59	-92.33
10.31	-31.46	-96.76	-20.2	-72.42	-20.2	-72.37	-22.74	-92.96
10.41	-31.58	-98.62	-20.2	-72.97	-20.2	-72.94	-22.9	-93.54
10.51	-31.77	-100.55	-20.21	-73.47	-20.2	-73.5	-23.03	-94.12
10.61	-31.9	-102.78	-20.21	-74.06	-20.2	-74.06	-23.18	-94.71
10.71	-32.06	-104.56	-20.21	-74.68	-20.21	-74.63	-23.31	-95.44
10.81	-32.2	-106.66	-20.21	-75.27	-20.21	-75.21	-23.47	-96.1
10.91	-32.31	-109.01	-20.21	-75.85	-20.21	-75.78	-23.63	-96.84
11.01	-32.43	-111.1	-20.21	-76.42	-20.21	-76.37	-23.83	-97.49
11.11	-32.51	-113.19	-20.21	-76.98	-20.22	-76.98	-23.98	-97.9
11.21	-32.58	-115.37	-20.23	-77.59	-20.22	-77.59	-24.15	-98.4
11.31	-32.68	-117.23	-20.24	-78.13	-20.22	-78.15	-24.29	-98.74
11.41	-32.75	-119.55	-20.23	-78.73	-20.22	-78.75	-24.42	-99.31
11.51	-32.81	-121.19	-20.23	-79.37	-20.22	-79.28	-24.59	-99.8
11.61	-32.85	-123.25	-20.23	-79.92	-20.21	-79.85	-24.75	-100.34
11.71	-32.85	-125.42	-20.23	-80.49	-20.24	-80.49	-24.9	-100.98
11.81	-32.89	-128.08	-20.22	-81.09	-20.23	-81.04	-25.12	-101.45
11.91	-32.99	-130.62	-20.23	-81.69	-20.22	-81.68	-25.31	-101.48
12.01	-32.97	-132.78	-20.23	-82.24	-20.23	-82.31	-25.43	-101.71
12.11	-32.91	-134.49	-20.24	-82.93	-20.24	-82.93	-25.6	-101.97
12.21	-32.92	-136.5	-20.25	-83.44	-20.23	-83.45	-25.72	-102.22
12.31	-32.95	-138.63	-20.24	-84.08	-20.24	-84.03	-25.88	-102.72
12.41	-32.89	-140.73	-20.23	-84.74	-20.23	-84.58	-26	-102.96
12.51	-32.9	-143.39	-20.24	-85.3	-20.24	-85.2	-26.2	-103.63
12.61	-32.88	-145.46	-20.23	-85.84	-20.24	-85.81	-26.41	-103.91
12.71	-32.92	-148.34	-20.23	-86.44	-20.23	-86.45	-26.6	-104.14
12.81	-33	-151	-20.25	-86.99	-20.25	-87.05	-26.82	-103.78
12.91	-33.13	-153.38	-20.24	-87.62	-20.23	-87.61	-26.96	-103.71
13.01	-33.06	-155.38	-20.25	-88.26	-20.23	-88.25	-27.13	-103.43
13.11	-33.11	-158	-20.24	-88.91	-20.23	-88.88	-27.22	-103.7
13.21	-33.05	-159.72	-20.27	-89.45	-20.27	-89.3	-27.36	-104.11
13.31	-32.86	-162.37	-20.24	-89.94	-20.24	-89.86	-27.63	-104.54
13.41	-32.74	-164.91	-20.23	-90.48	-20.24	-90.47	-27.8	-104.28
13.51	-32.59	-167.66	-20.23	-91.13	-20.24	-91.09	-27.94	-104.74
13.61	-32.49	-169.83	-20.22	-91.68	-20.23	-91.71	-28.13	-104.38
13.71	-32.44	-172.24	-20.21	-92.27	-20.21	-92.31	-28.31	-104.52
13.81	-32.34	-173.63	-20.22	-92.94	-20.21	-92.93	-28.49	-104.26
13.91	-32.2	-175.63	-20.22	-93.58	-20.21	-93.51	-28.6	-104.4
14.01	-32.01	-177.15	-20.21	-94.28	-20.2	-94.19	-28.76	-104.23
14.11	-31.83	-179.17	-20.21	-94.83	-20.21	-94.75	-28.97	-104.89
14.21	-31.61	178.64	-20.21	-95.4	-20.22	-95.29	-29.2	-104.79
14.31	-31.48	175.65	-20.19	-95.95	-20.2	-95.91	-29.41	-104.49
14.41	-31.43	174.45	-20.18	-96.55	-20.19	-96.6	-29.64	-104.08
14.51	-31.31	172.04	-20.19	-97.27	-20.19	-97.22	-29.77	-103.52
14.61	-31.27	170.82	-20.21	-97.88	-20.19	-97.82	-29.88	-103.09
14.71	-31.12	169.83	-20.19	-98.47	-20.17	-98.33	-29.96	-102.87
14.81	-31.02	168.95	-20.18	-99.19	-20.18	-99.02	-30.1	-103.03
14.91	-30.79	168.4	-20.19	-99.8	-20.19	-99.67	-30.28	-103.16
15.01	-30.59	166.12	-20.17	-100.25	-20.18	-100.14	-30.54	-102.76
15.11	-30.44	164	-20.16	-100.85	-20.17	-100.82	-30.68	-102.27
15.21	-30.41	161.94	-20.16	-101.49	-20.16	-101.47	-30.84	-101.23
15.31	-30.45	160.07	-20.17	-102.15	-20.15	-102.07	-30.95	-100.69
15.41	-30.34	158.9	-20.18	-102.63	-20.16	-102.58	-31.14	-100.59
15.51	-30.23	157.86	-20.17	-103.26	-20.14	-103.13	-31.23	-99.89
15.61	-29.95	156.85	-20.16	-103.9	-20.14	-103.73	-31.36	-100.25
15.71	-29.68	155.24	-20.13	-104.55	-20.13	-104.38	-31.62	-100.19
15.81	-29.44	153.54	-20.14	-105.17	-20.14	-105.07	-31.76	-99.76
15.91	-29.23	151.82	-20.13	-105.69	-20.13	-105.64	-31.91	-99.57
16.01	-29.14	149.37	-20.13	-106.22	-20.12	-106.22	-32.06	-99.19
16.11	-29.05	147.84	-20.12	-106.68	-20.1	-106.7	-32.24	-99.11
16.21	-29.03	146.58	-20.1	-107.4	-20.07	-107.35	-32.4	-99.5
16.31	-28.97	146.49	-20.09	-108.03	-20.06	-107.88	-32.7	-98.48
16.41	-28.75	145.85	-20.07	-108.62	-20.05	-108.46	-32.82	-98.19
16.51	-28.48	144.57	-20.05	-109.36	-20.03	-109.23	-32.91	-97.82
16.61	-28.35	142.94	-20.04	-110.01	-20.03	-109.89	-33.06	-98
16.71	-28.25	141.74	-20.03	-110.48	-20	-110.53	-33.42	-100.03
16.81	-28.18	140.51	-20.03	-111.17	-19.99	-111.18	-34.01	-99.09
16.91	-28.16	139.33	-20.03	-111.65	-19.97	-111.66	-34.78	-98.79
17.01	-28.17	139.86	-20	-112.29	-19.94	-112.37	-35.27	-91.84
17.11	-27.97	139.84	-20	-112.92	-19.93	-112.99	-35	-83.53
17.21	-27.73	139.38	-19.96	-113.46	-19.92	-113.7	-33.33	-84.45
17.31	-27.51	138.04	-19.94	-114.02	-19.93	-114.32	-33.29	-92.96
17.41	-27.4	136.34	-19.87	-114.53	-19.89	-115.03	-34.35	-102.6
17.51	-27.36	135.17	-19.84	-115.39	-19.86	-115.83	-36.88	-99.27
17.61	-27.35	133.6	-19.8	-115.8	-19.84	-116.38	-37.86	-84.47
17.71	-27.44	132.79	-19.76	-116.86	-19.8	-117.13	-36.16	-73.89
17.81	-27.39	132.53	-19.75	-117.63	-19.78	-117.82	-35.12	-77.3
17.91	-27.28	132.05	-19.74	-118.58	-19.78	-118.55	-35.7	-85.4
18.01	-26.98	131.19	-19.72	-119.38	-19.76	-119.24	-37.19	-85.64
18.11	-26.9	129.29	-19.7	-120.09	-19.75	-119.88	-38.63	-77.54
18.21	-26.81	128.4	-19.68	-120.93	-19.72	-120.8	-38.34	-64.57
18.31	-26.7	127.56	-19.66	-121.71	-19.69	-121.63	-37.73	-56.47
18.41	-26.67	126.69	-19.66	-122.41	-19.69	-122.41	-36.58	-58.29
18.51	-26.66	126.69	-19.65	-123.35	-19.66	-123.3	-36.57	-56.85
18.61	-26.52	126.67	-19.69	-124.13	-19.67	-123.92	-36.42	-59.59
18.71	-26.48	126.99	-19.66	-124.82	-19.66	-124.65	-36.9	-59.08
18.81	-26.26	126.6	-19.62	-125.64	-19.65	-125.41	-37.46	-56.68
18.91	-26.17	125.55	-19.61	-126.57	-19.61	-126.37	-37.91	-48.28
19.01	-26.08	125.01	-19.59	-127.41	-19.63	-127.35	-36.95	-42.84
19.11	-25.98	125.02	-19.61	-128.11	-19.63	-128.12	-36.48	-42.47
19.21	-25.98	124.54	-19.63	-128.89	-19.62	-128.75	-36.28	-42.24
19.31	-25.88	124.67	-19.59	-129.77	-19.58	-129.76	-36.52	-39.05
19.41	-25.72	124.94	-19.62	-130.88	-19.62	-130.76	-36.04	-34.43
19.51	-25.62	124.87	-19.66	-131.82	-19.65	-131.6	-35.5	-31.77
19.61	-25.41	124.11	-19.68	-132.43	-19.69	-132.26	-34.92	-33.21
19.71	-25.34	123.44	-19.67	-133.07	-19.68	-132.91	-35.06	-33.23
19.81	-25.39	122.48	-19.65	-133.94	-19.65	-133.94	-34.43	-31.05
19.91	-25.4	122.78	-19.68	-134.82	-19.69	-134.8	-34.23	-30.69
20.01	-25.34	123.76	-19.73	-135.66	-19.72	-135.59	-33.59	-29.5