!s2p File: Measurements: S11, S21, S12, S22								
# GHz S dB R 50.0								
0.01	-25.35	-0.19	-31.01	-0.42	-31.03	-0.52	-21.28	-1.57
0.11	-25.54	-1.52	-31.17	-1.25	-31.16	-1.22	-21.95	-3.55
0.21	-25.6	-1.87	-31.21	-1.73	-31.21	-1.72	-22.14	-3.67
0.31	-25.61	-2.37	-31.22	-2.28	-31.22	-2.21	-22.19	-3.99
0.41	-25.61	-2.92	-31.23	-2.74	-31.24	-2.78	-22.23	-4.57
0.51	-25.61	-3.43	-31.25	-3.35	-31.24	-3.36	-22.24	-5.14
0.61	-25.61	-3.97	-31.24	-3.99	-31.24	-3.88	-22.26	-5.81
0.71	-25.6	-4.58	-31.24	-4.57	-31.24	-4.55	-22.26	-6.51
0.81	-25.61	-5.15	-31.25	-5.16	-31.24	-5.12	-22.27	-7.26
0.91	-25.62	-5.79	-31.25	-5.74	-31.25	-5.72	-22.29	-8.01
1.01	-25.62	-6.42	-31.26	-6.32	-31.26	-6.34	-22.29	-8.72
1.11	-25.63	-7	-31.25	-6.91	-31.26	-6.93	-22.29	-9.5
1.21	-25.64	-7.69	-31.26	-7.53	-31.26	-7.49	-22.29	-10.25
1.31	-25.65	-8.42	-31.27	-8.16	-31.27	-8.12	-22.3	-11.08
1.41	-25.67	-9.22	-31.27	-8.79	-31.27	-8.77	-22.31	-11.94
1.51	-25.7	-9.89	-31.28	-9.38	-31.28	-9.33	-22.33	-12.65
1.61	-25.68	-10.54	-31.29	-9.98	-31.28	-9.94	-22.33	-13.36
1.71	-25.66	-11.36	-31.29	-10.53	-31.29	-10.59	-22.33	-14.21
1.81	-25.67	-12.33	-31.29	-11.16	-31.29	-11.14	-22.33	-15.12
1.91	-25.68	-13.14	-31.29	-11.8	-31.3	-11.78	-22.34	-15.98
2.01	-25.7	-13.91	-31.31	-12.37	-31.31	-12.37	-22.36	-16.84
2.11	-25.71	-14.62	-31.31	-12.99	-31.31	-12.92	-22.37	-17.65
2.21	-25.72	-15.41	-31.32	-13.61	-31.32	-13.55	-22.38	-18.46
2.31	-25.74	-16.16	-31.34	-14.22	-31.33	-14.17	-22.39	-19.25
2.41	-25.75	-16.97	-31.33	-14.83	-31.34	-14.75	-22.4	-20.08
2.51	-25.78	-17.65	-31.34	-15.42	-31.34	-15.38	-22.42	-20.92
2.61	-25.82	-18.38	-31.36	-15.98	-31.35	-15.96	-22.44	-21.71
2.71	-25.85	-18.93	-31.36	-16.59	-31.36	-16.55	-22.46	-22.5
2.81	-25.88	-19.52	-31.37	-17.22	-31.36	-17.2	-22.48	-23.28
2.91	-25.91	-20.11	-31.39	-17.72	-31.38	-17.75	-22.5	-24.07
3.01	-25.92	-20.83	-31.39	-18.39	-31.38	-18.37	-22.51	-24.79
3.11	-25.96	-21.61	-31.4	-18.98	-31.4	-19	-22.53	-25.59
3.21	-26	-22.39	-31.41	-19.6	-31.4	-19.58	-22.55	-26.37
3.31	-26.05	-23.14	-31.41	-20.2	-31.42	-20.16	-22.57	-27.16
3.41	-26.09	-23.86	-31.43	-20.74	-31.42	-20.71	-22.59	-27.9
3.51	-26.12	-24.59	-31.43	-21.38	-31.44	-21.36	-22.61	-28.67
3.61	-26.16	-25.41	-31.45	-21.99	-31.45	-21.98	-22.63	-29.45
3.71	-26.2	-26.29	-31.46	-22.59	-31.46	-22.6	-22.65	-30.27
3.81	-26.26	-27.2	-31.48	-23.13	-31.47	-23.21	-22.67	-31.15
3.91	-26.33	-27.99	-31.49	-23.77	-31.49	-23.73	-22.71	-32
4.01	-26.38	-28.6	-31.49	-24.35	-31.49	-24.33	-22.74	-32.74
4.11	-26.41	-29.36	-31.51	-24.91	-31.51	-24.88	-22.77	-33.45
4.21	-26.43	-30.2	-31.52	-25.51	-31.52	-25.49	-22.78	-34.15
4.31	-26.49	-31.29	-31.54	-26.11	-31.53	-26.12	-22.79	-34.96
4.41	-26.55	-32.4	-31.55	-26.62	-31.55	-26.62	-22.8	-35.83
4.51	-26.64	-33.1	-31.57	-27.3	-31.57	-27.26	-22.83	-36.75
4.61	-26.71	-33.69	-31.59	-27.88	-31.58	-27.87	-22.87	-37.54
4.71	-26.73	-34.26	-31.59	-28.5	-31.59	-28.41	-22.92	-38.28
4.81	-26.74	-35.02	-31.62	-29.06	-31.61	-29.01	-22.95	-38.97
4.91	-26.75	-36.03	-31.62	-29.71	-31.62	-29.57	-22.97	-39.58
5.01	-26.78	-37.08	-31.63	-30.21	-31.64	-30.14	-22.99	-40.3
5.11	-26.86	-38.12	-31.65	-30.81	-31.66	-30.76	-23	-41.11
5.21	-26.97	-38.87	-31.67	-31.34	-31.67	-31.31	-23.03	-41.93
5.31	-27.06	-39.46	-31.69	-31.88	-31.69	-31.89	-23.06	-42.78
5.41	-27.14	-39.98	-31.71	-32.56	-31.71	-32.5	-23.12	-43.57
5.51	-27.18	-40.56	-31.73	-33.14	-31.72	-33.07	-23.17	-44.21
5.61	-27.24	-41.5	-31.76	-33.74	-31.75	-33.69	-23.2	-44.76
5.71	-27.32	-42.48	-31.77	-34.27	-31.76	-34.17	-23.22	-45.43
5.81	-27.43	-43.62	-31.79	-34.81	-31.79	-34.75	-23.24	-46.13
5.91	-27.56	-44.49	-31.8	-35.45	-31.8	-35.41	-23.25	-46.97
6.01	-27.67	-45.26	-31.83	-35.99	-31.84	-35.96	-23.29	-47.81
6.11	-27.77	-45.89	-31.86	-36.6	-31.85	-36.58	-23.33	-48.57
6.21	-27.83	-46.68	-31.89	-37.08	-31.89	-37.12	-23.37	-49.24
6.31	-27.89	-47.56	-31.9	-37.68	-31.9	-37.69	-23.4	-49.88
6.41	-27.94	-48.58	-31.94	-38.17	-31.94	-38.2	-23.45	-50.48
6.51	-28.03	-49.73	-31.96	-38.7	-31.97	-38.65	-23.47	-51.09
6.61	-28.14	-50.79	-32	-39.3	-31.99	-39.23	-23.5	-51.87
6.71	-28.26	-51.76	-32.01	-39.82	-32.01	-39.73	-23.53	-52.62
6.81	-28.35	-52.59	-32.04	-40.37	-32.04	-40.3	-23.57	-53.42
6.91	-28.43	-53.54	-32.08	-40.75	-32.09	-40.81	-23.62	-54.19
7.01	-28.49	-54.46	-32.09	-41.36	-32.09	-41.31	-23.66	-54.8
7.11	-28.55	-55.52	-32.13	-41.82	-32.13	-41.81	-23.7	-55.45
7.21	-28.66	-56.61	-32.15	-42.33	-32.15	-42.26	-23.71	-55.96
7.31	-28.75	-57.58	-32.18	-43.11	-32.17	-43.03	-23.71	-56.7
7.41	-28.85	-58.42	-32.26	-43.56	-32.26	-43.57	-23.72	-57.43
7.51	-28.94	-59.31	-32.29	-43.81	-32.29	-43.8	-23.75	-58.28
7.61	-29.04	-60.14	-32.31	-44.32	-32.32	-44.16	-23.79	-59.06
7.71	-29.1	-61.04	-32.34	-44.77	-32.34	-44.71	-23.84	-59.73
7.81	-29.2	-61.96	-32.39	-45.14	-32.4	-45.11	-23.88	-60.39
7.91	-29.34	-62.85	-32.43	-45.59	-32.44	-45.58	-23.92	-61.02
8.01	-29.48	-64.02	-32.47	-46.01	-32.47	-45.89	-23.94	-61.73
8.11	-29.64	-65.02	-32.51	-46.35	-32.5	-46.17	-23.97	-62.62
8.21	-29.8	-66.1	-32.53	-46.76	-32.53	-46.72	-24	-63.47
8.31	-29.95	-67.07	-32.58	-47.04	-32.58	-46.99	-24.04	-64.31
8.41	-30.04	-68.21	-32.6	-47.5	-32.62	-47.37	-24.09	-65.11
8.51	-30.15	-69.47	-32.66	-47.66	-32.66	-47.57	-24.12	-65.9
8.61	-30.22	-70.94	-32.7	-47.84	-32.71	-47.81	-24.16	-66.69
8.71	-30.32	-72.54	-32.73	-48.07	-32.73	-47.94	-24.19	-67.49
8.81	-30.42	-74.13	-32.74	-48.31	-32.74	-48.22	-24.23	-68.29
8.91	-30.57	-75.75	-32.76	-48.63	-32.76	-48.45	-24.26	-69.19
9.01	-30.73	-77.12	-32.8	-48.78	-32.79	-48.7	-24.31	-70.11
9.11	-30.87	-78.59	-32.83	-48.93	-32.82	-48.79	-24.37	-70.97
9.21	-30.99	-79.93	-32.83	-49.07	-32.82	-49.04	-24.43	-71.84
9.31	-31.09	-81.34	-32.83	-49.27	-32.83	-49.21	-24.49	-72.68
9.41	-31.17	-82.78	-32.85	-49.43	-32.83	-49.34	-24.55	-73.56
9.51	-31.23	-84.42	-32.84	-49.55	-32.86	-49.52	-24.61	-74.4
9.61	-31.38	-86.15	-32.85	-49.73	-32.83	-49.69	-24.67	-75.14
9.71	-31.49	-87.87	-32.84	-49.97	-32.84	-49.89	-24.75	-75.96
9.81	-31.62	-89.38	-32.81	-50.07	-32.81	-50.06	-24.82	-76.79
9.91	-31.74	-90.51	-32.8	-50.41	-32.8	-50.3	-24.91	-77.69
10.01	-31.82	-91.82	-32.81	-50.55	-32.8	-50.48	-24.98	-78.52
10.11	-31.9	-93.19	-32.8	-50.74	-32.78	-50.6	-25.08	-79.37
10.21	-32.01	-94.76	-32.78	-50.81	-32.77	-50.77	-25.19	-80.25
10.31	-32.11	-96.68	-32.74	-51.07	-32.73	-51.03	-25.28	-80.9
10.41	-32.26	-98.58	-32.71	-51.38	-32.7	-51.32	-25.4	-81.5
10.51	-32.46	-100.53	-32.68	-51.57	-32.67	-51.52	-25.48	-82.11
10.61	-32.62	-102.73	-32.64	-51.88	-32.64	-51.86	-25.58	-82.87
10.71	-32.81	-104.69	-32.61	-52.32	-32.61	-52.21	-25.68	-83.63
10.81	-32.91	-106.72	-32.57	-52.72	-32.58	-52.65	-25.8	-84.34
10.91	-33.02	-109.19	-32.58	-53.04	-32.57	-52.93	-25.92	-85.17
11.01	-33.17	-111.5	-32.52	-53.28	-32.52	-53.23	-26.08	-85.84
11.11	-33.25	-113.78	-32.49	-53.77	-32.49	-53.75	-26.19	-86.32
11.21	-33.37	-116.08	-32.49	-54.16	-32.47	-54.08	-26.31	-86.88
11.31	-33.5	-117.89	-32.46	-54.46	-32.46	-54.47	-26.41	-87.24
11.41	-33.56	-120.03	-32.44	-54.94	-32.42	-54.8	-26.48	-87.95
11.51	-33.62	-121.82	-32.41	-55.32	-32.4	-55.12	-26.61	-88.66
11.61	-33.62	-123.67	-32.37	-55.65	-32.37	-55.59	-26.72	-89.4
11.71	-33.6	-126.27	-32.34	-56.03	-32.35	-55.96	-26.84	-90.22
11.81	-33.64	-129.24	-32.3	-56.44	-32.3	-56.3	-27.02	-90.7
11.91	-33.76	-131.96	-32.3	-56.9	-32.27	-56.85	-27.16	-90.85
12.01	-33.77	-134.22	-32.26	-57.35	-32.25	-57.38	-27.25	-91.31
12.11	-33.71	-135.94	-32.27	-58.11	-32.26	-58.11	-27.37	-91.69
12.21	-33.71	-137.98	-32.27	-58.05	-32.24	-58.04	-27.45	-92.07
12.31	-33.7	-140.05	-32.21	-58.56	-32.21	-58.46	-27.55	-92.82
12.41	-33.6	-142.25	-32.16	-59.26	-32.17	-59.01	-27.63	-93.37
12.51	-33.6	-145.26	-32.16	-59.54	-32.17	-59.42	-27.79	-94.25
12.61	-33.57	-147.65	-32.12	-59.89	-32.13	-59.9	-27.96	-94.68
12.71	-33.62	-150.91	-32.08	-60.4	-32.1	-60.4	-28.14	-95.17
12.81	-33.73	-153.86	-32.11	-60.7	-32.11	-60.75	-28.33	-94.85
12.91	-33.89	-156.26	-32.05	-61.21	-32.03	-61.15	-28.42	-95.1
13.01	-33.86	-158.27	-32.07	-61.67	-32.05	-61.66	-28.57	-94.95
13.11	-33.87	-160.83	-32.02	-62.12	-32.03	-62.1	-28.6	-95.44
13.21	-33.8	-162.64	-32.07	-62.26	-32.05	-62.03	-28.71	-95.94
13.31	-33.52	-165.31	-31.96	-62.57	-31.95	-62.43	-28.91	-96.77
13.41	-33.38	-168.07	-31.91	-62.89	-31.91	-62.9	-29.07	-96.79
13.51	-33.23	-171.09	-31.85	-63.63	-31.85	-63.56	-29.19	-97.65
13.61	-33.12	-173.39	-31.85	-64.12	-31.86	-64.04	-29.37	-97.44
13.71	-33.1	-175.89	-31.81	-64.37	-31.82	-64.46	-29.52	-97.79
13.81	-33.01	-176.99	-31.78	-64.96	-31.76	-64.89	-29.66	-97.95
13.91	-32.83	-178.71	-31.75	-65.44	-31.74	-65.31	-29.74	-98.53
14.01	-32.61	179.87	-31.71	-66.17	-31.7	-66.06	-29.88	-98.79
14.11	-32.33	177.79	-31.69	-66.65	-31.71	-66.42	-30.09	-99.81
14.21	-32.1	175.34	-31.67	-66.72	-31.69	-66.55	-30.33	-99.96
14.31	-31.96	172.08	-31.57	-67.18	-31.58	-67.03	-30.51	-100.02
14.41	-31.92	170.44	-31.55	-67.92	-31.55	-67.95	-30.74	-100.08
14.51	-31.8	167.96	-31.54	-68.43	-31.55	-68.39	-30.89	-99.87
14.61	-31.8	166.92	-31.54	-69.04	-31.52	-68.87	-30.98	-99.68
14.71	-31.64	166.39	-31.47	-69.36	-31.45	-69.19	-31.03	-99.88
14.81	-31.53	165.74	-31.45	-70.1	-31.44	-69.98	-31.18	-100.59
14.91	-31.25	164.97	-31.46	-70.66	-31.47	-70.48	-31.39	-101.03
15.01	-31.02	162.59	-31.42	-70.74	-31.43	-70.62	-31.7	-100.97
15.11	-30.88	160.23	-31.36	-71.2	-31.37	-71.08	-31.83	-100.86
15.21	-30.84	158.2	-31.31	-71.92	-31.33	-71.73	-32.03	-100.08
15.31	-30.91	156.18	-31.32	-72.46	-31.28	-72.24	-32.12	-99.84
15.41	-30.82	155.13	-31.32	-72.54	-31.3	-72.37	-32.37	-99.94
15.51	-30.7	154.37	-31.25	-72.9	-31.21	-72.79	-32.46	-99.68
15.61	-30.37	153.6	-31.18	-73.41	-31.17	-73.22	-32.61	-100.29
15.71	-30.02	152.05	-31.12	-74.16	-31.12	-73.98	-32.89	-100.84
15.81	-29.75	150.24	-31.11	-74.77	-31.12	-74.51	-33.14	-100.85
15.91	-29.51	148.13	-31.09	-74.89	-31.09	-74.84	-33.34	-100.54
16.01	-29.44	145.45	-31.04	-75.21	-31.02	-75.15	-33.48	-100.66
16.11	-29.41	143.74	-30.99	-75.4	-30.95	-75.34	-33.65	-100.48
16.21	-29.44	142.64	-30.87	-76.13	-30.84	-75.97	-33.78	-101.57
16.31	-29.36	142.85	-30.81	-76.69	-30.78	-76.52	-34.14	-101.11
16.41	-29.11	142.43	-30.74	-77.32	-30.73	-77.09	-34.35	-101.43
16.51	-28.81	141.05	-30.7	-78.06	-30.67	-77.92	-34.48	-101.6
16.61	-28.68	139.31	-30.64	-78.65	-30.62	-78.5	-34.72	-102.34
16.71	-28.59	137.84	-30.56	-79.14	-30.55	-79.17	-35.02	-105.87
16.81	-28.55	136.52	-30.57	-79.72	-30.53	-79.7	-35.98	-105.87
16.91	-28.58	135.5	-30.48	-79.9	-30.43	-79.81	-36.95	-105.54
17.01	-28.62	136.4	-30.38	-80.8	-30.33	-80.87	-37.65	-97.76
17.11	-28.4	136.8	-30.35	-81.53	-30.27	-81.49	-37.5	-87.42
17.21	-28.09	136.39	-30.28	-82.1	-30.22	-82.29	-35.18	-88.47
17.31	-27.83	134.97	-30.24	-82.36	-30.21	-82.65	-35.07	-100.91
17.41	-27.72	133.03	-30.07	-82.89	-30.09	-83.35	-36.1	-116.8
17.51	-27.69	131.45	-29.98	-84.07	-30.01	-84.47	-39.95	-120.05
17.61	-27.73	129.82	-29.89	-84.25	-29.94	-84.79	-43.02	-98.7
17.71	-27.85	129.02	-29.75	-85.58	-29.8	-85.91	-40.3	-78.99
17.81	-27.84	129.1	-29.7	-86.54	-29.74	-86.68	-38.72	-84.21
17.91	-27.71	128.85	-29.63	-87.7	-29.69	-87.57	-39.34	-99.09
18.01	-27.38	127.99	-29.58	-88.46	-29.61	-88.34	-41.93	-107.19
18.11	-27.24	125.83	-29.51	-89.27	-29.56	-89.03	-46.84	-96.98
18.21	-27.21	124.65	-29.44	-90.51	-29.47	-90.28	-47.23	-64.56
18.31	-27.13	123.56	-29.39	-91.64	-29.44	-91.57	-45.65	-43
18.41	-27.18	122.89	-29.34	-92.16	-29.37	-91.98	-42.98	-49.74
18.51	-27.24	123.19	-29.25	-93.71	-29.25	-93.49	-43.86	-48.74
18.61	-27.08	123.53	-29.27	-94.5	-29.28	-94.25	-44.36	-52.02
18.71	-27.02	124.15	-29.18	-95.36	-29.18	-95.04	-46.2	-44.35
18.81	-26.76	123.65	-29.06	-96.4	-29.08	-96.03	-47.47	-30.22
18.91	-26.69	122.38	-28.99	-97.52	-28.99	-97.19	-46.96	-0.21
19.01	-26.63	121.76	-28.92	-98.93	-28.96	-98.79	-43.76	5.14
19.11	-26.6	121.74	-28.95	-100.15	-28.98	-100.1	-42.44	6.21
19.21	-26.63	121.38	-28.91	-100.63	-28.9	-100.5	-41.83	2.81
19.31	-26.58	121.76	-28.72	-102.37	-28.7	-102.19	-42.36	11.75
19.41	-26.42	122.49	-28.79	-104.46	-28.81	-104.24	-40.73	21.34
19.51	-26.33	122.39	-28.81	-105.6	-28.8	-105.35	-39.21	25.93
19.61	-26.09	121.78	-28.84	-106.45	-28.86	-106.2	-37.99	20.89
19.71	-26.05	120.79	-28.78	-107.1	-28.79	-106.86	-37.79	22.14
19.81	-26.2	119.74	-28.54	-108.55	-28.55	-108.45	-37.09	22.87
19.91	-26.27	120.35	-28.62	-110.87	-28.64	-110.71	-36.15	24.83
20.01	-26.28	121.88	-28.71	-112.64	-28.71	-112.52	-34.99	23.41