!s2p File: Measurements: S11, S21, S12, S22								
# GHz S dB R 50.0								
0.01	-25.37	-0.11	-27.13	-0.27	-27.14	-0.12	-19.96	-1.86
0.11	-25.55	-1.55	-27.25	-1.24	-27.25	-1.25	-20.63	-3.7
0.21	-25.61	-1.85	-27.29	-1.77	-27.29	-1.78	-20.8	-4.17
0.31	-25.61	-2.35	-27.3	-2.34	-27.29	-2.36	-20.85	-4.9
0.41	-25.63	-2.94	-27.31	-2.97	-27.3	-2.96	-20.88	-5.76
0.51	-25.62	-3.46	-27.31	-3.6	-27.31	-3.6	-20.9	-6.73
0.61	-25.62	-3.98	-27.31	-4.23	-27.31	-4.23	-20.91	-7.74
0.71	-25.61	-4.62	-27.32	-4.87	-27.32	-4.85	-20.92	-8.78
0.81	-25.61	-5.19	-27.32	-5.53	-27.32	-5.53	-20.93	-9.86
0.91	-25.62	-5.8	-27.33	-6.18	-27.32	-6.16	-20.95	-10.93
1.01	-25.63	-6.41	-27.33	-6.84	-27.33	-6.79	-20.95	-11.99
1.11	-25.64	-7.04	-27.34	-7.48	-27.33	-7.48	-20.96	-13.11
1.21	-25.65	-7.68	-27.34	-8.15	-27.34	-8.11	-20.97	-14.19
1.31	-25.65	-8.46	-27.34	-8.82	-27.34	-8.79	-20.98	-15.35
1.41	-25.67	-9.24	-27.35	-9.47	-27.34	-9.44	-21	-16.51
1.51	-25.7	-9.94	-27.36	-10.12	-27.35	-10.09	-21.02	-17.57
1.61	-25.69	-10.58	-27.37	-10.77	-27.36	-10.76	-21.03	-18.63
1.71	-25.68	-11.37	-27.37	-11.39	-27.36	-11.38	-21.04	-19.81
1.81	-25.67	-12.33	-27.37	-12.07	-27.37	-12.06	-21.04	-21.03
1.91	-25.69	-13.16	-27.38	-12.68	-27.37	-12.73	-21.06	-22.2
2.01	-25.71	-13.9	-27.39	-13.38	-27.39	-13.38	-21.09	-23.36
2.11	-25.72	-14.66	-27.39	-14	-27.39	-14	-21.11	-24.52
2.21	-25.73	-15.43	-27.4	-14.66	-27.4	-14.68	-21.13	-25.63
2.31	-25.75	-16.18	-27.41	-15.33	-27.4	-15.32	-21.15	-26.78
2.41	-25.76	-17.01	-27.42	-15.97	-27.41	-15.96	-21.17	-27.91
2.51	-25.79	-17.68	-27.42	-16.59	-27.42	-16.61	-21.2	-29.06
2.61	-25.83	-18.36	-27.43	-17.24	-27.43	-17.26	-21.23	-30.2
2.71	-25.86	-18.94	-27.45	-17.91	-27.44	-17.91	-21.25	-31.33
2.81	-25.89	-19.5	-27.45	-18.57	-27.45	-18.54	-21.28	-32.47
2.91	-25.92	-20.17	-27.46	-19.21	-27.46	-19.21	-21.32	-33.55
3.01	-25.94	-20.89	-27.47	-19.86	-27.47	-19.83	-21.35	-34.63
3.11	-25.97	-21.64	-27.48	-20.5	-27.47	-20.48	-21.37	-35.75
3.21	-26.01	-22.44	-27.49	-21.14	-27.49	-21.1	-21.4	-36.87
3.31	-26.06	-23.19	-27.5	-21.76	-27.5	-21.74	-21.44	-38
3.41	-26.11	-23.89	-27.51	-22.42	-27.51	-22.4	-21.48	-39.08
3.51	-26.13	-24.6	-27.52	-23.05	-27.52	-23.02	-21.51	-40.18
3.61	-26.16	-25.44	-27.53	-23.69	-27.53	-23.71	-21.55	-41.3
3.71	-26.21	-26.3	-27.55	-24.34	-27.54	-24.31	-21.58	-42.42
3.81	-26.26	-27.27	-27.56	-24.96	-27.56	-24.98	-21.61	-43.61
3.91	-26.34	-28.02	-27.57	-25.6	-27.57	-25.56	-21.66	-44.82
4.01	-26.4	-28.69	-27.58	-26.22	-27.58	-26.24	-21.7	-45.94
4.11	-26.42	-29.4	-27.6	-26.91	-27.59	-26.86	-21.76	-47.01
4.21	-26.44	-30.21	-27.6	-27.51	-27.61	-27.49	-21.79	-47.99
4.31	-26.49	-31.26	-27.61	-28.13	-27.62	-28.14	-21.82	-49.14
4.41	-26.56	-32.36	-27.63	-28.77	-27.63	-28.76	-21.84	-50.31
4.51	-26.64	-33.14	-27.65	-29.4	-27.65	-29.37	-21.89	-51.54
4.61	-26.72	-33.76	-27.66	-30	-27.66	-30.04	-21.94	-52.74
4.71	-26.74	-34.33	-27.67	-30.68	-27.68	-30.62	-22	-53.86
4.81	-26.75	-35.04	-27.69	-31.29	-27.69	-31.28	-22.06	-54.89
4.91	-26.76	-36.07	-27.71	-31.89	-27.7	-31.88	-22.1	-55.86
5.01	-26.8	-37.09	-27.71	-32.53	-27.72	-32.51	-22.14	-56.9
5.11	-26.87	-38.11	-27.73	-33.14	-27.74	-33.12	-22.17	-58.03
5.21	-26.97	-38.88	-27.75	-33.79	-27.75	-33.75	-22.22	-59.18
5.31	-27.07	-39.56	-27.77	-34.41	-27.77	-34.36	-22.27	-60.4
5.41	-27.15	-40	-27.79	-35.06	-27.78	-34.97	-22.34	-61.58
5.51	-27.19	-40.64	-27.8	-35.65	-27.8	-35.67	-22.43	-62.6
5.61	-27.25	-41.53	-27.82	-36.32	-27.82	-36.26	-22.49	-63.54
5.71	-27.32	-42.54	-27.84	-36.93	-27.84	-36.85	-22.54	-64.57
5.81	-27.43	-43.6	-27.85	-37.45	-27.85	-37.47	-22.58	-65.57
5.91	-27.56	-44.53	-27.87	-38.15	-27.87	-38.12	-22.62	-66.72
6.01	-27.67	-45.37	-27.9	-38.76	-27.9	-38.73	-22.67	-67.91
6.11	-27.78	-45.98	-27.92	-39.39	-27.92	-39.34	-22.73	-69.05
6.21	-27.83	-46.77	-27.94	-39.96	-27.94	-39.9	-22.8	-70.12
6.31	-27.89	-47.61	-27.97	-40.57	-27.96	-40.52	-22.86	-71.1
6.41	-27.95	-48.58	-27.99	-41.12	-27.99	-41.15	-22.94	-72.14
6.51	-28.03	-49.72	-28.01	-41.71	-28.01	-41.69	-22.99	-73.06
6.61	-28.14	-50.83	-28.04	-42.35	-28.04	-42.28	-23.05	-74.2
6.71	-28.25	-51.85	-28.06	-42.88	-28.06	-42.87	-23.11	-75.34
6.81	-28.36	-52.75	-28.08	-43.48	-28.08	-43.41	-23.17	-76.51
6.91	-28.43	-53.64	-28.11	-44.01	-28.11	-43.99	-23.24	-77.72
7.01	-28.5	-54.5	-28.13	-44.6	-28.13	-44.59	-23.32	-78.74
7.11	-28.56	-55.55	-28.16	-45.13	-28.16	-45.15	-23.4	-79.75
7.21	-28.65	-56.64	-28.17	-45.69	-28.18	-45.69	-23.46	-80.6
7.31	-28.74	-57.64	-28.2	-46.41	-28.2	-46.39	-23.49	-81.59
7.41	-28.84	-58.47	-28.26	-47.01	-28.25	-47.02	-23.53	-82.64
7.51	-28.92	-59.43	-28.3	-47.45	-28.28	-47.45	-23.57	-83.85
7.61	-29.03	-60.22	-28.31	-47.96	-28.31	-47.88	-23.66	-85.03
7.71	-29.1	-61.1	-28.33	-48.47	-28.34	-48.44	-23.74	-86.15
7.81	-29.19	-61.95	-28.37	-48.92	-28.38	-48.93	-23.81	-87.2
7.91	-29.33	-62.82	-28.4	-49.43	-28.41	-49.39	-23.89	-88.21
8.01	-29.46	-64.04	-28.44	-49.96	-28.44	-49.92	-23.95	-89.26
8.11	-29.61	-65.08	-28.47	-50.37	-28.47	-50.34	-24	-90.5
8.21	-29.77	-66.18	-28.49	-50.89	-28.5	-50.85	-24.06	-91.75
8.31	-29.94	-67.21	-28.52	-51.41	-28.53	-51.35	-24.11	-92.93
8.41	-30.03	-68.24	-28.56	-51.77	-28.57	-51.81	-24.19	-94.18
8.51	-30.14	-69.59	-28.6	-52.18	-28.61	-52.15	-24.25	-95.37
8.61	-30.21	-71.02	-28.64	-52.49	-28.64	-52.46	-24.31	-96.54
8.71	-30.29	-72.62	-28.66	-52.85	-28.66	-52.74	-24.39	-97.79
8.81	-30.4	-74.19	-28.69	-53.25	-28.68	-53.19	-24.45	-98.95
8.91	-30.54	-75.85	-28.7	-53.62	-28.7	-53.59	-24.5	-100.3
9.01	-30.69	-77.21	-28.73	-54.03	-28.73	-53.95	-24.57	-101.69
9.11	-30.83	-78.7	-28.76	-54.29	-28.75	-54.2	-24.65	-102.95
9.21	-30.95	-80.03	-28.77	-54.58	-28.77	-54.52	-24.73	-104.42
9.31	-31.06	-81.48	-28.77	-54.92	-28.77	-54.81	-24.81	-105.74
9.41	-31.13	-82.95	-28.8	-55.21	-28.79	-55.18	-24.89	-107.13
9.51	-31.2	-84.48	-28.81	-55.49	-28.81	-55.46	-24.99	-108.54
9.61	-31.33	-86.34	-28.81	-55.83	-28.8	-55.71	-25.08	-109.81
9.71	-31.45	-87.98	-28.81	-56.14	-28.82	-56.07	-25.18	-111.28
9.81	-31.57	-89.53	-28.82	-56.39	-28.82	-56.38	-25.27	-112.69
9.91	-31.69	-90.75	-28.8	-56.8	-28.8	-56.72	-25.37	-114.2
10.01	-31.77	-92.16	-28.82	-57.13	-28.82	-57.05	-25.48	-115.67
10.11	-31.86	-93.46	-28.82	-57.45	-28.81	-57.33	-25.59	-117.24
10.21	-31.96	-95.04	-28.82	-57.62	-28.8	-57.58	-25.72	-118.99
10.31	-32.07	-96.81	-28.78	-58.02	-28.78	-57.97	-25.86	-120.48
10.41	-32.21	-98.78	-28.78	-58.38	-28.78	-58.33	-26.01	-121.86
10.51	-32.41	-100.72	-28.77	-58.67	-28.76	-58.69	-26.14	-123.26
10.61	-32.55	-103.09	-28.74	-59.08	-28.74	-59.02	-26.28	-124.75
10.71	-32.73	-105.05	-28.73	-59.59	-28.73	-59.49	-26.39	-126.27
10.81	-32.89	-107.07	-28.72	-60.09	-28.71	-59.94	-26.54	-128.05
10.91	-32.97	-109.51	-28.71	-60.46	-28.7	-60.32	-26.67	-129.78
11.01	-33.11	-111.55	-28.68	-60.8	-28.69	-60.72	-26.86	-131.77
11.11	-33.18	-113.84	-28.67	-61.24	-28.67	-61.22	-27.03	-133.26
11.21	-33.27	-116.21	-28.67	-61.72	-28.66	-61.71	-27.19	-134.84
11.31	-33.39	-117.95	-28.67	-62.12	-28.66	-62.09	-27.37	-136.2
11.41	-33.46	-120.52	-28.65	-62.54	-28.65	-62.51	-27.48	-137.72
11.51	-33.53	-122.29	-28.64	-63	-28.62	-62.83	-27.63	-139.5
11.61	-33.55	-124.25	-28.62	-63.41	-28.6	-63.32	-27.76	-141.36
11.71	-33.54	-126.48	-28.59	-63.86	-28.62	-63.82	-27.9	-143.21
11.81	-33.59	-129.26	-28.57	-64.25	-28.57	-64.24	-28.11	-145.47
11.91	-33.67	-132	-28.56	-64.82	-28.55	-64.77	-28.36	-147.1
12.01	-33.66	-134.31	-28.55	-65.23	-28.55	-65.31	-28.52	-148.53
12.11	-33.6	-136.13	-28.56	-65.94	-28.55	-65.92	-28.69	-150.29
12.21	-33.61	-138.28	-28.57	-66.11	-28.54	-66.1	-28.85	-151.74
12.31	-33.64	-140.43	-28.53	-66.58	-28.52	-66.55	-28.98	-153.61
12.41	-33.54	-142.56	-28.5	-67.21	-28.5	-67.04	-29.1	-155.14
12.51	-33.56	-145.47	-28.5	-67.61	-28.5	-67.49	-29.22	-157.83
12.61	-33.52	-147.43	-28.46	-68.01	-28.47	-68	-29.4	-160.17
12.71	-33.54	-150.67	-28.45	-68.52	-28.46	-68.51	-29.62	-162.48
12.81	-33.61	-153.54	-28.48	-68.87	-28.47	-68.9	-29.95	-164.63
12.91	-33.76	-156.32	-28.43	-69.4	-28.41	-69.39	-30.13	-166.43
13.01	-33.71	-158.31	-28.45	-69.95	-28.43	-69.9	-30.42	-168.33
13.11	-33.75	-160.87	-28.42	-70.45	-28.41	-70.39	-30.53	-170
13.21	-33.68	-162.66	-28.45	-70.67	-28.46	-70.59	-30.64	-171.86
13.31	-33.44	-165.4	-28.38	-71.08	-28.38	-70.91	-30.73	-175.17
13.41	-33.31	-167.98	-28.34	-71.41	-28.35	-71.36	-30.98	-177.56
13.51	-33.14	-170.92	-28.32	-72.09	-28.32	-72.01	-31.02	-179.95
13.61	-33.01	-173.09	-28.31	-72.53	-28.32	-72.52	-31.28	177.37
13.71	-32.98	-175.65	-28.28	-73.01	-28.27	-72.98	-31.42	174.75
13.81	-32.86	-176.9	-28.27	-73.46	-28.26	-73.53	-31.61	172.22
13.91	-32.73	-178.98	-28.25	-74.07	-28.23	-73.9	-31.69	169.99
14.01	-32.51	179.72	-28.22	-74.73	-28.22	-74.64	-31.85	167.59
14.11	-32.26	177.63	-28.21	-75.18	-28.22	-75.07	-31.77	164.37
14.21	-32.05	175.43	-28.2	-75.43	-28.22	-75.33	-31.87	160.95
14.31	-31.9	172.42	-28.13	-75.93	-28.14	-75.8	-31.99	157.77
14.41	-31.85	171.07	-28.12	-76.56	-28.13	-76.54	-32.08	153.94
14.51	-31.69	168.58	-28.12	-77.13	-28.12	-77.08	-32.28	151.12
14.61	-31.68	167.28	-28.12	-77.62	-28.1	-77.55	-32.43	148.61
14.71	-31.52	166.46	-28.07	-78.11	-28.06	-77.93	-32.51	146.47
14.81	-31.41	165.69	-28.06	-78.84	-28.06	-78.58	-32.49	143.79
14.91	-31.18	165.11	-28.07	-79.38	-28.07	-79.09	-32.44	140.74
15.01	-30.94	162.91	-28.03	-79.59	-28.04	-79.4	-32.37	136.81
15.11	-30.79	160.72	-28	-80.02	-28.01	-79.9	-32.43	133.76
15.21	-30.74	158.55	-27.97	-80.58	-27.97	-80.59	-32.5	130.09
15.31	-30.78	156.68	-27.97	-81.24	-27.95	-81.15	-32.57	127.28
15.41	-30.7	155.23	-27.98	-81.4	-27.96	-81.29	-32.49	124.09
15.51	-30.58	154.33	-27.93	-81.86	-27.9	-81.75	-32.54	121.46
15.61	-30.28	153.53	-27.88	-82.33	-27.88	-82.16	-32.43	119.46
15.71	-30	152.09	-27.84	-83	-27.84	-82.9	-32.16	116.62
15.81	-29.71	150.58	-27.84	-83.63	-27.84	-83.51	-32.05	113.66
15.91	-29.48	148.55	-27.82	-83.93	-27.82	-83.81	-31.94	110.65
16.01	-29.38	146.06	-27.78	-84.24	-27.78	-84.2	-31.85	108.12
16.11	-29.33	144.29	-27.74	-84.49	-27.72	-84.49	-31.73	105.79
16.21	-29.31	143.06	-27.67	-85.19	-27.65	-85.06	-31.56	104
16.31	-29.26	143.13	-27.63	-85.82	-27.61	-85.63	-31.38	101.18
16.41	-29.03	142.66	-27.59	-86.38	-27.57	-86.11	-31.22	99.08
16.51	-28.75	141.43	-27.55	-87.01	-27.53	-86.88	-31.11	96.9
16.61	-28.6	139.68	-27.52	-87.58	-27.49	-87.38	-30.92	95.13
16.71	-28.51	138.46	-27.47	-88.11	-27.45	-88.08	-30.6	94.73
16.81	-28.42	137.19	-27.47	-88.61	-27.43	-88.67	-30.14	91.58
16.91	-28.42	135.81	-27.42	-88.88	-27.36	-88.87	-29.7	89.16
17.01	-28.47	136.52	-27.34	-89.62	-27.29	-89.71	-29.43	84.2
17.11	-28.28	136.68	-27.32	-90.27	-27.25	-90.3	-29.42	78.66
17.21	-28.03	136.35	-27.27	-90.85	-27.22	-91	-30.38	76.08
17.31	-27.78	135.06	-27.24	-91.09	-27.22	-91.41	-30.47	80.97
17.41	-27.67	133.35	-27.11	-91.61	-27.12	-92.09	-29.63	86.47
17.51	-27.62	132.06	-27.04	-92.59	-27.07	-93.04	-28.27	82.21
17.61	-27.61	130.31	-26.97	-92.87	-27.02	-93.41	-27.74	75.9
17.71	-27.73	129.41	-26.87	-94	-26.92	-94.26	-27.93	69.31
17.81	-27.69	129.15	-26.84	-94.77	-26.87	-95.02	-28.33	67.53
17.91	-27.59	128.91	-26.8	-95.82	-26.85	-95.77	-28.32	69.92
18.01	-27.3	127.97	-26.75	-96.59	-26.79	-96.33	-27.75	70.59
18.11	-27.18	126.03	-26.7	-97.24	-26.76	-96.99	-27.06	68.43
18.21	-27.11	125	-26.65	-98.23	-26.68	-98.09	-26.74	64.61
18.31	-27.02	124.19	-26.6	-99.14	-26.65	-98.98	-26.43	61.56
18.41	-26.99	123.32	-26.57	-99.64	-26.6	-99.6	-26.63	58.44
18.51	-27.04	123.16	-26.51	-100.86	-26.52	-100.76	-26.48	57.71
18.61	-26.91	123.3	-26.53	-101.64	-26.52	-101.42	-26.51	56.7
18.71	-26.89	123.75	-26.46	-102.39	-26.46	-102.19	-26.33	56.61
18.81	-26.67	123.3	-26.37	-103.3	-26.38	-103.02	-26.09	56.2
18.91	-26.59	122.24	-26.31	-104.21	-26.32	-104.06	-25.68	55.48
19.01	-26.53	121.72	-26.26	-105.44	-26.3	-105.36	-25.4	53
19.11	-26.47	121.71	-26.27	-106.39	-26.29	-106.35	-25.24	51.25
19.21	-26.48	121.22	-26.24	-106.99	-26.24	-106.82	-25.19	49.6
19.31	-26.43	121.33	-26.12	-108.2	-26.1	-108.12	-25.04	49.73
19.41	-26.29	121.88	-26.16	-109.83	-26.16	-109.73	-24.71	48.69
19.51	-26.23	121.72	-26.17	-110.92	-26.15	-110.61	-24.42	47.5
19.61	-26.02	121.3	-26.18	-111.74	-26.2	-111.48	-24.27	45.06
19.71	-25.98	120.61	-26.14	-112.36	-26.15	-112.09	-24.2	44.5
19.81	-26.1	119.42	-25.97	-113.52	-25.98	-113.41	-23.96	43.12
19.91	-26.16	120.08	-26.02	-115.25	-26.04	-115.21	-23.72	42.09
20.01	-26.17	121.45	-26.1	-116.58	-26.08	-116.53	-23.45	40.26