!s2p File: Measurements: S11, S21, S12, S22								
# GHz S dB R 50.0								
0.01	-25.43	-0.14	-21.49	-0.31	-21.5	-0.29	-35.59	-6.15
0.11	-25.61	-1.55	-21.6	-1.39	-21.6	-1.38	-39.22	-23.59
0.21	-25.67	-1.86	-21.64	-2.03	-21.64	-1.99	-41.31	-21.43
0.31	-25.69	-2.32	-21.65	-2.66	-21.65	-2.67	-42.22	-17.52
0.41	-25.7	-2.87	-21.66	-3.37	-21.66	-3.38	-42.69	-14.78
0.51	-25.68	-3.4	-21.67	-4.12	-21.66	-4.11	-43.04	-12.74
0.61	-25.69	-3.9	-21.67	-4.84	-21.66	-4.83	-43.23	-11.33
0.71	-25.68	-4.5	-21.67	-5.58	-21.67	-5.59	-43.37	-9.98
0.81	-25.68	-5.07	-21.68	-6.35	-21.67	-6.33	-43.49	-9.21
0.91	-25.7	-5.65	-21.68	-7.08	-21.68	-7.08	-43.71	-8.36
1.01	-25.7	-6.24	-21.68	-7.83	-21.68	-7.83	-43.85	-7.31
1.11	-25.71	-6.86	-21.69	-8.58	-21.68	-8.6	-43.98	-6.79
1.21	-25.72	-7.5	-21.69	-9.35	-21.69	-9.34	-44.09	-6.26
1.31	-25.72	-8.22	-21.7	-10.09	-21.7	-10.1	-44.22	-6.45
1.41	-25.74	-8.99	-21.7	-10.86	-21.7	-10.86	-44.5	-6.77
1.51	-25.77	-9.67	-21.71	-11.62	-21.71	-11.61	-44.84	-5.24
1.61	-25.75	-10.31	-21.71	-12.37	-21.71	-12.37	-44.91	-3.94
1.71	-25.74	-11.1	-21.72	-13.12	-21.72	-13.12	-45.04	-4.51
1.81	-25.74	-12.04	-21.73	-13.86	-21.72	-13.88	-45.21	-5.18
1.91	-25.75	-12.84	-21.73	-14.61	-21.73	-14.61	-45.51	-5.72
2.01	-25.77	-13.59	-21.74	-15.39	-21.73	-15.38	-45.97	-5.39
2.11	-25.78	-14.31	-21.75	-16.13	-21.74	-16.15	-46.34	-4.87
2.21	-25.79	-15.06	-21.75	-16.88	-21.75	-16.88	-46.72	-3.35
2.31	-25.81	-15.81	-21.76	-17.63	-21.76	-17.63	-47.14	-2.21
2.41	-25.82	-16.6	-21.77	-18.39	-21.77	-18.37	-47.54	-1.23
2.51	-25.85	-17.28	-21.77	-19.13	-21.77	-19.13	-48.04	0.21
2.61	-25.88	-17.97	-21.79	-19.87	-21.78	-19.87	-48.74	2.86
2.71	-25.91	-18.55	-21.79	-20.62	-21.79	-20.61	-49.27	5.64
2.81	-25.95	-19.07	-21.8	-21.36	-21.8	-21.35	-50	10.36
2.91	-25.97	-19.72	-21.81	-22.1	-21.81	-22.09	-50.43	15.66
3.01	-25.99	-20.39	-21.82	-22.85	-21.82	-22.83	-50.74	21.46
3.11	-26.02	-21.15	-21.83	-23.59	-21.83	-23.58	-51.18	26.93
3.21	-26.06	-21.89	-21.84	-24.33	-21.83	-24.34	-51.39	34.86
3.31	-26.11	-22.63	-21.85	-25.08	-21.84	-25.07	-51.69	43.06
3.41	-26.15	-23.31	-21.86	-25.81	-21.85	-25.8	-51.33	51.63
3.51	-26.18	-24.09	-21.86	-26.55	-21.86	-26.54	-50.89	59.11
3.61	-26.21	-24.81	-21.88	-27.28	-21.87	-27.29	-50.43	66.12
3.71	-26.26	-25.69	-21.89	-28.04	-21.89	-28.04	-49.95	71.57
3.81	-26.31	-26.61	-21.9	-28.77	-21.9	-28.77	-49.5	77.85
3.91	-26.38	-27.38	-21.91	-29.51	-21.91	-29.52	-48.9	83.96
4.01	-26.44	-28.02	-21.92	-30.26	-21.92	-30.25	-47.88	88.48
4.11	-26.46	-28.71	-21.93	-30.99	-21.93	-30.96	-46.88	92.03
4.21	-26.49	-29.54	-21.94	-31.73	-21.94	-31.7	-46.01	92.34
4.31	-26.54	-30.6	-21.95	-32.43	-21.95	-32.42	-45.46	93.34
4.41	-26.6	-31.61	-21.97	-33.18	-21.97	-33.15	-45.04	94.93
4.51	-26.68	-32.37	-21.98	-33.89	-21.98	-33.92	-44.54	97.35
4.61	-26.76	-32.98	-22	-34.63	-21.99	-34.64	-43.82	99.69
4.71	-26.77	-33.54	-22.01	-35.39	-22.01	-35.38	-42.98	100.83
4.81	-26.78	-34.27	-22.02	-36.13	-22.02	-36.1	-42.22	100.55
4.91	-26.79	-35.22	-22.04	-36.85	-22.03	-36.82	-41.62	99.73
5.01	-26.83	-36.24	-22.04	-37.58	-22.05	-37.55	-41.11	99.29
5.11	-26.91	-37.18	-22.06	-38.29	-22.06	-38.26	-40.77	99.14
5.21	-27.01	-37.97	-22.08	-39.02	-22.07	-39	-40.29	99.15
5.31	-27.09	-38.59	-22.1	-39.75	-22.09	-39.71	-39.83	99.99
5.41	-27.17	-39.1	-22.11	-40.47	-22.11	-40.44	-39.26	100.44
5.51	-27.21	-39.68	-22.13	-41.19	-22.11	-41.17	-38.63	99.94
5.61	-27.27	-40.52	-22.14	-41.94	-22.14	-41.92	-38.1	98.91
5.71	-27.35	-41.54	-22.15	-42.67	-22.15	-42.62	-37.7	97.87
5.81	-27.45	-42.6	-22.17	-43.37	-22.17	-43.34	-37.35	96.78
5.91	-27.57	-43.38	-22.19	-44.08	-22.19	-44.08	-37.11	96.16
6.01	-27.69	-44.2	-22.2	-44.82	-22.2	-44.79	-36.81	96.12
6.11	-27.78	-44.85	-22.23	-45.54	-22.23	-45.51	-36.44	95.93
6.21	-27.84	-45.53	-22.25	-46.23	-22.25	-46.23	-36.03	95.1
6.31	-27.9	-46.44	-22.26	-46.96	-22.26	-46.93	-35.67	94.04
6.41	-27.96	-47.4	-22.29	-47.65	-22.28	-47.65	-35.28	93.35
6.51	-28.03	-48.52	-22.31	-48.32	-22.31	-48.32	-34.99	92.04
6.61	-28.14	-49.53	-22.33	-49.04	-22.32	-49.04	-34.72	91.47
6.71	-28.25	-50.45	-22.35	-49.75	-22.34	-49.73	-34.47	90.8
6.81	-28.36	-51.37	-22.37	-50.44	-22.36	-50.42	-34.18	90.32
6.91	-28.43	-52.19	-22.39	-51.13	-22.38	-51.12	-33.9	90.05
7.01	-28.48	-53.09	-22.41	-51.84	-22.41	-51.8	-33.59	89.13
7.11	-28.54	-54.12	-22.43	-52.49	-22.43	-52.5	-33.32	88.12
7.21	-28.64	-55.19	-22.45	-53.2	-22.45	-53.19	-33.07	86.76
7.31	-28.72	-56.09	-22.47	-53.98	-22.47	-53.96	-32.94	85.54
7.41	-28.81	-56.91	-22.51	-54.68	-22.51	-54.67	-32.8	84.52
7.51	-28.9	-57.85	-22.54	-55.28	-22.53	-55.27	-32.64	84.07
7.61	-28.99	-58.6	-22.55	-55.95	-22.56	-55.9	-32.4	83.47
7.71	-29.06	-59.45	-22.58	-56.61	-22.58	-56.54	-32.18	82.76
7.81	-29.15	-60.32	-22.6	-57.21	-22.61	-57.22	-31.96	81.95
7.91	-29.27	-61.15	-22.63	-57.91	-22.64	-57.87	-31.74	80.88
8.01	-29.42	-62.29	-22.67	-58.54	-22.67	-58.49	-31.59	80.02
8.11	-29.56	-63.31	-22.69	-59.13	-22.69	-59.11	-31.47	79.6
8.21	-29.71	-64.34	-22.72	-59.77	-22.72	-59.75	-31.34	79.06
8.31	-29.85	-65.32	-22.74	-60.42	-22.75	-60.4	-31.2	78.48
8.41	-29.94	-66.39	-22.77	-61.03	-22.78	-60.99	-31.04	78
8.51	-30.04	-67.63	-22.81	-61.59	-22.82	-61.53	-30.9	77.53
8.61	-30.12	-69.15	-22.84	-62.12	-22.84	-62.07	-30.76	76.92
8.71	-30.21	-70.73	-22.86	-62.68	-22.86	-62.6	-30.63	76.48
8.81	-30.32	-72.19	-22.89	-63.23	-22.89	-63.18	-30.49	75.79
8.91	-30.44	-73.85	-22.91	-63.76	-22.91	-63.74	-30.39	75.46
9.01	-30.6	-75.15	-22.93	-64.35	-22.94	-64.25	-30.27	75.34
9.11	-30.73	-76.64	-22.96	-64.82	-22.96	-64.76	-30.11	74.88
9.21	-30.85	-77.9	-22.98	-65.34	-22.98	-65.27	-29.95	74.75
9.31	-30.94	-79.38	-22.99	-65.84	-22.99	-65.78	-29.8	74.44
9.41	-31.04	-80.86	-23.01	-66.37	-23.01	-66.32	-29.66	74.11
9.51	-31.09	-82.36	-23.04	-66.85	-23.03	-66.81	-29.49	73.72
9.61	-31.23	-84.18	-23.05	-67.37	-23.04	-67.27	-29.33	73.23
9.71	-31.33	-85.87	-23.06	-67.88	-23.06	-67.79	-29.15	72.85
9.81	-31.46	-87.37	-23.07	-68.34	-23.06	-68.3	-28.98	72.56
9.91	-31.57	-88.57	-23.07	-68.89	-23.07	-68.82	-28.8	72.24
10.01	-31.65	-89.94	-23.08	-69.4	-23.08	-69.34	-28.63	71.98
10.11	-31.74	-91.17	-23.09	-69.86	-23.08	-69.8	-28.45	71.75
10.21	-31.84	-92.78	-23.1	-70.32	-23.09	-70.3	-28.24	71.46
10.31	-31.96	-94.63	-23.1	-70.87	-23.1	-70.79	-28.05	70.93
10.41	-32.09	-96.53	-23.1	-71.36	-23.1	-71.32	-27.84	70.25
10.51	-32.29	-98.33	-23.1	-71.84	-23.1	-71.81	-27.65	69.61
10.61	-32.45	-100.65	-23.1	-72.41	-23.09	-72.38	-27.47	68.95
10.71	-32.63	-102.44	-23.1	-73	-23.09	-72.93	-27.31	68.35
10.81	-32.76	-104.49	-23.09	-73.59	-23.09	-73.5	-27.12	67.92
10.91	-32.89	-106.96	-23.09	-74.14	-23.09	-74.05	-26.95	67.48
11.01	-33.04	-109.08	-23.09	-74.65	-23.09	-74.56	-26.72	67.03
11.11	-33.13	-111.27	-23.08	-75.22	-23.09	-75.19	-26.55	66.2
11.21	-33.23	-113.61	-23.09	-75.77	-23.09	-75.75	-26.39	65.47
11.31	-33.38	-115.28	-23.1	-76.31	-23.09	-76.32	-26.22	64.6
11.41	-33.44	-117.66	-23.09	-76.91	-23.09	-76.85	-26.1	63.77
11.51	-33.49	-119.35	-23.09	-77.47	-23.08	-77.37	-25.94	63.15
11.61	-33.52	-121.41	-23.09	-78.06	-23.07	-77.9	-25.79	62.59
11.71	-33.52	-123.81	-23.07	-78.64	-23.09	-78.57	-25.65	61.94
11.81	-33.57	-126.49	-23.07	-79.16	-23.08	-79.08	-25.47	61.35
11.91	-33.7	-129.29	-23.07	-79.76	-23.08	-79.72	-25.29	60.29
12.01	-33.68	-131.49	-23.07	-80.33	-23.07	-80.32	-25.18	59.37
12.11	-33.66	-133.29	-23.08	-81.04	-23.08	-81	-25.04	58.55
12.21	-33.63	-135.36	-23.09	-81.51	-23.07	-81.47	-24.93	57.54
12.31	-33.68	-137.48	-23.08	-82.1	-23.08	-82.01	-24.83	56.78
12.41	-33.57	-139.71	-23.07	-82.77	-23.07	-82.58	-24.75	55.94
12.51	-33.6	-142.59	-23.07	-83.33	-23.07	-83.17	-24.62	55.56
12.61	-33.58	-144.64	-23.06	-83.84	-23.07	-83.75	-24.48	54.91
12.71	-33.65	-147.92	-23.06	-84.43	-23.06	-84.4	-24.32	54.22
12.81	-33.75	-150.75	-23.07	-84.97	-23.07	-85.01	-24.14	52.96
12.91	-33.91	-153.29	-23.06	-85.57	-23.05	-85.53	-24.05	52.03
13.01	-33.87	-155.32	-23.06	-86.24	-23.06	-86.22	-23.91	50.92
13.11	-33.93	-157.87	-23.06	-86.87	-23.05	-86.79	-23.87	49.99
13.21	-33.85	-159.61	-23.1	-87.36	-23.1	-87.16	-23.8	49.43
13.31	-33.6	-162.53	-23.06	-87.83	-23.06	-87.7	-23.66	48.95
13.41	-33.48	-165.16	-23.05	-88.36	-23.06	-88.28	-23.53	47.92
13.51	-33.31	-168.28	-23.03	-88.99	-23.04	-88.91	-23.47	47.4
13.61	-33.23	-170.44	-23.04	-89.57	-23.03	-89.51	-23.34	46.32
13.71	-33.2	-172.85	-23.02	-90.13	-23.02	-90.14	-23.26	45.68
13.81	-33.09	-174.25	-23.03	-90.75	-23.02	-90.73	-23.16	44.76
13.91	-32.94	-176.34	-23.02	-91.38	-23.01	-91.26	-23.11	43.94
14.01	-32.73	-177.54	-23	-92.1	-23	-91.95	-23.04	43.09
14.11	-32.46	-179.87	-23	-92.65	-23.02	-92.52	-22.97	42.84
14.21	-32.25	177.79	-23.01	-93.16	-23.02	-92.97	-22.85	42.15
14.31	-32.09	174.55	-22.98	-93.65	-22.99	-93.58	-22.75	41.36
14.41	-32.08	173.12	-22.97	-94.35	-22.97	-94.32	-22.63	40.64
14.51	-31.94	170.65	-22.97	-95.01	-22.97	-94.93	-22.56	39.63
14.61	-31.95	169.47	-22.99	-95.62	-22.97	-95.53	-22.5	38.68
14.71	-31.78	168.65	-22.96	-96.18	-22.95	-96	-22.47	37.84
14.81	-31.63	167.95	-22.96	-96.95	-22.96	-96.73	-22.43	37.23
14.91	-31.39	167.29	-22.96	-97.56	-22.96	-97.37	-22.36	36.65
15.01	-31.17	164.9	-22.96	-97.98	-22.96	-97.8	-22.24	36.12
15.11	-31.02	162.68	-22.94	-98.54	-22.94	-98.42	-22.18	35.22
15.21	-31	160.45	-22.93	-99.19	-22.93	-99.14	-22.08	34.31
15.31	-31.06	158.63	-22.94	-99.84	-22.92	-99.7	-22.03	33.47
15.41	-30.96	157.53	-22.95	-100.3	-22.93	-100.18	-21.97	32.84
15.51	-30.83	156.55	-22.94	-100.87	-22.91	-100.64	-21.91	31.97
15.61	-30.5	155.73	-22.92	-101.43	-22.91	-101.18	-21.89	31.39
15.71	-30.21	154.16	-22.88	-102.14	-22.89	-101.91	-21.84	30.98
15.81	-29.94	152.27	-22.89	-102.74	-22.89	-102.58	-21.77	30.37
15.91	-29.7	150.3	-22.89	-103.19	-22.89	-103.16	-21.7	29.59
16.01	-29.62	147.75	-22.88	-103.7	-22.87	-103.65	-21.67	28.9
16.11	-29.57	146.1	-22.88	-104.1	-22.86	-104.08	-21.64	28.26
16.21	-29.59	145.02	-22.85	-104.77	-22.82	-104.67	-21.63	27.73
16.31	-29.5	145.03	-22.83	-105.38	-22.8	-105.21	-21.56	27.31
16.41	-29.25	144.54	-22.8	-105.96	-22.78	-105.72	-21.51	26.71
16.51	-28.96	143.26	-22.78	-106.68	-22.76	-106.5	-21.49	26.02
16.61	-28.82	141.49	-22.76	-107.32	-22.74	-107.1	-21.46	25.61
16.71	-28.74	140.19	-22.74	-107.8	-22.72	-107.74	-21.49	25.61
16.81	-28.67	138.99	-22.74	-108.41	-22.71	-108.42	-21.36	25.51
16.91	-28.66	137.88	-22.73	-108.82	-22.67	-108.78	-21.27	25.65
17.01	-28.69	138.7	-22.68	-109.47	-22.63	-109.5	-21.04	24.9
17.11	-28.48	138.94	-22.69	-110.07	-22.61	-110.1	-20.86	23.42
17.21	-28.2	138.47	-22.64	-110.6	-22.59	-110.83	-20.98	20.72
17.31	-27.93	137.08	-22.62	-111.1	-22.6	-111.43	-21.25	20.78
17.41	-27.83	135.32	-22.53	-111.57	-22.55	-112.05	-21.41	22.94
17.51	-27.8	134.04	-22.49	-112.49	-22.5	-112.91	-20.99	24.52
17.61	-27.81	132.46	-22.44	-112.88	-22.48	-113.4	-20.59	23.75
17.71	-27.92	131.61	-22.38	-113.9	-22.42	-114.14	-20.39	20.86
17.81	-27.87	131.65	-22.37	-114.69	-22.39	-114.83	-20.48	19.03
17.91	-27.76	131.47	-22.34	-115.71	-22.38	-115.56	-20.69	19.06
18.01	-27.43	130.4	-22.32	-116.43	-22.36	-116.3	-20.65	20.08
18.11	-27.3	128.42	-22.3	-117.13	-22.34	-116.9	-20.41	20.47
18.21	-27.25	127.48	-22.26	-118.02	-22.29	-117.82	-20.19	19.57
18.31	-27.16	126.54	-22.23	-118.84	-22.26	-118.73	-20.02	18.75
18.41	-27.14	125.95	-22.21	-119.44	-22.24	-119.4	-20.01	16.96
18.51	-27.16	126.04	-22.18	-120.45	-22.19	-120.35	-20	16.63
18.61	-27.02	126.21	-22.21	-121.28	-22.2	-121.01	-20.03	15.81
18.71	-26.94	126.89	-22.17	-121.98	-22.17	-121.76	-20.02	15.73
18.81	-26.69	126.36	-22.12	-122.79	-22.14	-122.5	-19.98	15.71
18.91	-26.58	125.36	-22.09	-123.7	-22.09	-123.51	-19.86	15.92
19.01	-26.5	124.82	-22.06	-124.68	-22.08	-124.53	-19.69	15.16
19.11	-26.43	124.72	-22.08	-125.45	-22.09	-125.39	-19.63	14.39
19.21	-26.41	124.42	-22.07	-126.15	-22.06	-126.02	-19.58	13.56
19.31	-26.33	124.71	-22	-127.14	-21.99	-127.04	-19.57	13.5
19.41	-26.13	125.17	-22.04	-128.45	-22.03	-128.26	-19.44	13.31
19.51	-26.01	125.07	-22.06	-129.31	-22.04	-129.08	-19.32	12.82
19.61	-25.78	124.25	-22.07	-130.03	-22.08	-129.81	-19.24	11.69
19.71	-25.71	123.48	-22.05	-130.65	-22.06	-130.49	-19.23	11.32
19.81	-25.79	122.64	-21.98	-131.59	-21.98	-131.52	-19.12	10.71
19.91	-25.8	122.89	-22	-132.72	-22.01	-132.63	-19.04	10.23
20.01	-25.73	124.08	-22.05	-133.7	-22.02	-133.63	-18.91	9.51