!s2p File: Measurements: S11, S21, S12, S22								
# GHz S dB R 50.0								
0.01	-25.4	-0.21	-21.07	-0.31	-21.07	-0.4	-28.22	-3.72
0.11	-25.58	-1.54	-21.2	-1.33	-21.19	-1.34	-29.89	-7.76
0.21	-25.65	-1.87	-21.23	-1.97	-21.23	-1.95	-30.37	-6.92
0.31	-25.65	-2.33	-21.24	-2.63	-21.24	-2.64	-30.53	-6.5
0.41	-25.67	-2.91	-21.25	-3.34	-21.25	-3.33	-30.62	-6.64
0.51	-25.66	-3.42	-21.25	-4.04	-21.25	-4.05	-30.68	-6.98
0.61	-25.66	-3.93	-21.26	-4.8	-21.25	-4.8	-30.72	-7.44
0.71	-25.65	-4.53	-21.26	-5.56	-21.26	-5.54	-30.75	-7.96
0.81	-25.65	-5.1	-21.27	-6.28	-21.26	-6.28	-30.77	-8.64
0.91	-25.67	-5.71	-21.27	-7.04	-21.26	-7.02	-30.82	-9.3
1.01	-25.67	-6.29	-21.27	-7.77	-21.27	-7.77	-30.85	-9.9
1.11	-25.68	-6.89	-21.28	-8.52	-21.27	-8.52	-30.87	-10.63
1.21	-25.69	-7.56	-21.28	-9.28	-21.28	-9.25	-30.9	-11.37
1.31	-25.7	-8.3	-21.29	-10.02	-21.28	-10.01	-30.92	-12.24
1.41	-25.72	-9.07	-21.29	-10.79	-21.29	-10.76	-30.99	-13.17
1.51	-25.74	-9.74	-21.3	-11.53	-21.3	-11.52	-31.05	-13.76
1.61	-25.73	-10.38	-21.3	-12.28	-21.3	-12.28	-31.07	-14.36
1.71	-25.71	-11.16	-21.31	-13.03	-21.31	-13	-31.09	-15.33
1.81	-25.71	-12.1	-21.32	-13.76	-21.31	-13.77	-31.12	-16.42
1.91	-25.73	-12.93	-21.32	-14.51	-21.32	-14.51	-31.17	-17.38
2.01	-25.74	-13.67	-21.33	-15.24	-21.33	-15.27	-31.25	-18.27
2.11	-25.76	-14.4	-21.34	-16	-21.33	-16.01	-31.32	-19.12
2.21	-25.77	-15.15	-21.35	-16.74	-21.34	-16.73	-31.39	-19.93
2.31	-25.79	-15.89	-21.35	-17.48	-21.35	-17.49	-31.47	-20.68
2.41	-25.8	-16.72	-21.37	-18.24	-21.36	-18.22	-31.54	-21.58
2.51	-25.83	-17.37	-21.37	-18.97	-21.37	-18.96	-31.63	-22.37
2.61	-25.86	-18.07	-21.38	-19.72	-21.37	-19.7	-31.72	-23.16
2.71	-25.89	-18.65	-21.39	-20.45	-21.38	-20.43	-31.82	-23.95
2.81	-25.92	-19.19	-21.39	-21.17	-21.39	-21.18	-31.94	-24.67
2.91	-25.95	-19.83	-21.41	-21.91	-21.4	-21.9	-32.04	-25.27
3.01	-25.97	-20.52	-21.42	-22.64	-21.41	-22.63	-32.14	-25.78
3.11	-26	-21.28	-21.43	-23.37	-21.42	-23.39	-32.25	-26.52
3.21	-26.05	-22.02	-21.44	-24.11	-21.43	-24.11	-32.36	-27.19
3.31	-26.09	-22.77	-21.45	-24.87	-21.44	-24.85	-32.49	-27.88
3.41	-26.14	-23.49	-21.45	-25.57	-21.45	-25.57	-32.63	-28.34
3.51	-26.16	-24.22	-21.47	-26.29	-21.46	-26.31	-32.77	-28.81
3.61	-26.19	-24.98	-21.48	-27.04	-21.48	-27.02	-32.9	-29.4
3.71	-26.24	-25.85	-21.49	-27.77	-21.49	-27.78	-33.01	-30.05
3.81	-26.3	-26.77	-21.5	-28.5	-21.5	-28.51	-33.15	-30.76
3.91	-26.36	-27.52	-21.51	-29.22	-21.51	-29.22	-33.34	-31.62
4.01	-26.42	-28.16	-21.52	-29.96	-21.52	-29.97	-33.55	-32.02
4.11	-26.43	-28.86	-21.53	-30.69	-21.53	-30.69	-33.72	-32.24
4.21	-26.47	-29.7	-21.54	-31.43	-21.54	-31.42	-33.85	-32.2
4.31	-26.51	-30.75	-21.55	-32.12	-21.56	-32.13	-33.97	-32.71
4.41	-26.58	-31.82	-21.57	-32.83	-21.57	-32.84	-34.11	-33.4
4.51	-26.67	-32.59	-21.59	-33.55	-21.59	-33.58	-34.3	-34.12
4.61	-26.74	-33.17	-21.6	-34.3	-21.6	-34.3	-34.51	-34.56
4.71	-26.76	-33.74	-21.61	-35.04	-21.61	-35.01	-34.79	-34.7
4.81	-26.77	-34.45	-21.63	-35.76	-21.62	-35.74	-35.01	-34.39
4.91	-26.78	-35.45	-21.64	-36.46	-21.64	-36.44	-35.16	-33.89
5.01	-26.82	-36.43	-21.65	-37.19	-21.65	-37.13	-35.33	-33.64
5.11	-26.9	-37.42	-21.67	-37.88	-21.67	-37.87	-35.45	-33.86
5.21	-26.99	-38.19	-21.68	-38.6	-21.68	-38.59	-35.64	-33.97
5.31	-27.08	-38.8	-21.7	-39.33	-21.7	-39.32	-35.91	-34.18
5.41	-27.15	-39.27	-21.72	-40.04	-21.72	-39.99	-36.24	-33.77
5.51	-27.2	-39.91	-21.73	-40.74	-21.73	-40.73	-36.55	-32.66
5.61	-27.25	-40.73	-21.75	-41.48	-21.75	-41.46	-36.75	-31.38
5.71	-27.34	-41.72	-21.77	-42.18	-21.76	-42.16	-36.9	-30.31
5.81	-27.44	-42.78	-21.78	-42.83	-21.78	-42.85	-37.03	-29.27
5.91	-27.56	-43.64	-21.8	-43.58	-21.8	-43.57	-37.18	-29.09
6.01	-27.67	-44.4	-21.82	-44.28	-21.82	-44.29	-37.39	-28.7
6.11	-27.77	-45.09	-21.84	-45	-21.84	-44.98	-37.66	-27.78
6.21	-27.84	-45.82	-21.86	-45.69	-21.86	-45.68	-37.84	-26.03
6.31	-27.89	-46.69	-21.88	-46.38	-21.88	-46.38	-37.96	-24.37
6.41	-27.95	-47.63	-21.9	-47.08	-21.9	-47.08	-38.14	-22.41
6.51	-28.03	-48.79	-21.92	-47.75	-21.92	-47.75	-38.19	-20.56
6.61	-28.14	-49.8	-21.94	-48.47	-21.93	-48.43	-38.31	-19.17
6.71	-28.25	-50.75	-21.96	-49.15	-21.95	-49.12	-38.41	-17.87
6.81	-28.35	-51.63	-21.98	-49.83	-21.98	-49.81	-38.57	-16.23
6.91	-28.41	-52.45	-22	-50.5	-22	-50.46	-38.73	-14.5
7.01	-28.48	-53.41	-22.02	-51.17	-22.02	-51.14	-38.78	-12.16
7.11	-28.54	-54.39	-22.04	-51.82	-22.04	-51.82	-38.75	-9.84
7.21	-28.62	-55.45	-22.06	-52.5	-22.06	-52.51	-38.56	-7.75
7.31	-28.71	-56.34	-22.09	-53.26	-22.08	-53.24	-38.43	-7.15
7.41	-28.81	-57.2	-22.13	-53.96	-22.12	-53.93	-38.3	-6.38
7.51	-28.89	-58.11	-22.15	-54.53	-22.15	-54.51	-38.34	-5.6
7.61	-28.99	-58.88	-22.17	-55.21	-22.17	-55.15	-38.33	-3.51
7.71	-29.06	-59.72	-22.19	-55.83	-22.19	-55.78	-38.27	-1.7
7.81	-29.14	-60.68	-22.22	-56.41	-22.23	-56.45	-38.15	-0.15
7.91	-29.27	-61.47	-22.25	-57.08	-22.25	-57.07	-37.99	1.55
8.01	-29.4	-62.64	-22.28	-57.7	-22.28	-57.71	-37.84	2.49
8.11	-29.54	-63.67	-22.31	-58.32	-22.3	-58.26	-37.82	3.09
8.21	-29.72	-64.75	-22.33	-58.92	-22.33	-58.9	-37.8	3.76
8.31	-29.86	-65.7	-22.35	-59.52	-22.36	-59.51	-37.76	4.53
8.41	-29.94	-66.72	-22.38	-60.1	-22.39	-60.08	-37.71	6.04
8.51	-30.04	-68.03	-22.42	-60.69	-22.42	-60.63	-37.64	6.73
8.61	-30.11	-69.49	-22.44	-61.22	-22.45	-61.17	-37.56	7.55
8.71	-30.19	-71.11	-22.46	-61.74	-22.47	-61.65	-37.47	8.61
8.81	-30.3	-72.64	-22.5	-62.28	-22.49	-62.23	-37.36	9.46
8.91	-30.43	-74.17	-22.51	-62.81	-22.51	-62.76	-37.36	10.11
9.01	-30.58	-75.5	-22.54	-63.37	-22.54	-63.28	-37.36	11.22
9.11	-30.72	-77.06	-22.56	-63.82	-22.56	-63.8	-37.27	12.54
9.21	-30.84	-78.4	-22.58	-64.32	-22.58	-64.26	-37.25	14.02
9.31	-30.94	-79.75	-22.59	-64.83	-22.59	-64.77	-37.16	15.38
9.41	-31.01	-81.31	-22.61	-65.34	-22.61	-65.27	-37.07	16.7
9.51	-31.08	-82.81	-22.63	-65.82	-22.62	-65.8	-36.94	18.31
9.61	-31.21	-84.59	-22.64	-66.33	-22.63	-66.24	-36.74	19.6
9.71	-31.34	-86.32	-22.64	-66.83	-22.65	-66.76	-36.56	21.17
9.81	-31.47	-87.87	-22.65	-67.26	-22.65	-67.28	-36.39	22.68
9.91	-31.56	-89.04	-22.66	-67.79	-22.66	-67.76	-36.23	24.34
10.01	-31.64	-90.38	-22.67	-68.32	-22.67	-68.25	-36.03	25.49
10.11	-31.72	-91.74	-22.67	-68.82	-22.67	-68.74	-35.83	27.18
10.21	-31.84	-93.34	-22.68	-69.24	-22.68	-69.21	-35.55	29.15
10.31	-31.95	-95.16	-22.68	-69.76	-22.67	-69.7	-35.21	30.23
10.41	-32.08	-97	-22.68	-70.27	-22.68	-70.23	-34.84	31.32
10.51	-32.29	-98.93	-22.68	-70.75	-22.68	-70.74	-34.51	31.68
10.61	-32.45	-101.24	-22.68	-71.3	-22.67	-71.28	-34.19	32.43
10.71	-32.62	-103.04	-22.67	-71.88	-22.67	-71.82	-33.92	32.84
10.81	-32.77	-105.07	-22.67	-72.48	-22.67	-72.38	-33.63	33.59
10.91	-32.88	-107.58	-22.68	-73.01	-22.67	-72.92	-33.38	34.36
11.01	-33.02	-109.52	-22.67	-73.55	-22.67	-73.44	-33	35.39
11.11	-33.1	-111.92	-22.67	-74.08	-22.67	-74.06	-32.66	35.26
11.21	-33.21	-114.18	-22.67	-74.65	-22.67	-74.66	-32.35	35.21
11.31	-33.34	-115.99	-22.68	-75.2	-22.66	-75.17	-32.04	34.82
11.41	-33.4	-118.41	-22.67	-75.77	-22.66	-75.73	-31.81	34.39
11.51	-33.46	-119.95	-22.67	-76.36	-22.66	-76.24	-31.55	34.35
11.61	-33.51	-121.98	-22.67	-76.88	-22.65	-76.8	-31.31	34.34
11.71	-33.49	-124.44	-22.65	-77.45	-22.67	-77.41	-31.09	34.19
11.81	-33.56	-127.21	-22.64	-78	-22.66	-77.94	-30.78	34.44
11.91	-33.67	-129.92	-22.65	-78.57	-22.65	-78.56	-30.44	33.75
12.01	-33.66	-132.03	-22.64	-79.16	-22.65	-79.18	-30.23	32.84
12.11	-33.61	-133.81	-22.66	-79.83	-22.65	-79.81	-29.99	32.36
12.21	-33.62	-136	-22.67	-80.3	-22.65	-80.3	-29.78	31.54
12.31	-33.66	-138.14	-22.66	-80.87	-22.65	-80.85	-29.62	30.94
12.41	-33.53	-140.29	-22.64	-81.55	-22.64	-81.39	-29.47	30.11
12.51	-33.58	-143.18	-22.65	-82.09	-22.65	-81.94	-29.3	30.18
12.61	-33.56	-145.33	-22.64	-82.6	-22.64	-82.55	-29.06	29.91
12.71	-33.62	-148.42	-22.63	-83.21	-22.64	-83.16	-28.83	29.54
12.81	-33.73	-151.28	-22.65	-83.72	-22.65	-83.76	-28.49	28.63
12.91	-33.86	-153.91	-22.64	-84.3	-22.63	-84.29	-28.33	27.68
13.01	-33.8	-155.89	-22.65	-84.95	-22.63	-84.93	-28.09	26.71
13.11	-33.88	-158.54	-22.64	-85.59	-22.63	-85.52	-27.97	25.71
13.21	-33.79	-160.18	-22.67	-86.07	-22.67	-85.92	-27.88	25.01
13.31	-33.57	-163.09	-22.63	-86.53	-22.63	-86.43	-27.69	25.14
13.41	-33.43	-165.76	-22.62	-87.04	-22.63	-87	-27.49	24.21
13.51	-33.27	-168.7	-22.61	-87.67	-22.62	-87.62	-27.41	23.71
13.61	-33.17	-171.09	-22.61	-88.25	-22.61	-88.23	-27.18	22.85
13.71	-33.12	-173.58	-22.6	-88.76	-22.59	-88.8	-27.05	22.33
13.81	-33.03	-174.73	-22.6	-89.42	-22.59	-89.4	-26.88	21.47
13.91	-32.87	-176.81	-22.59	-90.05	-22.58	-89.92	-26.79	20.58
14.01	-32.65	-178.1	-22.58	-90.73	-22.57	-90.65	-26.66	19.75
14.11	-32.43	179.66	-22.58	-91.27	-22.59	-91.17	-26.59	19.65
14.21	-32.22	177.27	-22.58	-91.78	-22.59	-91.64	-26.43	19.16
14.31	-32.06	174.21	-22.56	-92.29	-22.56	-92.22	-26.28	18.55
14.41	-32.04	172.7	-22.54	-92.97	-22.54	-92.96	-26.1	18.07
14.51	-31.89	170.31	-22.55	-93.59	-22.54	-93.55	-25.96	16.99
14.61	-31.86	169.13	-22.56	-94.23	-22.54	-94.14	-25.85	15.96
14.71	-31.71	168.25	-22.54	-94.76	-22.52	-94.63	-25.77	14.94
14.81	-31.59	167.46	-22.53	-95.51	-22.52	-95.3	-25.71	14.28
14.91	-31.34	166.91	-22.54	-96.11	-22.54	-95.96	-25.61	13.77
15.01	-31.13	164.48	-22.52	-96.53	-22.53	-96.39	-25.46	13.47
15.11	-30.97	162.32	-22.51	-97.11	-22.51	-97.01	-25.36	12.57
15.21	-30.95	160.15	-22.5	-97.7	-22.5	-97.65	-25.19	11.79
15.31	-31	158.28	-22.51	-98.36	-22.49	-98.24	-25.1	10.87
15.41	-30.9	157.12	-22.52	-98.8	-22.5	-98.71	-25.01	10.22
15.51	-30.77	156.18	-22.5	-99.35	-22.48	-99.19	-24.91	9.31
15.61	-30.46	155.22	-22.49	-99.91	-22.47	-99.76	-24.88	8.63
15.71	-30.17	153.67	-22.45	-100.64	-22.46	-100.42	-24.81	8.36
15.81	-29.89	152	-22.47	-101.24	-22.46	-101.08	-24.72	7.77
15.91	-29.67	150.07	-22.46	-101.73	-22.46	-101.66	-24.63	7.07
16.01	-29.58	147.53	-22.45	-102.19	-22.44	-102.16	-24.56	6.35
16.11	-29.53	145.9	-22.44	-102.59	-22.42	-102.58	-24.5	5.68
16.21	-29.52	144.65	-22.42	-103.26	-22.38	-103.17	-24.49	5.09
16.31	-29.46	144.74	-22.39	-103.89	-22.37	-103.7	-24.39	4.81
16.41	-29.22	144.21	-22.36	-104.45	-22.35	-104.25	-24.32	4.18
16.51	-28.92	143.05	-22.34	-105.14	-22.33	-104.98	-24.27	3.47
16.61	-28.78	141.27	-22.32	-105.76	-22.31	-105.61	-24.24	2.96
16.71	-28.69	139.97	-22.31	-106.24	-22.28	-106.23	-24.31	2.93
16.81	-28.62	138.7	-22.31	-106.87	-22.27	-106.89	-24.17	3.21
16.91	-28.63	137.55	-22.3	-107.3	-22.24	-107.27	-24.1	3.69
17.01	-28.67	138.45	-22.25	-107.93	-22.2	-108	-23.77	3.46
17.11	-28.45	138.55	-22.25	-108.55	-22.17	-108.56	-23.46	2.22
17.21	-28.18	138.24	-22.21	-109.08	-22.16	-109.27	-23.42	-1.6
17.31	-27.92	136.86	-22.19	-109.55	-22.17	-109.89	-23.79	-2.55
17.41	-27.83	135.09	-22.1	-110.07	-22.11	-110.51	-24.18	-0.66
17.51	-27.78	133.73	-22.05	-110.93	-22.08	-111.35	-23.84	2.71
17.61	-27.77	132.14	-22.01	-111.3	-22.04	-111.84	-23.31	2.91
17.71	-27.89	131.41	-21.94	-112.36	-21.99	-112.58	-22.91	-0.04
17.81	-27.86	131.41	-21.94	-113.15	-21.96	-113.27	-22.93	-2.56
17.91	-27.74	131.15	-21.91	-114.07	-21.95	-114.04	-23.22	-3.12
18.01	-27.42	130.16	-21.89	-114.87	-21.93	-114.67	-23.27	-1.79
18.11	-27.3	128.19	-21.86	-115.54	-21.91	-115.37	-23.05	-0.63
18.21	-27.23	127.27	-21.82	-116.41	-21.86	-116.28	-22.76	-1
18.31	-27.15	126.39	-21.79	-117.24	-21.83	-117.14	-22.51	-1.47
18.41	-27.13	125.71	-21.78	-117.87	-21.81	-117.85	-22.41	-3.65
18.51	-27.15	125.89	-21.76	-118.82	-21.76	-118.76	-22.39	-4.02
18.61	-26.99	126.02	-21.79	-119.69	-21.77	-119.46	-22.4	-5.13
18.71	-26.94	126.6	-21.74	-120.37	-21.74	-120.2	-22.42	-5.2
18.81	-26.69	126.15	-21.69	-121.22	-21.71	-120.94	-22.4	-5.18
18.91	-26.59	125.16	-21.67	-122.1	-21.66	-121.9	-22.29	-4.56
19.01	-26.51	124.75	-21.63	-123.09	-21.65	-122.99	-22.07	-5.01
19.11	-26.42	124.72	-21.65	-123.89	-21.66	-123.87	-21.96	-5.81
19.21	-26.4	124.37	-21.65	-124.6	-21.63	-124.52	-21.88	-6.73
19.31	-26.31	124.68	-21.58	-125.59	-21.56	-125.55	-21.9	-6.72
19.41	-26.13	125.14	-21.62	-126.87	-21.61	-126.79	-21.75	-6.56
19.51	-26.01	125.09	-21.65	-127.84	-21.62	-127.62	-21.59	-6.73
19.61	-25.77	124.34	-21.66	-128.53	-21.67	-128.32	-21.44	-7.89
19.71	-25.7	123.57	-21.64	-129.16	-21.65	-129.02	-21.44	-8.37
19.81	-25.76	122.77	-21.58	-130.11	-21.58	-130.08	-21.28	-8.82
19.91	-25.74	123.1	-21.61	-131.22	-21.62	-131.2	-21.17	-9.27
20.01	-25.69	124.18	-21.67	-132.19	-21.64	-132.15	-20.99	-9.75