!s2p File: Measurements: S11, S21, S12, S22								
# GHz S dB R 50.0								
0.01	-14.18	-0.95	-8.73	-0.39	-8.73	-0.37	-22.7	-1.63
0.11	-14.52	-2.03	-8.86	-1.49	-8.86	-1.49	-23.52	-4.08
0.21	-14.61	-2.41	-8.89	-2.28	-8.89	-2.27	-23.79	-3.55
0.31	-14.64	-2.87	-8.91	-3.09	-8.9	-3.09	-23.87	-3.21
0.41	-14.66	-3.4	-8.92	-3.94	-8.91	-3.94	-23.92	-3.19
0.51	-14.67	-3.98	-8.92	-4.82	-8.92	-4.81	-23.94	-3.25
0.61	-14.67	-4.56	-8.92	-5.69	-8.92	-5.69	-23.96	-3.42
0.71	-14.67	-5.19	-8.93	-6.57	-8.92	-6.56	-23.96	-3.6
0.81	-14.67	-5.8	-8.93	-7.46	-8.93	-7.45	-23.97	-3.88
0.91	-14.68	-6.46	-8.93	-8.34	-8.93	-8.33	-23.97	-4.14
1.01	-14.68	-7.1	-8.94	-9.23	-8.93	-9.23	-23.97	-4.4
1.11	-14.68	-7.75	-8.94	-10.12	-8.94	-10.12	-23.97	-4.72
1.21	-14.69	-8.42	-8.94	-11.01	-8.94	-11	-23.96	-5.05
1.31	-14.69	-9.12	-8.95	-11.91	-8.94	-11.9	-23.96	-5.42
1.41	-14.69	-9.82	-8.95	-12.8	-8.95	-12.79	-23.97	-5.83
1.51	-14.7	-10.51	-8.95	-13.7	-8.95	-13.69	-23.98	-6.08
1.61	-14.69	-11.19	-8.96	-14.58	-8.96	-14.59	-23.97	-6.4
1.71	-14.69	-11.91	-8.96	-15.47	-8.96	-15.47	-23.96	-6.84
1.81	-14.69	-12.67	-8.97	-16.37	-8.97	-16.36	-23.96	-7.33
1.91	-14.69	-13.39	-8.97	-17.25	-8.97	-17.25	-23.96	-7.77
2.01	-14.69	-14.11	-8.98	-18.15	-8.97	-18.14	-23.97	-8.2
2.11	-14.69	-14.82	-8.98	-19.03	-8.98	-19.03	-23.98	-8.59
2.21	-14.7	-15.54	-8.99	-19.92	-8.98	-19.92	-23.98	-8.96
2.31	-14.7	-16.25	-8.99	-20.8	-8.99	-20.81	-23.99	-9.33
2.41	-14.7	-16.97	-9	-21.69	-8.99	-21.69	-24	-9.71
2.51	-14.71	-17.67	-9	-22.58	-9	-22.58	-24	-10.1
2.61	-14.72	-18.36	-9.01	-23.47	-9.01	-23.47	-24.01	-10.49
2.71	-14.72	-19.02	-9.01	-24.34	-9.01	-24.35	-24.02	-10.82
2.81	-14.73	-19.7	-9.02	-25.24	-9.02	-25.23	-24.04	-11.18
2.91	-14.74	-20.38	-9.03	-26.12	-9.02	-26.11	-24.05	-11.52
3.01	-14.75	-21.08	-9.03	-27	-9.03	-27	-24.04	-11.81
3.11	-14.75	-21.79	-9.04	-27.88	-9.03	-27.89	-24.06	-12.2
3.21	-14.76	-22.52	-9.04	-28.77	-9.04	-28.77	-24.07	-12.56
3.31	-14.77	-23.23	-9.05	-29.66	-9.04	-29.65	-24.08	-12.93
3.41	-14.78	-23.94	-9.05	-30.54	-9.05	-30.54	-24.09	-13.26
3.51	-14.79	-24.64	-9.06	-31.42	-9.06	-31.42	-24.1	-13.58
3.61	-14.8	-25.37	-9.06	-32.29	-9.06	-32.31	-24.11	-13.91
3.71	-14.81	-26.11	-9.07	-33.17	-9.07	-33.2	-24.12	-14.34
3.81	-14.82	-26.88	-9.08	-34.06	-9.08	-34.08	-24.13	-14.76
3.91	-14.83	-27.62	-9.09	-34.95	-9.08	-34.96	-24.16	-15.19
4.01	-14.85	-28.31	-9.09	-35.84	-9.09	-35.85	-24.18	-15.51
4.11	-14.85	-29.04	-9.1	-36.74	-9.1	-36.73	-24.2	-15.78
4.21	-14.86	-29.76	-9.1	-37.61	-9.11	-37.61	-24.2	-16.07
4.31	-14.87	-30.56	-9.11	-38.49	-9.11	-38.49	-24.2	-16.46
4.41	-14.89	-31.35	-9.12	-39.36	-9.12	-39.37	-24.2	-16.92
4.51	-14.9	-32.06	-9.13	-40.23	-9.13	-40.25	-24.22	-17.37
4.61	-14.92	-32.77	-9.14	-41.13	-9.14	-41.14	-24.24	-17.75
4.71	-14.93	-33.44	-9.14	-42.03	-9.15	-42.02	-24.28	-18.06
4.81	-14.93	-34.15	-9.15	-42.93	-9.15	-42.9	-24.29	-18.24
4.91	-14.93	-34.91	-9.16	-43.8	-9.16	-43.77	-24.29	-18.49
5.01	-14.94	-35.66	-9.16	-44.67	-9.17	-44.65	-24.29	-18.73
5.11	-14.96	-36.44	-9.17	-45.53	-9.18	-45.52	-24.28	-19.18
5.21	-14.98	-37.14	-9.18	-46.41	-9.19	-46.41	-24.29	-19.5
5.31	-15	-37.82	-9.19	-47.31	-9.2	-47.29	-24.32	-19.94
5.41	-15.01	-38.5	-9.2	-48.19	-9.2	-48.17	-24.35	-20.2
5.51	-15.02	-39.16	-9.21	-49.06	-9.21	-49.05	-24.38	-20.33
5.61	-15.03	-39.91	-9.22	-49.96	-9.22	-49.94	-24.37	-20.44
5.71	-15.05	-40.65	-9.23	-50.85	-9.23	-50.82	-24.37	-20.75
5.81	-15.07	-41.42	-9.24	-51.7	-9.24	-51.7	-24.36	-20.98
5.91	-15.1	-42.16	-9.25	-52.59	-9.25	-52.58	-24.35	-21.45
6.01	-15.12	-42.88	-9.26	-53.47	-9.26	-53.46	-24.37	-21.89
6.11	-15.14	-43.57	-9.27	-54.36	-9.27	-54.34	-24.39	-22.22
6.21	-15.15	-44.29	-9.28	-55.23	-9.28	-55.21	-24.4	-22.44
6.31	-15.16	-45.02	-9.29	-56.1	-9.29	-56.09	-24.39	-22.66
6.41	-15.17	-45.79	-9.3	-56.96	-9.31	-56.96	-24.4	-22.9
6.51	-15.18	-46.59	-9.32	-57.83	-9.32	-57.83	-24.4	-23.14
6.61	-15.2	-47.37	-9.33	-58.72	-9.33	-58.71	-24.4	-23.47
6.71	-15.22	-48.14	-9.34	-59.61	-9.34	-59.59	-24.41	-23.84
6.81	-15.23	-48.88	-9.35	-60.47	-9.35	-60.45	-24.43	-24.22
6.91	-15.25	-49.64	-9.36	-61.33	-9.37	-61.32	-24.45	-24.57
7.01	-15.25	-50.42	-9.37	-62.2	-9.38	-62.19	-24.46	-24.81
7.11	-15.27	-51.19	-9.39	-63.05	-9.39	-63.06	-24.46	-25.08
7.21	-15.28	-51.98	-9.4	-63.94	-9.4	-63.94	-24.44	-25.24
7.31	-15.29	-52.71	-9.41	-64.84	-9.41	-64.82	-24.41	-25.71
7.41	-15.3	-53.46	-9.43	-65.72	-9.43	-65.68	-24.38	-26.32
7.51	-15.32	-54.25	-9.44	-66.57	-9.44	-66.54	-24.41	-26.79
7.61	-15.33	-54.99	-9.45	-67.44	-9.46	-67.39	-24.44	-27.13
7.71	-15.34	-55.77	-9.47	-68.28	-9.47	-68.24	-24.45	-27.47
7.81	-15.35	-56.54	-9.48	-69.09	-9.49	-69.11	-24.46	-27.79
7.91	-15.37	-57.27	-9.5	-69.98	-9.51	-69.98	-24.44	-28.08
8.01	-15.39	-58.11	-9.51	-70.84	-9.52	-70.82	-24.45	-28.54
8.11	-15.42	-58.92	-9.53	-71.68	-9.53	-71.66	-24.47	-29.07
8.21	-15.44	-59.74	-9.55	-72.53	-9.55	-72.51	-24.48	-29.66
8.31	-15.46	-60.54	-9.55	-73.4	-9.56	-73.35	-24.51	-30.18
8.41	-15.47	-61.36	-9.57	-74.21	-9.58	-74.18	-24.53	-30.69
8.51	-15.49	-62.25	-9.58	-75.06	-9.6	-75.02	-24.57	-31.2
8.61	-15.5	-63.14	-9.6	-75.88	-9.61	-75.85	-24.6	-31.67
8.71	-15.52	-64.08	-9.62	-76.72	-9.63	-76.65	-24.62	-32.09
8.81	-15.54	-64.96	-9.64	-77.54	-9.64	-77.48	-24.65	-32.59
8.91	-15.57	-65.88	-9.65	-78.34	-9.65	-78.3	-24.69	-33.17
9.01	-15.59	-66.75	-9.66	-79.18	-9.67	-79.09	-24.75	-33.7
9.11	-15.62	-67.65	-9.67	-79.96	-9.68	-79.91	-24.8	-34.11
9.21	-15.65	-68.55	-9.69	-80.78	-9.69	-80.73	-24.87	-34.46
9.31	-15.67	-69.43	-9.7	-81.6	-9.7	-81.54	-24.93	-34.88
9.41	-15.69	-70.32	-9.7	-82.41	-9.71	-82.34	-24.99	-35.24
9.51	-15.72	-71.22	-9.72	-83.22	-9.72	-83.18	-25.06	-35.5
9.61	-15.75	-72.13	-9.73	-84.05	-9.73	-83.98	-25.11	-35.75
9.71	-15.78	-73.04	-9.74	-84.85	-9.75	-84.78	-25.18	-36.01
9.81	-15.81	-73.91	-9.75	-85.63	-9.75	-85.6	-25.25	-36.13
9.91	-15.83	-74.72	-9.76	-86.47	-9.76	-86.41	-25.33	-36.34
10.01	-15.86	-75.58	-9.76	-87.3	-9.77	-87.22	-25.4	-36.55
10.11	-15.89	-76.41	-9.77	-88.13	-9.78	-88.03	-25.5	-36.6
10.21	-15.92	-77.28	-9.78	-88.91	-9.79	-88.86	-25.58	-36.56
10.31	-15.96	-78.17	-9.79	-89.74	-9.8	-89.67	-25.64	-36.57
10.41	-15.99	-79.03	-9.79	-90.54	-9.8	-90.49	-25.7	-36.36
10.51	-16.04	-79.88	-9.81	-91.35	-9.81	-91.33	-25.75	-36.22
10.61	-16.09	-80.79	-9.81	-92.2	-9.81	-92.15	-25.8	-36.17
10.71	-16.13	-81.61	-9.81	-93.08	-9.82	-92.97	-25.85	-36.2
10.81	-16.17	-82.49	-9.82	-93.91	-9.83	-93.8	-25.93	-36.02
10.91	-16.2	-83.42	-9.83	-94.76	-9.83	-94.65	-26.02	-35.96
11.01	-16.25	-84.28	-9.83	-95.59	-9.85	-95.5	-26.09	-35.53
11.11	-16.28	-85.12	-9.84	-96.41	-9.85	-96.36	-26.11	-35.28
11.21	-16.32	-85.99	-9.86	-97.26	-9.86	-97.21	-26.15	-35.03
11.31	-16.36	-86.79	-9.87	-98.08	-9.86	-98.05	-26.16	-34.81
11.41	-16.39	-87.67	-9.87	-98.96	-9.87	-98.9	-26.18	-34.81
11.51	-16.42	-88.5	-9.88	-99.85	-9.88	-99.7	-26.22	-34.6
11.61	-16.45	-89.35	-9.88	-100.67	-9.88	-100.53	-26.27	-34.44
11.71	-16.48	-90.21	-9.88	-101.5	-9.9	-101.42	-26.32	-34.34
11.81	-16.52	-91.14	-9.89	-102.34	-9.91	-102.24	-26.37	-33.78
11.91	-16.57	-91.95	-9.91	-103.19	-9.91	-103.11	-26.35	-33.21
12.01	-16.59	-92.83	-9.91	-104.01	-9.92	-104.01	-26.31	-33.14
12.11	-16.61	-93.67	-9.93	-104.92	-9.93	-104.84	-26.32	-32.98
12.21	-16.63	-94.47	-9.94	-105.75	-9.93	-105.67	-26.32	-32.81
12.31	-16.66	-95.32	-9.95	-106.67	-9.95	-106.54	-26.32	-32.77
12.41	-16.68	-96.25	-9.95	-107.56	-9.96	-107.35	-26.31	-32.82
12.51	-16.72	-97.14	-9.96	-108.39	-9.97	-108.22	-26.39	-32.54
12.61	-16.74	-98.02	-9.97	-109.18	-9.98	-109.07	-26.4	-32.17
12.71	-16.8	-98.89	-9.97	-110.01	-9.99	-109.94	-26.39	-31.7
12.81	-16.85	-99.72	-9.99	-110.85	-10	-110.85	-26.32	-31.01
12.91	-16.89	-100.47	-10.01	-111.72	-10.01	-111.65	-26.26	-30.9
13.01	-16.91	-101.35	-10.01	-112.63	-10.01	-112.52	-26.21	-30.54
13.11	-16.97	-102.13	-10.03	-113.55	-10.02	-113.41	-26.17	-30.83
13.21	-16.97	-102.94	-10.05	-114.39	-10.06	-114.18	-26.21	-30.74
13.31	-17.01	-104.04	-10.05	-115.17	-10.05	-114.99	-26.22	-30.19
13.41	-17.03	-105.04	-10.05	-116.01	-10.07	-115.92	-26.17	-29.93
13.51	-17.08	-106.06	-10.06	-116.86	-10.08	-116.76	-26.17	-30.04
13.61	-17.1	-106.97	-10.08	-117.67	-10.08	-117.62	-26.1	-29.61
13.71	-17.14	-107.87	-10.08	-118.53	-10.08	-118.46	-26.09	-29.43
13.81	-17.16	-108.79	-10.1	-119.45	-10.1	-119.37	-26.02	-29.32
13.91	-17.2	-109.69	-10.12	-120.37	-10.11	-120.16	-26.01	-29.53
14.01	-17.21	-110.63	-10.13	-121.23	-10.12	-121.05	-25.97	-29.5
14.11	-17.23	-111.64	-10.13	-122.07	-10.14	-121.89	-26.03	-29.36
14.21	-17.27	-112.69	-10.14	-122.94	-10.16	-122.73	-26.02	-28.85
14.31	-17.33	-113.73	-10.15	-123.72	-10.17	-123.59	-25.95	-28.55
14.41	-17.35	-114.46	-10.16	-124.55	-10.17	-124.47	-25.89	-28.26
14.51	-17.39	-115.36	-10.18	-125.5	-10.19	-125.37	-25.82	-28.26
14.61	-17.4	-116.16	-10.21	-126.37	-10.2	-126.21	-25.74	-28.42
14.71	-17.41	-117.11	-10.22	-127.22	-10.21	-127	-25.68	-28.69
14.81	-17.42	-117.94	-10.23	-128.12	-10.23	-127.87	-25.68	-28.81
14.91	-17.4	-118.99	-10.25	-128.99	-10.25	-128.75	-25.69	-28.76
15.01	-17.45	-120.01	-10.24	-129.78	-10.26	-129.57	-25.65	-28.17
15.11	-17.49	-121.04	-10.26	-130.62	-10.27	-130.47	-25.57	-28.34
15.21	-17.54	-121.8	-10.28	-131.47	-10.28	-131.35	-25.47	-28.13
15.31	-17.57	-122.51	-10.3	-132.34	-10.29	-132.17	-25.4	-28.36
15.41	-17.58	-123.38	-10.32	-133.18	-10.31	-133	-25.37	-28.24
15.51	-17.59	-124.31	-10.34	-134.03	-10.32	-133.8	-25.3	-28.44
15.61	-17.6	-125.57	-10.35	-134.92	-10.35	-134.68	-25.3	-28.66
15.71	-17.63	-126.78	-10.36	-135.76	-10.36	-135.48	-25.31	-28.58
15.81	-17.67	-127.85	-10.37	-136.57	-10.38	-136.36	-25.29	-28.53
15.91	-17.7	-128.9	-10.39	-137.42	-10.39	-137.28	-25.23	-28.49
16.01	-17.75	-129.85	-10.41	-138.22	-10.4	-138.1	-25.18	-28.55
16.11	-17.78	-130.72	-10.43	-139	-10.42	-138.91	-25.14	-28.67
16.21	-17.79	-131.57	-10.46	-139.89	-10.43	-139.73	-25.14	-29.06
16.31	-17.77	-132.44	-10.47	-140.73	-10.45	-140.47	-25.1	-28.8
16.41	-17.77	-133.65	-10.48	-141.51	-10.46	-141.24	-25.08	-29.07
16.51	-17.78	-134.92	-10.49	-142.4	-10.48	-142.16	-25.07	-29.27
16.61	-17.83	-136.01	-10.5	-143.24	-10.49	-143.01	-25.06	-29.44
16.71	-17.84	-136.99	-10.52	-143.93	-10.5	-143.85	-25.17	-29.53
16.81	-17.87	-137.85	-10.54	-144.8	-10.51	-144.71	-25.15	-28.56
16.91	-17.89	-138.72	-10.57	-145.61	-10.52	-145.51	-25.16	-27.7
17.01	-17.85	-139.49	-10.58	-146.32	-10.54	-146.27	-24.93	-26.9
17.11	-17.82	-140.53	-10.61	-147.13	-10.55	-147.05	-24.63	-26.81
17.21	-17.79	-141.9	-10.61	-147.82	-10.57	-147.88	-24.41	-29.75
17.31	-17.83	-143.22	-10.6	-148.59	-10.59	-148.76	-24.73	-31.46
17.41	-17.86	-144.37	-10.58	-149.27	-10.6	-149.56	-25.22	-31.06
17.51	-17.91	-145.33	-10.58	-150.2	-10.6	-150.45	-25.26	-27.14
17.61	-17.96	-146.11	-10.57	-150.89	-10.6	-151.25	-24.85	-24.91
17.71	-17.97	-146.87	-10.57	-151.95	-10.61	-152.03	-24.35	-26.3
17.81	-17.96	-147.73	-10.59	-152.8	-10.61	-152.82	-24.26	-28.43
17.91	-17.97	-148.87	-10.59	-153.86	-10.63	-153.69	-24.55	-29.43
18.01	-17.99	-150.33	-10.61	-154.79	-10.65	-154.56	-24.76	-28.15
18.11	-18.07	-151.33	-10.62	-155.67	-10.66	-155.37	-24.72	-26.1
18.21	-18.09	-152.52	-10.64	-156.46	-10.67	-156.27	-24.48	-25.32
18.31	-18.1	-153.54	-10.63	-157.33	-10.66	-157.12	-24.26	-24.83
18.41	-18.12	-154.5	-10.66	-158.15	-10.68	-158.03	-24.07	-26.22
18.51	-18.1	-155.54	-10.68	-158.97	-10.68	-158.77	-24.07	-26.3
18.61	-18.09	-156.48	-10.71	-159.89	-10.7	-159.57	-24.06	-27.06
18.71	-18.04	-157.5	-10.71	-160.7	-10.7	-160.42	-24.11	-26.98
18.81	-18.03	-159.01	-10.7	-161.62	-10.72	-161.32	-24.15	-26.62
18.91	-18.08	-160.16	-10.72	-162.54	-10.72	-162.23	-24.13	-25.44
19.01	-18.11	-161.36	-10.72	-163.35	-10.74	-163.16	-23.92	-25.11
19.11	-18.11	-162.24	-10.73	-164.14	-10.74	-164.03	-23.81	-25.17
19.21	-18.11	-163.11	-10.76	-165.05	-10.75	-164.83	-23.71	-25.55
19.31	-18.08	-164.35	-10.77	-165.88	-10.76	-165.72	-23.75	-25.59
19.41	-18.08	-165.41	-10.79	-166.86	-10.78	-166.65	-23.65	-24.68
19.51	-18.07	-166.64	-10.82	-167.77	-10.8	-167.47	-23.52	-24.39
19.61	-18.12	-168	-10.82	-168.63	-10.83	-168.34	-23.35	-24.8
19.71	-18.14	-168.77	-10.83	-169.47	-10.83	-169.22	-23.33	-25.18
19.81	-18.19	-169.83	-10.84	-170.25	-10.84	-170.09	-23.18	-25.4
19.91	-18.21	-170.46	-10.84	-171.15	-10.85	-170.97	-23.13	-25.21
20.01	-18.2	-171.33	-10.87	-172	-10.85	-171.84	-22.94	-25.05