!s2p File: Measurements: S11, S21, S12, S22								
# GHz S dB R 50.0								
0.01	-15.62	-0.67	-17.64	-0.26	-17.65	-0.37	-48.17	-18.12
0.11	-15.87	-1.79	-17.77	-1.44	-17.77	-1.45	-48.5	-117.41
0.21	-15.94	-2.3	-17.81	-2.12	-17.81	-2.11	-47.95	-154.08
0.31	-15.97	-2.86	-17.83	-2.83	-17.82	-2.82	-47.67	-172.88
0.41	-15.98	-3.48	-17.84	-3.57	-17.83	-3.56	-47.29	173.73
0.51	-15.99	-4.09	-17.84	-4.31	-17.84	-4.32	-46.78	163.88
0.61	-15.99	-4.73	-17.85	-5.11	-17.84	-5.08	-46.3	156.19
0.71	-15.99	-5.42	-17.85	-5.87	-17.84	-5.87	-45.85	148.85
0.81	-16	-6.08	-17.85	-6.65	-17.85	-6.66	-45.42	142.98
0.91	-16.01	-6.77	-17.85	-7.43	-17.85	-7.43	-44.86	138.02
1.01	-16.01	-7.45	-17.86	-8.22	-17.85	-8.23	-44.31	132.96
1.11	-16.01	-8.16	-17.86	-9.01	-17.86	-9.01	-43.88	128.66
1.21	-16.02	-8.88	-17.86	-9.8	-17.86	-9.8	-43.46	124.86
1.31	-16.02	-9.61	-17.87	-10.58	-17.86	-10.59	-43.04	121.75
1.41	-16.03	-10.37	-17.87	-11.4	-17.87	-11.39	-42.61	119.34
1.51	-16.04	-11.11	-17.87	-12.18	-17.87	-12.18	-42.07	116.59
1.61	-16.03	-11.82	-17.88	-12.97	-17.87	-12.96	-41.61	113.35
1.71	-16.03	-12.6	-17.88	-13.75	-17.88	-13.76	-41.34	110.89
1.81	-16.03	-13.42	-17.88	-14.55	-17.88	-14.54	-41.07	108.7
1.91	-16.04	-14.19	-17.89	-15.33	-17.89	-15.32	-40.77	106.96
2.01	-16.05	-14.96	-17.89	-16.14	-17.89	-16.13	-40.44	105.57
2.11	-16.05	-15.71	-17.9	-16.91	-17.89	-16.92	-40.1	104.09
2.21	-16.06	-16.47	-17.9	-17.7	-17.9	-17.7	-39.74	102.29
2.31	-16.06	-17.24	-17.91	-18.49	-17.9	-18.5	-39.45	100.7
2.41	-16.07	-17.99	-17.91	-19.27	-17.91	-19.28	-39.13	99.06
2.51	-16.08	-18.75	-17.91	-20.06	-17.91	-20.08	-38.84	97.78
2.61	-16.09	-19.47	-17.92	-20.85	-17.92	-20.85	-38.54	96.91
2.71	-16.11	-20.18	-17.93	-21.62	-17.92	-21.64	-38.23	95.48
2.81	-16.12	-20.88	-17.93	-22.43	-17.93	-22.44	-37.93	94.56
2.91	-16.13	-21.6	-17.93	-23.21	-17.93	-23.22	-37.62	93.28
3.01	-16.14	-22.35	-17.94	-24	-17.94	-24	-37.32	91.85
3.11	-16.16	-23.1	-17.94	-24.78	-17.94	-24.79	-37.08	90.95
3.21	-16.17	-23.87	-17.95	-25.57	-17.95	-25.58	-36.82	89.68
3.31	-16.19	-24.62	-17.95	-26.37	-17.95	-26.35	-36.56	89.01
3.41	-16.21	-25.37	-17.96	-27.14	-17.96	-27.15	-36.3	87.91
3.51	-16.22	-26.13	-17.96	-27.92	-17.96	-27.93	-36.05	87.01
3.61	-16.23	-26.9	-17.97	-28.71	-17.97	-28.73	-35.81	86.11
3.71	-16.25	-27.71	-17.97	-29.48	-17.98	-29.51	-35.62	85.16
3.81	-16.27	-28.5	-17.98	-30.28	-17.98	-30.29	-35.47	84.45
3.91	-16.3	-29.29	-17.99	-31.07	-17.99	-31.09	-35.27	83.88
4.01	-16.32	-30.02	-17.99	-31.88	-17.99	-31.89	-35.03	83.31
4.11	-16.33	-30.78	-18	-32.68	-18	-32.67	-34.8	82.52
4.21	-16.34	-31.57	-18	-33.47	-18	-33.45	-34.57	81.35
4.31	-16.36	-32.42	-18.01	-34.21	-18.01	-34.25	-34.42	80.2
4.41	-16.39	-33.26	-18.02	-35.01	-18.02	-35.04	-34.3	79.31
4.51	-16.42	-34.04	-18.03	-35.79	-18.03	-35.81	-34.16	78.85
4.61	-16.44	-34.78	-18.04	-36.59	-18.04	-36.6	-34.02	78.44
4.71	-16.46	-35.47	-18.04	-37.4	-18.04	-37.39	-33.78	78.04
4.81	-16.47	-36.22	-18.05	-38.18	-18.05	-38.18	-33.56	77.15
4.91	-16.47	-37.03	-18.06	-38.97	-18.06	-38.96	-33.36	76.16
5.01	-16.49	-37.86	-18.06	-39.76	-18.06	-39.74	-33.16	75.16
5.11	-16.52	-38.67	-18.07	-40.52	-18.07	-40.52	-33.05	74.16
5.21	-16.55	-39.44	-18.08	-41.3	-18.08	-41.31	-32.91	73.54
5.31	-16.59	-40.17	-18.09	-42.11	-18.09	-42.11	-32.79	73.1
5.41	-16.62	-40.84	-18.1	-42.9	-18.1	-42.89	-32.61	72.83
5.51	-16.64	-41.56	-18.11	-43.68	-18.1	-43.67	-32.37	72.33
5.61	-16.66	-42.32	-18.12	-44.48	-18.12	-44.46	-32.17	71.4
5.71	-16.69	-43.13	-18.12	-45.27	-18.13	-45.25	-32.01	70.55
5.81	-16.73	-43.99	-18.13	-46.04	-18.13	-46.03	-31.84	69.51
5.91	-16.77	-44.75	-18.14	-46.83	-18.14	-46.83	-31.77	68.66
6.01	-16.81	-45.53	-18.15	-47.62	-18.16	-47.63	-31.68	68.11
6.11	-16.84	-46.25	-18.17	-48.42	-18.17	-48.42	-31.54	67.57
6.21	-16.86	-46.98	-18.18	-49.19	-18.18	-49.19	-31.37	67.08
6.31	-16.89	-47.76	-18.19	-49.97	-18.19	-49.96	-31.2	66.22
6.41	-16.91	-48.57	-18.2	-50.74	-18.2	-50.75	-31.04	65.6
6.51	-16.94	-49.42	-18.21	-51.5	-18.22	-51.5	-30.89	64.6
6.61	-16.97	-50.27	-18.23	-52.31	-18.22	-52.3	-30.78	63.94
6.71	-17.01	-51.06	-18.24	-53.08	-18.24	-53.07	-30.67	63.32
6.81	-17.05	-51.84	-18.25	-53.87	-18.25	-53.85	-30.57	62.8
6.91	-17.07	-52.61	-18.26	-54.62	-18.27	-54.62	-30.45	62.32
7.01	-17.1	-53.4	-18.27	-55.39	-18.28	-55.4	-30.31	61.75
7.11	-17.12	-54.21	-18.29	-56.14	-18.29	-56.15	-30.18	60.94
7.21	-17.15	-55.02	-18.3	-56.93	-18.3	-56.94	-30.03	59.94
7.31	-17.18	-55.81	-18.32	-57.76	-18.32	-57.75	-29.97	58.82
7.41	-17.22	-56.56	-18.34	-58.54	-18.34	-58.53	-29.91	57.88
7.51	-17.24	-57.38	-18.35	-59.29	-18.36	-59.25	-29.85	57.31
7.61	-17.28	-58.13	-18.36	-60.03	-18.37	-60.01	-29.74	56.87
7.71	-17.3	-58.9	-18.38	-60.78	-18.38	-60.76	-29.64	56.3
7.81	-17.33	-59.68	-18.39	-61.5	-18.41	-61.53	-29.52	55.72
7.91	-17.38	-60.42	-18.41	-62.27	-18.42	-62.29	-29.41	54.9
8.01	-17.42	-61.26	-18.43	-63.03	-18.44	-63.02	-29.34	54.22
8.11	-17.46	-62.09	-18.45	-63.75	-18.46	-63.74	-29.3	53.61
8.21	-17.51	-62.87	-18.47	-64.5	-18.47	-64.5	-29.26	52.99
8.31	-17.55	-63.68	-18.48	-65.27	-18.49	-65.24	-29.22	52.5
8.41	-17.59	-64.5	-18.5	-65.97	-18.51	-65.94	-29.16	51.98
8.51	-17.62	-65.35	-18.52	-66.68	-18.53	-66.67	-29.11	51.54
8.61	-17.65	-66.26	-18.54	-67.36	-18.55	-67.34	-29.04	50.93
8.71	-17.68	-67.19	-18.56	-68.07	-18.56	-68	-28.99	50.47
8.81	-17.72	-68.09	-18.58	-68.75	-18.58	-68.71	-28.93	49.91
8.91	-17.76	-69.02	-18.59	-69.44	-18.59	-69.41	-28.92	49.43
9.01	-17.81	-69.86	-18.6	-70.16	-18.61	-70.08	-28.89	49.19
9.11	-17.86	-70.78	-18.61	-70.82	-18.62	-70.77	-28.82	48.88
9.21	-17.9	-71.65	-18.63	-71.47	-18.63	-71.43	-28.77	48.66
9.31	-17.94	-72.49	-18.64	-72.15	-18.65	-72.11	-28.73	48.48
9.41	-17.97	-73.41	-18.65	-72.82	-18.65	-72.77	-28.67	48.14
9.51	-18.01	-74.29	-18.67	-73.5	-18.67	-73.45	-28.61	48.01
9.61	-18.06	-75.21	-18.67	-74.17	-18.67	-74.12	-28.53	47.61
9.71	-18.1	-76.14	-18.68	-74.86	-18.69	-74.8	-28.46	47.49
9.81	-18.14	-77	-18.68	-75.48	-18.69	-75.49	-28.39	47.37
9.91	-18.18	-77.81	-18.69	-76.17	-18.7	-76.13	-28.32	47.33
10.01	-18.22	-78.64	-18.69	-76.87	-18.7	-76.81	-28.25	47.21
10.11	-18.26	-79.46	-18.7	-77.56	-18.71	-77.48	-28.16	47.22
10.21	-18.3	-80.35	-18.71	-78.18	-18.71	-78.16	-28.07	47.32
10.31	-18.36	-81.21	-18.71	-78.87	-18.71	-78.84	-27.95	47.09
10.41	-18.41	-82.12	-18.71	-79.54	-18.72	-79.53	-27.82	46.93
10.51	-18.48	-83	-18.72	-80.19	-18.72	-80.2	-27.7	46.62
10.61	-18.54	-83.96	-18.71	-80.92	-18.71	-80.9	-27.6	46.44
10.71	-18.6	-84.83	-18.71	-81.68	-18.72	-81.59	-27.51	46.16
10.81	-18.66	-85.67	-18.71	-82.4	-18.71	-82.3	-27.4	46.19
10.91	-18.72	-86.67	-18.71	-83.12	-18.72	-83.03	-27.3	46.15
11.01	-18.77	-87.52	-18.71	-83.81	-18.72	-83.74	-27.15	46.15
11.11	-18.82	-88.42	-18.71	-84.51	-18.72	-84.48	-27.03	45.79
11.21	-18.88	-89.41	-18.72	-85.24	-18.72	-85.22	-26.9	45.5
11.31	-18.93	-90.18	-18.72	-85.97	-18.72	-85.93	-26.79	45
11.41	-18.98	-91.12	-18.72	-86.7	-18.72	-86.67	-26.7	44.5
11.51	-19.03	-91.96	-18.72	-87.48	-18.72	-87.35	-26.6	44.32
11.61	-19.07	-92.83	-18.72	-88.16	-18.72	-88.06	-26.5	44.27
11.71	-19.12	-93.77	-18.71	-88.92	-18.73	-88.85	-26.4	43.93
11.81	-19.17	-94.73	-18.71	-89.63	-18.73	-89.55	-26.26	43.83
11.91	-19.25	-95.62	-18.72	-90.37	-18.73	-90.31	-26.09	43.27
12.01	-19.28	-96.58	-18.72	-91.08	-18.73	-91.1	-26.01	42.61
12.11	-19.32	-97.44	-18.73	-91.93	-18.74	-91.87	-25.89	42.22
12.21	-19.36	-98.33	-18.75	-92.6	-18.74	-92.55	-25.8	41.59
12.31	-19.41	-99.16	-18.74	-93.4	-18.75	-93.31	-25.72	41.09
12.41	-19.45	-100.11	-18.73	-94.2	-18.75	-94.02	-25.66	40.51
12.51	-19.52	-101.05	-18.75	-94.92	-18.76	-94.77	-25.57	40.47
12.61	-19.55	-101.9	-18.74	-95.6	-18.76	-95.52	-25.46	40.23
12.71	-19.63	-102.88	-18.74	-96.32	-18.76	-96.27	-25.33	39.96
12.81	-19.71	-103.81	-18.75	-97.06	-18.76	-97.08	-25.13	39.26
12.91	-19.79	-104.56	-18.76	-97.82	-18.76	-97.76	-25.06	38.5
13.01	-19.84	-105.5	-18.77	-98.63	-18.77	-98.55	-24.92	37.78
13.11	-19.92	-106.28	-18.78	-99.47	-18.77	-99.33	-24.88	37.11
13.21	-19.95	-107.05	-18.81	-100.13	-18.81	-99.93	-24.81	36.69
13.31	-20	-108.25	-18.78	-100.75	-18.79	-100.62	-24.71	36.52
13.41	-20.05	-109.28	-18.78	-101.47	-18.79	-101.41	-24.59	35.97
13.51	-20.12	-110.42	-18.78	-102.22	-18.8	-102.15	-24.54	35.54
13.61	-20.16	-111.39	-18.78	-102.96	-18.79	-102.93	-24.41	34.9
13.71	-20.24	-112.35	-18.78	-103.71	-18.79	-103.67	-24.33	34.47
13.81	-20.26	-113.27	-18.79	-104.5	-18.79	-104.45	-24.24	33.8
13.91	-20.33	-114.2	-18.8	-105.32	-18.8	-105.15	-24.2	33.2
14.01	-20.35	-115.22	-18.8	-106.13	-18.8	-105.98	-24.12	32.61
14.11	-20.4	-116.24	-18.8	-106.85	-18.82	-106.71	-24.08	32.56
14.21	-20.44	-117.34	-18.82	-107.55	-18.83	-107.39	-23.96	32.18
14.31	-20.53	-118.58	-18.8	-108.2	-18.82	-108.1	-23.86	31.61
14.41	-20.57	-119.31	-18.8	-109	-18.81	-108.98	-23.75	31.25
14.51	-20.65	-120.44	-18.81	-109.87	-18.82	-109.78	-23.67	30.44
14.61	-20.68	-121.21	-18.84	-110.64	-18.82	-110.52	-23.61	29.67
14.71	-20.71	-122.13	-18.84	-111.37	-18.83	-111.16	-23.57	28.89
14.81	-20.73	-122.96	-18.84	-112.2	-18.83	-112	-23.54	28.51
14.91	-20.73	-123.97	-18.85	-113.02	-18.85	-112.82	-23.48	28.23
15.01	-20.8	-125.06	-18.85	-113.63	-18.87	-113.46	-23.35	27.94
15.11	-20.86	-126.24	-18.85	-114.34	-18.86	-114.27	-23.29	27.16
15.21	-20.94	-127.05	-18.85	-115.12	-18.86	-115.05	-23.18	26.53
15.31	-21.03	-127.77	-18.88	-115.92	-18.86	-115.77	-23.13	25.85
15.41	-21.07	-128.64	-18.9	-116.61	-18.88	-116.48	-23.06	25.37
15.51	-21.1	-129.47	-18.91	-117.32	-18.88	-117.13	-23.01	24.68
15.61	-21.12	-130.82	-18.91	-118.1	-18.91	-117.9	-22.98	24.17
15.71	-21.16	-132.02	-18.89	-118.85	-18.9	-118.61	-22.94	23.95
15.81	-21.21	-133.28	-18.91	-119.58	-18.92	-119.4	-22.87	23.67
15.91	-21.26	-134.54	-18.91	-120.32	-18.92	-120.22	-22.79	23.02
16.01	-21.36	-135.51	-18.93	-120.96	-18.92	-120.87	-22.75	22.43
16.11	-21.43	-136.44	-18.94	-121.6	-18.93	-121.52	-22.7	21.8
16.21	-21.48	-137.06	-18.95	-122.36	-18.91	-122.24	-22.71	21.31
16.31	-21.45	-137.86	-18.94	-123.11	-18.92	-122.89	-22.65	20.98
16.41	-21.44	-139.1	-18.94	-123.8	-18.93	-123.54	-22.62	20.54
16.51	-21.47	-140.43	-18.94	-124.59	-18.92	-124.38	-22.6	20.02
16.61	-21.53	-141.59	-18.94	-125.33	-18.92	-125.13	-22.58	19.7
16.71	-21.54	-142.58	-18.94	-125.9	-18.92	-125.88	-22.63	19.77
16.81	-21.61	-143.52	-18.95	-126.7	-18.92	-126.66	-22.5	20.02
16.91	-21.66	-144.28	-18.97	-127.34	-18.91	-127.26	-22.4	20.13
17.01	-21.58	-144.76	-18.95	-127.99	-18.9	-128	-22.2	19.55
17.11	-21.55	-145.92	-18.97	-128.74	-18.9	-128.74	-22.01	18.25
17.21	-21.5	-147.22	-18.96	-129.32	-18.91	-129.48	-22.12	15.53
17.31	-21.55	-148.56	-18.94	-129.94	-18.93	-130.19	-22.43	15.73
17.41	-21.58	-149.71	-18.89	-130.47	-18.9	-130.89	-22.65	18.01
17.51	-21.64	-150.71	-18.85	-131.45	-18.87	-131.81	-22.25	20.14
17.61	-21.72	-151.48	-18.84	-131.96	-18.87	-132.42	-21.8	19.68
17.71	-21.74	-152.05	-18.8	-132.98	-18.84	-133.16	-21.59	16.84
17.81	-21.72	-152.79	-18.8	-133.8	-18.83	-133.92	-21.69	15.08
17.91	-21.7	-153.94	-18.78	-134.89	-18.82	-134.76	-21.92	15.2
18.01	-21.71	-155.65	-18.78	-135.79	-18.83	-135.58	-21.92	16.51
18.11	-21.81	-156.63	-18.78	-136.55	-18.83	-136.31	-21.66	17.33
18.21	-21.8	-157.88	-18.77	-137.42	-18.8	-137.23	-21.45	16.68
18.31	-21.82	-159.08	-18.75	-138.31	-18.79	-138.16	-21.27	16.14
18.41	-21.83	-160	-18.76	-139.03	-18.79	-138.97	-21.25	14.28
18.51	-21.78	-160.92	-18.75	-139.9	-18.76	-139.76	-21.27	14.27
18.61	-21.77	-161.98	-18.78	-140.83	-18.77	-140.55	-21.29	13.75
18.71	-21.66	-162.72	-18.76	-141.56	-18.76	-141.31	-21.28	13.93
18.81	-21.6	-164.34	-18.72	-142.42	-18.74	-142.14	-21.24	14
18.91	-21.61	-165.56	-18.72	-143.36	-18.72	-143.1	-21.13	14.49
19.01	-21.59	-166.91	-18.69	-144.25	-18.72	-144.13	-20.96	14.04
19.11	-21.57	-167.98	-18.71	-145.14	-18.72	-145.07	-20.87	13.61
19.21	-21.55	-168.9	-18.72	-145.97	-18.7	-145.81	-20.8	12.74
19.31	-21.48	-170.14	-18.68	-146.94	-18.67	-146.79	-20.85	12.78
19.41	-21.44	-171.56	-18.71	-148.16	-18.7	-147.98	-20.72	13.16
19.51	-21.37	-172.73	-18.73	-149	-18.71	-148.74	-20.59	13.11
19.61	-21.39	-174.43	-18.73	-149.9	-18.73	-149.61	-20.46	12.18
19.71	-21.4	-175.41	-18.72	-150.73	-18.73	-150.52	-20.45	11.8
19.81	-21.4	-176.43	-18.68	-151.54	-18.68	-151.41	-20.37	11.36
19.91	-21.4	-177.47	-18.67	-152.7	-18.68	-152.6	-20.27	11.43
20.01	-21.33	-178.52	-18.71	-153.83	-18.68	-153.7	-20.11	11.06