!s2p File: Measurements: S11, S21, S12, S22								
# GHz S dB R 50.0								
0.01	-25.38	-0.11	-28.56	-0.52	-28.56	-0.26	-22.65	-1.75
0.11	-25.55	-1.53	-28.69	-1.29	-28.68	-1.28	-23.47	-4.2
0.21	-25.61	-1.87	-28.73	-1.78	-28.73	-1.77	-23.72	-3.96
0.31	-25.63	-2.36	-28.74	-2.3	-28.74	-2.31	-23.79	-3.99
0.41	-25.63	-2.93	-28.75	-2.96	-28.75	-2.9	-23.84	-4.26
0.51	-25.62	-3.44	-28.76	-3.53	-28.75	-3.52	-23.87	-4.66
0.61	-25.63	-3.99	-28.76	-4.15	-28.76	-4.12	-23.89	-5.15
0.71	-25.62	-4.6	-28.76	-4.78	-28.77	-4.8	-23.9	-5.64
0.81	-25.62	-5.17	-28.77	-5.37	-28.76	-5.4	-23.91	-6.21
0.91	-25.64	-5.79	-28.77	-6.04	-28.77	-6.05	-23.93	-6.77
1.01	-25.64	-6.38	-28.78	-6.67	-28.78	-6.65	-23.94	-7.31
1.11	-25.65	-7.02	-28.78	-7.3	-28.77	-7.29	-23.95	-7.94
1.21	-25.66	-7.69	-28.78	-7.94	-28.78	-7.94	-23.96	-8.51
1.31	-25.66	-8.45	-28.79	-8.56	-28.79	-8.54	-23.97	-9.19
1.41	-25.68	-9.23	-28.79	-9.25	-28.79	-9.22	-23.99	-9.89
1.51	-25.7	-9.91	-28.79	-9.86	-28.79	-9.87	-24.02	-10.42
1.61	-25.7	-10.57	-28.8	-10.47	-28.8	-10.5	-24.03	-10.96
1.71	-25.69	-11.38	-28.81	-11.12	-28.8	-11.11	-24.04	-11.68
1.81	-25.68	-12.3	-28.82	-11.76	-28.81	-11.76	-24.05	-12.44
1.91	-25.7	-13.14	-28.82	-12.44	-28.81	-12.44	-24.07	-13.15
2.01	-25.72	-13.88	-28.83	-13.07	-28.82	-13.03	-24.1	-13.83
2.11	-25.72	-14.63	-28.83	-13.71	-28.83	-13.69	-24.13	-14.5
2.21	-25.74	-15.4	-28.85	-14.31	-28.84	-14.31	-24.16	-15.13
2.31	-25.75	-16.16	-28.85	-14.98	-28.85	-14.97	-24.19	-15.79
2.41	-25.77	-16.98	-28.86	-15.57	-28.86	-15.57	-24.22	-16.42
2.51	-25.8	-17.67	-28.87	-16.24	-28.86	-16.25	-24.25	-17.09
2.61	-25.83	-18.35	-28.87	-16.86	-28.87	-16.86	-24.29	-17.74
2.71	-25.87	-18.95	-28.88	-17.51	-28.88	-17.5	-24.33	-18.33
2.81	-25.9	-19.53	-28.89	-18.11	-28.89	-18.11	-24.38	-18.93
2.91	-25.92	-20.15	-28.9	-18.73	-28.9	-18.71	-24.41	-19.49
3.01	-25.94	-20.85	-28.9	-19.39	-28.9	-19.4	-24.45	-20.04
3.11	-25.97	-21.63	-28.91	-19.98	-28.91	-20.02	-24.49	-20.68
3.21	-26.03	-22.38	-28.92	-20.62	-28.92	-20.65	-24.53	-21.24
3.31	-26.07	-23.17	-28.93	-21.27	-28.93	-21.25	-24.59	-21.85
3.41	-26.11	-23.85	-28.94	-21.92	-28.94	-21.89	-24.63	-22.39
3.51	-26.13	-24.59	-28.95	-22.56	-28.95	-22.52	-24.68	-22.91
3.61	-26.17	-25.39	-28.97	-23.22	-28.96	-23.17	-24.73	-23.49
3.71	-26.22	-26.26	-28.97	-23.83	-28.97	-23.8	-24.77	-24.12
3.81	-26.27	-27.2	-28.99	-24.41	-28.99	-24.4	-24.82	-24.78
3.91	-26.35	-28.01	-29	-25.03	-29	-25.04	-24.89	-25.46
4.01	-26.41	-28.65	-29.01	-25.65	-29.02	-25.66	-24.95	-25.97
4.11	-26.42	-29.33	-29.02	-26.32	-29.02	-26.29	-25.02	-26.45
4.21	-26.45	-30.15	-29.03	-26.9	-29.03	-26.83	-25.05	-26.86
4.31	-26.49	-31.26	-29.04	-27.54	-29.05	-27.52	-25.1	-27.46
4.41	-26.56	-32.38	-29.05	-28.14	-29.06	-28.15	-25.14	-28.13
4.51	-26.65	-33.13	-29.09	-28.74	-29.08	-28.77	-25.2	-28.81
4.61	-26.73	-33.76	-29.09	-29.36	-29.1	-29.39	-25.29	-29.4
4.71	-26.75	-34.34	-29.1	-30.02	-29.11	-30.02	-25.38	-29.87
4.81	-26.76	-35.03	-29.12	-30.66	-29.12	-30.6	-25.44	-30.23
4.91	-26.77	-36.02	-29.13	-31.21	-29.13	-31.21	-25.49	-30.58
5.01	-26.8	-37.07	-29.14	-31.84	-29.14	-31.83	-25.54	-30.97
5.11	-26.88	-38.07	-29.16	-32.53	-29.16	-32.46	-25.58	-31.57
5.21	-26.99	-38.84	-29.18	-33.12	-29.18	-33.03	-25.65	-32.09
5.31	-27.07	-39.52	-29.2	-33.72	-29.2	-33.68	-25.73	-32.72
5.41	-27.16	-39.99	-29.22	-34.31	-29.22	-34.26	-25.84	-33.14
5.51	-27.2	-40.62	-29.23	-34.97	-29.22	-34.89	-25.94	-33.34
5.61	-27.26	-41.47	-29.26	-35.56	-29.26	-35.55	-26	-33.55
5.71	-27.33	-42.48	-29.27	-36.15	-29.27	-36.14	-26.07	-33.81
5.81	-27.44	-43.58	-29.28	-36.73	-29.29	-36.72	-26.11	-34.16
5.91	-27.56	-44.48	-29.31	-37.36	-29.31	-37.34	-26.16	-34.74
6.01	-27.69	-45.33	-29.33	-38.03	-29.33	-37.97	-26.24	-35.24
6.11	-27.79	-45.96	-29.35	-38.58	-29.36	-38.62	-26.32	-35.7
6.21	-27.85	-46.7	-29.37	-39.22	-29.37	-39.15	-26.42	-35.93
6.31	-27.91	-47.53	-29.4	-39.74	-29.4	-39.75	-26.49	-36.12
6.41	-27.96	-48.58	-29.44	-40.36	-29.42	-40.33	-26.58	-36.27
6.51	-28.04	-49.75	-29.45	-40.88	-29.45	-40.86	-26.63	-36.46
6.61	-28.15	-50.8	-29.48	-41.5	-29.48	-41.43	-26.7	-36.88
6.71	-28.27	-51.81	-29.51	-42.05	-29.5	-41.97	-26.77	-37.29
6.81	-28.37	-52.68	-29.52	-42.61	-29.53	-42.51	-26.86	-37.63
6.91	-28.45	-53.52	-29.55	-43.16	-29.55	-43.07	-26.98	-37.98
7.01	-28.51	-54.46	-29.58	-43.73	-29.58	-43.72	-27.07	-38.12
7.11	-28.58	-55.49	-29.6	-44.23	-29.6	-44.23	-27.14	-38.23
7.21	-28.66	-56.51	-29.62	-44.79	-29.62	-44.77	-27.2	-38.23
7.31	-28.76	-57.56	-29.64	-45.51	-29.65	-45.5	-27.21	-38.59
7.41	-28.85	-58.43	-29.72	-46.14	-29.71	-46.09	-27.26	-38.99
7.51	-28.94	-59.38	-29.75	-46.45	-29.74	-46.44	-27.33	-39.44
7.61	-29.04	-60.19	-29.77	-46.96	-29.77	-46.85	-27.44	-39.66
7.71	-29.12	-61.04	-29.8	-47.44	-29.79	-47.35	-27.54	-39.79
7.81	-29.21	-61.97	-29.82	-47.88	-29.83	-47.83	-27.63	-39.94
7.91	-29.34	-62.75	-29.87	-48.46	-29.88	-48.35	-27.7	-39.96
8.01	-29.49	-64	-29.91	-48.87	-29.9	-48.83	-27.76	-40.19
8.11	-29.63	-65.08	-29.93	-49.24	-29.94	-49.22	-27.84	-40.64
8.21	-29.8	-66.13	-29.97	-49.77	-29.97	-49.71	-27.94	-41.11
8.31	-29.96	-67.18	-30.01	-50.16	-30	-50.16	-28.02	-41.41
8.41	-30.04	-68.23	-30.03	-50.63	-30.04	-50.6	-28.13	-41.61
8.51	-30.16	-69.5	-30.08	-50.99	-30.1	-50.85	-28.23	-41.9
8.61	-30.23	-71	-30.12	-51.2	-30.12	-51.16	-28.32	-42.16
8.71	-30.31	-72.54	-30.13	-51.54	-30.14	-51.42	-28.42	-42.38
8.81	-30.43	-74.1	-30.16	-51.87	-30.15	-51.81	-28.51	-42.62
8.91	-30.57	-75.71	-30.18	-52.14	-30.18	-52.12	-28.62	-43.07
9.01	-30.72	-77.15	-30.21	-52.57	-30.22	-52.47	-28.76	-43.43
9.11	-30.85	-78.65	-30.24	-52.72	-30.24	-52.67	-28.88	-43.55
9.21	-30.99	-79.94	-30.25	-53.03	-30.25	-52.94	-29.04	-43.76
9.31	-31.09	-81.38	-30.26	-53.31	-30.25	-53.25	-29.19	-43.9
9.41	-31.16	-82.83	-30.27	-53.55	-30.27	-53.51	-29.32	-44.05
9.51	-31.22	-84.39	-30.29	-53.77	-30.28	-53.74	-29.49	-44.01
9.61	-31.37	-86.21	-30.28	-54.09	-30.27	-53.95	-29.61	-43.86
9.71	-31.48	-87.94	-30.29	-54.33	-30.28	-54.27	-29.77	-43.76
9.81	-31.6	-89.48	-30.28	-54.53	-30.28	-54.52	-29.94	-43.69
9.91	-31.71	-90.77	-30.27	-54.89	-30.26	-54.81	-30.14	-43.43
10.01	-31.81	-91.96	-30.27	-55.17	-30.28	-55.16	-30.31	-43.22
10.11	-31.9	-93.33	-30.26	-55.45	-30.26	-55.35	-30.53	-42.96
10.21	-32.01	-94.92	-30.26	-55.59	-30.25	-55.55	-30.76	-42.38
10.31	-32.14	-96.71	-30.23	-56	-30.23	-55.89	-30.93	-41.55
10.41	-32.23	-98.63	-30.21	-56.23	-30.22	-56.27	-31.09	-40.36
10.51	-32.44	-100.69	-30.2	-56.57	-30.18	-56.52	-31.22	-39.54
10.61	-32.61	-102.97	-30.16	-56.91	-30.16	-56.87	-31.39	-38.63
10.71	-32.78	-104.89	-30.15	-57.47	-30.15	-57.27	-31.54	-37.92
10.81	-32.92	-106.9	-30.13	-57.87	-30.13	-57.72	-31.75	-36.74
10.91	-33.02	-109.35	-30.12	-58.23	-30.11	-58.13	-31.96	-35.67
11.01	-33.16	-111.35	-30.09	-58.59	-30.1	-58.46	-32.16	-33.73
11.11	-33.23	-113.63	-30.07	-59.08	-30.07	-59.02	-32.24	-32.11
11.21	-33.31	-116.11	-30.06	-59.43	-30.05	-59.38	-32.33	-30.57
11.31	-33.43	-117.86	-30.06	-59.85	-30.04	-59.78	-32.33	-28.99
11.41	-33.52	-120.52	-30.04	-60.21	-30.03	-60.19	-32.39	-28.11
11.51	-33.59	-122.22	-30	-60.64	-30.01	-60.56	-32.48	-26.43
11.61	-33.6	-124.02	-29.98	-61.09	-29.97	-60.89	-32.58	-25.03
11.71	-33.59	-126.5	-29.96	-61.55	-29.98	-61.46	-32.67	-23.48
11.81	-33.62	-129.23	-29.94	-62	-29.93	-61.85	-32.73	-20.94
11.91	-33.71	-131.94	-29.93	-62.46	-29.91	-62.31	-32.59	-18.74
12.01	-33.7	-134.24	-29.91	-62.87	-29.9	-63.02	-32.5	-17.66
12.11	-33.66	-136.06	-29.92	-63.61	-29.89	-63.56	-32.44	-16.09
12.21	-33.64	-138.21	-29.91	-63.71	-29.89	-63.69	-32.31	-15.13
12.31	-33.68	-140.38	-29.87	-64.19	-29.86	-64.04	-32.29	-14.01
12.41	-33.6	-142.66	-29.84	-64.83	-29.84	-64.59	-32.23	-13.25
12.51	-33.62	-145.31	-29.83	-65.19	-29.83	-65.07	-32.27	-11.37
12.61	-33.56	-147.52	-29.8	-65.62	-29.8	-65.51	-32.19	-9.39
12.71	-33.58	-150.46	-29.77	-66.15	-29.78	-66.12	-32.06	-7.55
12.81	-33.63	-153.57	-29.8	-66.4	-29.79	-66.44	-31.7	-5.77
12.91	-33.82	-156.18	-29.74	-67.03	-29.73	-66.97	-31.54	-5.17
13.01	-33.74	-158.25	-29.77	-67.52	-29.75	-67.42	-31.25	-4.1
13.11	-33.79	-160.94	-29.73	-67.99	-29.72	-67.92	-31.17	-3.92
13.21	-33.73	-162.9	-29.77	-68.15	-29.77	-67.95	-31.09	-3.41
13.31	-33.48	-165.48	-29.67	-68.54	-29.68	-68.4	-31	-1.63
13.41	-33.36	-167.95	-29.65	-68.84	-29.65	-68.75	-30.75	-0.87
13.51	-33.19	-170.98	-29.6	-69.62	-29.61	-69.53	-30.7	-0.12
13.61	-33.04	-173.22	-29.6	-69.96	-29.59	-70.01	-30.42	0.72
13.71	-33	-175.79	-29.56	-70.51	-29.55	-70.38	-30.27	1.37
13.81	-32.92	-176.91	-29.53	-70.9	-29.52	-70.93	-30.08	1.77
13.91	-32.77	-179.01	-29.51	-71.53	-29.5	-71.39	-29.95	1.91
14.01	-32.57	179.65	-29.48	-72.24	-29.48	-72.19	-29.81	2.13
14.11	-32.31	177.65	-29.47	-72.67	-29.48	-72.51	-29.76	3.2
14.21	-32.1	175.47	-29.45	-72.83	-29.47	-72.64	-29.56	4.08
14.31	-31.94	172.38	-29.37	-73.31	-29.38	-73.29	-29.37	4.61
14.41	-31.86	170.89	-29.34	-74.03	-29.36	-74.02	-29.13	5.47
14.51	-31.72	168.33	-29.36	-74.62	-29.36	-74.51	-28.89	5.17
14.61	-31.7	167.17	-29.36	-75.1	-29.34	-75	-28.73	4.85
14.71	-31.56	166.35	-29.3	-75.55	-29.27	-75.38	-28.61	4.49
14.81	-31.45	165.56	-29.28	-76.32	-29.28	-76.16	-28.52	4.55
14.91	-31.21	165.08	-29.28	-76.87	-29.28	-76.66	-28.41	4.93
15.01	-30.97	162.78	-29.25	-77.06	-29.26	-76.85	-28.19	5.71
15.11	-30.81	160.69	-29.2	-77.49	-29.21	-77.39	-28.03	5.47
15.21	-30.76	158.42	-29.18	-78.12	-29.17	-78	-27.79	5.52
15.31	-30.8	156.49	-29.17	-78.74	-29.15	-78.58	-27.64	5.07
15.41	-30.72	155.22	-29.17	-78.81	-29.16	-78.78	-27.5	5.14
15.51	-30.6	154.18	-29.12	-79.32	-29.09	-79.08	-27.36	4.67
15.61	-30.32	153.35	-29.07	-79.79	-29.05	-79.64	-27.31	4.53
15.71	-30.04	152.04	-29.01	-80.62	-29.02	-80.31	-27.22	5.02
15.81	-29.75	150.38	-29.02	-81.09	-29.02	-80.95	-27.07	5.14
15.91	-29.52	148.56	-28.99	-81.37	-28.99	-81.31	-26.92	5.02
16.01	-29.41	146.04	-28.94	-81.69	-28.93	-81.65	-26.8	4.79
16.11	-29.32	144.29	-28.89	-81.89	-28.88	-81.91	-26.68	4.5
16.21	-29.33	142.89	-28.82	-82.61	-28.78	-82.49	-26.66	4.34
16.31	-29.29	143	-28.76	-83.27	-28.74	-83.06	-26.5	4.53
16.41	-29.08	142.49	-28.71	-83.85	-28.7	-83.62	-26.42	4.43
16.51	-28.79	141.37	-28.68	-84.52	-28.65	-84.3	-26.33	4.1
16.61	-28.64	139.73	-28.61	-85.12	-28.6	-84.93	-26.26	4.1
16.71	-28.54	138.43	-28.57	-85.62	-28.54	-85.57	-26.32	4.66
16.81	-28.45	137.07	-28.56	-86.16	-28.53	-86.13	-26.1	5.71
16.91	-28.45	135.7	-28.5	-86.4	-28.44	-86.37	-25.96	6.64
17.01	-28.49	136.39	-28.41	-87.27	-28.35	-87.3	-25.54	6.63
17.11	-28.32	136.5	-28.39	-87.82	-28.31	-87.95	-25.13	5.37
17.21	-28.08	136.23	-28.33	-88.4	-28.28	-88.69	-25.12	1.05
17.31	-27.81	135.07	-28.3	-88.68	-28.27	-89.14	-25.6	0.59
17.41	-27.7	133.35	-28.15	-89.28	-28.16	-89.74	-26.07	3.92
17.51	-27.65	132.03	-28.08	-90.43	-28.1	-90.81	-25.54	8.49
17.61	-27.64	130.33	-27.99	-90.48	-28.03	-91.15	-24.83	8.84
17.71	-27.75	129.35	-27.88	-91.93	-27.93	-92.11	-24.36	5.38
17.81	-27.74	129.08	-27.85	-92.74	-27.87	-92.93	-24.4	2.7
17.91	-27.64	128.88	-27.8	-93.79	-27.83	-93.69	-24.74	2.68
18.01	-27.33	127.96	-27.74	-94.6	-27.79	-94.4	-24.77	4.72
18.11	-27.22	126.17	-27.69	-95.33	-27.73	-95.07	-24.43	6.55
18.21	-27.14	125.09	-27.62	-96.44	-27.65	-96.31	-24.06	6.27
18.31	-27.05	124.14	-27.58	-97.43	-27.6	-97.25	-23.74	5.93
18.41	-27.03	123.32	-27.53	-97.98	-27.55	-97.94	-23.64	3.52
18.51	-27.07	123.29	-27.46	-99.33	-27.47	-99.27	-23.6	3.5
18.61	-26.94	123.35	-27.49	-100.22	-27.48	-99.93	-23.61	2.59
18.71	-26.91	123.83	-27.41	-100.91	-27.4	-100.72	-23.6	2.92
18.81	-26.7	123.36	-27.3	-101.92	-27.33	-101.58	-23.55	3.31
18.91	-26.62	122.33	-27.25	-103.08	-27.24	-102.79	-23.39	4.3
19.01	-26.56	121.84	-27.2	-104.35	-27.22	-104.13	-23.12	3.98
19.11	-26.49	121.85	-27.22	-105.41	-27.23	-105.33	-22.97	3.46
19.21	-26.49	121.4	-27.19	-106.05	-27.17	-105.86	-22.87	2.58
19.31	-26.44	121.55	-27.04	-107.43	-27.02	-107.32	-22.89	2.89
19.41	-26.3	121.98	-27.11	-109.21	-27.11	-109	-22.68	3.38
19.51	-26.24	121.91	-27.11	-110.27	-27.09	-110.06	-22.49	3.49
19.61	-26.04	121.43	-27.12	-111.06	-27.13	-110.92	-22.29	2.41
19.71	-26	120.76	-27.08	-111.73	-27.1	-111.54	-22.28	2.11
19.81	-26.09	119.73	-26.89	-113.11	-26.9	-113.04	-22.12	1.95
19.91	-26.14	120.29	-26.97	-115.04	-26.97	-114.93	-21.95	2.03
20.01	-26.14	121.66	-27.04	-116.55	-27.01	-116.44	-21.71	1.59