!s2p File: Measurements: S11, S21, S12, S22								
# GHz S dB R 50.0								
0.01	-15.41	-0.73	-14.78	-0.4	-14.78	-0.38	-17.33	-1.12
0.11	-15.66	-1.81	-14.9	-1.42	-14.9	-1.42	-17.8	-2.78
0.21	-15.73	-2.33	-14.94	-2.11	-14.94	-2.11	-17.94	-3.05
0.31	-15.76	-2.91	-14.96	-2.86	-14.95	-2.86	-17.98	-3.47
0.41	-15.77	-3.54	-14.96	-3.63	-14.96	-3.61	-18.01	-4
0.51	-15.78	-4.19	-14.97	-4.41	-14.96	-4.41	-18.02	-4.63
0.61	-15.79	-4.84	-14.97	-5.2	-14.97	-5.19	-18.03	-5.29
0.71	-15.78	-5.54	-14.98	-6	-14.97	-6	-18.04	-5.95
0.81	-15.79	-6.24	-14.98	-6.81	-14.98	-6.79	-18.04	-6.66
0.91	-15.79	-6.94	-14.98	-7.6	-14.98	-7.6	-18.05	-7.37
1.01	-15.8	-7.65	-14.99	-8.42	-14.98	-8.4	-18.06	-8.07
1.11	-15.8	-8.37	-14.99	-9.21	-14.98	-9.21	-18.06	-8.81
1.21	-15.81	-9.1	-14.99	-10.03	-14.99	-10.01	-18.06	-9.53
1.31	-15.81	-9.86	-14.99	-10.84	-14.99	-10.83	-18.07	-10.3
1.41	-15.82	-10.63	-15	-11.66	-14.99	-11.64	-18.08	-11.07
1.51	-15.83	-11.38	-15	-12.47	-15	-12.46	-18.09	-11.77
1.61	-15.83	-12.12	-15.01	-13.26	-15	-13.27	-18.09	-12.47
1.71	-15.82	-12.91	-15.01	-14.08	-15.01	-14.07	-18.1	-13.27
1.81	-15.83	-13.74	-15.02	-14.89	-15.01	-14.88	-18.1	-14.08
1.91	-15.83	-14.53	-15.02	-15.69	-15.02	-15.69	-18.11	-14.89
2.01	-15.84	-15.31	-15.02	-16.51	-15.02	-16.51	-18.12	-15.65
2.11	-15.85	-16.09	-15.03	-17.32	-15.03	-17.31	-18.13	-16.43
2.21	-15.85	-16.88	-15.03	-18.12	-15.03	-18.12	-18.14	-17.19
2.31	-15.86	-17.64	-15.04	-18.93	-15.04	-18.93	-18.16	-17.93
2.41	-15.87	-18.42	-15.04	-19.73	-15.04	-19.72	-18.17	-18.71
2.51	-15.88	-19.17	-15.05	-20.53	-15.05	-20.53	-18.18	-19.46
2.61	-15.89	-19.93	-15.06	-21.34	-15.05	-21.34	-18.2	-20.23
2.71	-15.9	-20.65	-15.06	-22.14	-15.06	-22.14	-18.21	-20.97
2.81	-15.92	-21.38	-15.07	-22.95	-15.06	-22.94	-18.23	-21.72
2.91	-15.93	-22.11	-15.07	-23.74	-15.07	-23.74	-18.25	-22.45
3.01	-15.95	-22.88	-15.08	-24.55	-15.07	-24.54	-18.26	-23.16
3.11	-15.96	-23.66	-15.08	-25.35	-15.08	-25.35	-18.28	-23.92
3.21	-15.98	-24.43	-15.09	-26.15	-15.09	-26.16	-18.29	-24.67
3.31	-15.99	-25.21	-15.09	-26.96	-15.09	-26.95	-18.31	-25.43
3.41	-16.01	-25.96	-15.1	-27.76	-15.1	-27.76	-18.33	-26.14
3.51	-16.02	-26.74	-15.11	-28.55	-15.1	-28.56	-18.35	-26.87
3.61	-16.04	-27.54	-15.11	-29.34	-15.11	-29.37	-18.37	-27.61
3.71	-16.06	-28.34	-15.12	-30.15	-15.12	-30.18	-18.39	-28.39
3.81	-16.08	-29.17	-15.13	-30.95	-15.12	-30.98	-18.41	-29.17
3.91	-16.11	-29.96	-15.13	-31.76	-15.13	-31.78	-18.43	-29.97
4.01	-16.13	-30.72	-15.14	-32.58	-15.14	-32.59	-18.46	-30.69
4.11	-16.14	-31.5	-15.14	-33.39	-15.14	-33.39	-18.48	-31.39
4.21	-16.15	-32.29	-15.15	-34.18	-15.15	-34.18	-18.5	-32.11
4.31	-16.18	-33.15	-15.16	-34.97	-15.16	-34.99	-18.52	-32.9
4.41	-16.2	-34.01	-15.16	-35.77	-15.17	-35.77	-18.53	-33.65
4.51	-16.23	-34.79	-15.18	-36.56	-15.18	-36.58	-18.55	-34.49
4.61	-16.26	-35.55	-15.18	-37.37	-15.18	-37.38	-18.58	-35.25
4.71	-16.27	-36.27	-15.19	-38.19	-15.19	-38.18	-18.62	-35.97
4.81	-16.28	-37.03	-15.2	-39	-15.2	-38.99	-18.65	-36.67
4.91	-16.29	-37.86	-15.21	-39.79	-15.21	-39.78	-18.67	-37.34
5.01	-16.31	-38.68	-15.21	-40.58	-15.22	-40.57	-18.68	-38.03
5.11	-16.34	-39.52	-15.22	-41.36	-15.22	-41.37	-18.7	-38.8
5.21	-16.37	-40.3	-15.23	-42.16	-15.23	-42.17	-18.73	-39.55
5.31	-16.4	-41.04	-15.25	-42.98	-15.24	-42.97	-18.76	-40.35
5.41	-16.44	-41.74	-15.25	-43.77	-15.25	-43.76	-18.8	-41.09
5.51	-16.46	-42.47	-15.26	-44.56	-15.26	-44.56	-18.84	-41.74
5.61	-16.49	-43.25	-15.27	-45.4	-15.27	-45.37	-18.87	-42.37
5.71	-16.51	-44.08	-15.28	-46.18	-15.28	-46.15	-18.89	-43.06
5.81	-16.55	-44.92	-15.29	-46.95	-15.29	-46.94	-18.91	-43.75
5.91	-16.59	-45.73	-15.3	-47.74	-15.3	-47.76	-18.92	-44.53
6.01	-16.63	-46.51	-15.31	-48.56	-15.31	-48.55	-18.95	-45.33
6.11	-16.66	-47.25	-15.32	-49.37	-15.32	-49.35	-18.99	-46.07
6.21	-16.69	-48.01	-15.34	-50.13	-15.33	-50.14	-19.02	-46.75
6.31	-16.71	-48.79	-15.35	-50.94	-15.35	-50.93	-19.05	-47.4
6.41	-16.74	-49.62	-15.36	-51.72	-15.36	-51.72	-19.08	-48.08
6.51	-16.76	-50.49	-15.37	-52.49	-15.37	-52.5	-19.11	-48.73
6.61	-16.8	-51.33	-15.38	-53.31	-15.38	-53.28	-19.13	-49.5
6.71	-16.84	-52.17	-15.39	-54.09	-15.39	-54.08	-19.16	-50.24
6.81	-16.87	-52.96	-15.41	-54.87	-15.41	-54.85	-19.2	-51.03
6.91	-16.9	-53.75	-15.42	-55.66	-15.42	-55.64	-19.24	-51.79
7.01	-16.93	-54.55	-15.43	-56.43	-15.43	-56.43	-19.28	-52.45
7.11	-16.95	-55.35	-15.44	-57.18	-15.45	-57.21	-19.31	-53.14
7.21	-16.99	-56.2	-15.46	-57.98	-15.46	-58	-19.33	-53.73
7.31	-17.01	-56.99	-15.47	-58.81	-15.47	-58.8	-19.35	-54.45
7.41	-17.04	-57.78	-15.49	-59.61	-15.49	-59.59	-19.36	-55.24
7.51	-17.07	-58.6	-15.51	-60.35	-15.5	-60.34	-19.39	-56.06
7.61	-17.1	-59.37	-15.52	-61.14	-15.52	-61.1	-19.43	-56.78
7.71	-17.14	-60.17	-15.53	-61.88	-15.53	-61.85	-19.47	-57.53
7.81	-17.17	-60.96	-15.55	-62.61	-15.55	-62.64	-19.51	-58.23
7.91	-17.21	-61.71	-15.56	-63.4	-15.57	-63.42	-19.54	-58.92
8.01	-17.25	-62.59	-15.58	-64.17	-15.58	-64.16	-19.56	-59.65
8.11	-17.29	-63.43	-15.59	-64.91	-15.6	-64.9	-19.6	-60.49
8.21	-17.34	-64.28	-15.61	-65.67	-15.61	-65.67	-19.63	-61.29
8.31	-17.39	-65.1	-15.62	-66.44	-15.63	-66.41	-19.67	-62.1
8.41	-17.42	-65.93	-15.63	-67.17	-15.64	-67.15	-19.71	-62.91
8.51	-17.46	-66.81	-15.66	-67.9	-15.66	-67.9	-19.75	-63.71
8.61	-17.49	-67.73	-15.68	-68.64	-15.68	-68.6	-19.78	-64.53
8.71	-17.52	-68.71	-15.69	-69.36	-15.7	-69.31	-19.82	-65.29
8.81	-17.56	-69.62	-15.71	-70.09	-15.71	-70.04	-19.86	-66.08
8.91	-17.6	-70.53	-15.72	-70.79	-15.72	-70.77	-19.9	-66.94
9.01	-17.65	-71.44	-15.73	-71.53	-15.74	-71.46	-19.95	-67.84
9.11	-17.69	-72.37	-15.74	-72.2	-15.75	-72.17	-20	-68.65
9.21	-17.74	-73.27	-15.76	-72.92	-15.76	-72.9	-20.06	-69.5
9.31	-17.78	-74.18	-15.77	-73.64	-15.77	-73.59	-20.11	-70.34
9.41	-17.82	-75.1	-15.78	-74.34	-15.78	-74.28	-20.16	-71.16
9.51	-17.85	-76.02	-15.79	-75.05	-15.79	-75.03	-20.22	-71.97
9.61	-17.9	-76.96	-15.8	-75.77	-15.8	-75.71	-20.28	-72.73
9.71	-17.94	-77.89	-15.81	-76.45	-15.81	-76.41	-20.34	-73.55
9.81	-17.99	-78.8	-15.81	-77.13	-15.82	-77.13	-20.41	-74.32
9.91	-18.04	-79.62	-15.82	-77.87	-15.82	-77.84	-20.48	-75.15
10.01	-18.08	-80.48	-15.82	-78.58	-15.83	-78.54	-20.54	-75.98
10.11	-18.12	-81.33	-15.84	-79.32	-15.84	-79.24	-20.62	-76.8
10.21	-18.17	-82.21	-15.85	-79.98	-15.84	-79.96	-20.71	-77.62
10.31	-18.22	-83.14	-15.85	-80.7	-15.85	-80.66	-20.78	-78.3
10.41	-18.27	-84.02	-15.85	-81.42	-15.85	-81.4	-20.87	-79
10.51	-18.34	-84.95	-15.86	-82.12	-15.86	-82.13	-20.94	-79.66
10.61	-18.4	-85.96	-15.86	-82.87	-15.86	-82.84	-21.02	-80.39
10.71	-18.47	-86.81	-15.86	-83.65	-15.87	-83.56	-21.09	-81.15
10.81	-18.53	-87.71	-15.87	-84.37	-15.87	-84.3	-21.18	-81.91
10.91	-18.59	-88.71	-15.87	-85.13	-15.87	-85.06	-21.27	-82.74
11.01	-18.65	-89.57	-15.87	-85.86	-15.88	-85.79	-21.39	-83.42
11.11	-18.7	-90.51	-15.88	-86.56	-15.89	-86.56	-21.47	-84.04
11.21	-18.75	-91.45	-15.89	-87.31	-15.89	-87.32	-21.56	-84.71
11.31	-18.81	-92.34	-15.9	-88.05	-15.89	-88.07	-21.63	-85.29
11.41	-18.87	-93.28	-15.9	-88.82	-15.9	-88.8	-21.7	-86.04
11.51	-18.92	-94.15	-15.9	-89.61	-15.9	-89.51	-21.79	-86.75
11.61	-18.97	-95.03	-15.91	-90.33	-15.9	-90.23	-21.88	-87.54
11.71	-19.01	-95.96	-15.9	-91.05	-15.92	-91.04	-21.97	-88.35
11.81	-19.07	-96.93	-15.91	-91.77	-15.92	-91.72	-22.1	-89.02
11.91	-19.14	-97.86	-15.92	-92.54	-15.92	-92.52	-22.2	-89.43
12.01	-19.18	-98.81	-15.93	-93.27	-15.93	-93.35	-22.26	-90.06
12.11	-19.22	-99.76	-15.94	-94.1	-15.93	-94.09	-22.35	-90.66
12.21	-19.27	-100.64	-15.95	-94.81	-15.94	-94.79	-22.43	-91.31
12.31	-19.33	-101.5	-15.95	-95.63	-15.95	-95.54	-22.5	-92.07
12.41	-19.37	-102.46	-15.95	-96.43	-15.96	-96.29	-22.57	-92.73
12.51	-19.43	-103.36	-15.96	-97.14	-15.97	-97.03	-22.7	-93.64
12.61	-19.47	-104.28	-15.96	-97.84	-15.97	-97.8	-22.81	-94.29
12.71	-19.54	-105.27	-15.96	-98.57	-15.98	-98.58	-22.94	-94.91
12.81	-19.62	-106.22	-15.98	-99.32	-15.99	-99.36	-23.06	-95.17
12.91	-19.71	-107.05	-15.99	-100.08	-15.99	-100.08	-23.13	-95.68
13.01	-19.76	-108.02	-16	-100.9	-16	-100.87	-23.23	-96.03
13.11	-19.85	-108.87	-16.01	-101.72	-16	-101.66	-23.29	-96.75
13.21	-19.88	-109.65	-16.04	-102.44	-16.04	-102.28	-23.39	-97.52
13.31	-19.93	-110.81	-16.02	-103.08	-16.03	-102.98	-23.53	-98.33
13.41	-19.98	-111.86	-16.02	-103.81	-16.03	-103.8	-23.64	-98.79
13.51	-20.04	-113.02	-16.03	-104.57	-16.04	-104.54	-23.73	-99.64
13.61	-20.09	-114.03	-16.04	-105.3	-16.04	-105.32	-23.86	-100.01
13.71	-20.16	-115.05	-16.04	-106.05	-16.04	-106.05	-23.97	-100.7
13.81	-20.2	-115.99	-16.05	-106.87	-16.05	-106.85	-24.08	-101.18
13.91	-20.27	-116.98	-16.06	-107.68	-16.05	-107.54	-24.14	-101.95
14.01	-20.31	-117.91	-16.06	-108.46	-16.06	-108.35	-24.25	-102.56
14.11	-20.35	-118.98	-16.06	-109.18	-16.08	-109.08	-24.39	-103.56
14.21	-20.39	-120.1	-16.08	-109.93	-16.09	-109.81	-24.54	-104.26
14.31	-20.47	-121.25	-16.07	-110.62	-16.09	-110.55	-24.69	-104.71
14.41	-20.51	-122.08	-16.08	-111.37	-16.09	-111.37	-24.85	-105.26
14.51	-20.58	-123.27	-16.09	-112.22	-16.1	-112.17	-24.96	-105.65
14.61	-20.63	-124.07	-16.12	-113	-16.11	-112.91	-25.04	-106.05
14.71	-20.67	-125.06	-16.12	-113.74	-16.11	-113.58	-25.11	-106.6
14.81	-20.7	-125.84	-16.12	-114.56	-16.12	-114.38	-25.21	-107.54
14.91	-20.69	-126.86	-16.14	-115.35	-16.14	-115.17	-25.36	-108.36
15.01	-20.76	-128.01	-16.14	-115.99	-16.16	-115.86	-25.56	-108.92
15.11	-20.82	-129.17	-16.14	-116.73	-16.15	-116.68	-25.68	-109.4
15.21	-20.9	-130.11	-16.15	-117.47	-16.15	-117.45	-25.84	-109.58
15.31	-20.99	-130.85	-16.18	-118.29	-16.16	-118.19	-25.93	-110.06
15.41	-21.04	-131.76	-16.2	-118.99	-16.18	-118.89	-26.09	-110.76
15.51	-21.09	-132.64	-16.21	-119.71	-16.18	-119.58	-26.2	-111.15
15.61	-21.11	-133.91	-16.21	-120.51	-16.2	-120.33	-26.31	-112.04
15.71	-21.14	-135.16	-16.2	-121.26	-16.21	-121.07	-26.48	-113.09
15.81	-21.19	-136.31	-16.22	-122	-16.22	-121.85	-26.64	-113.75
15.91	-21.23	-137.63	-16.22	-122.72	-16.23	-122.66	-26.81	-114.34
16.01	-21.34	-138.71	-16.24	-123.41	-16.24	-123.36	-26.96	-114.91
16.11	-21.4	-139.69	-16.26	-124.03	-16.24	-124.04	-27.11	-115.49
16.21	-21.46	-140.46	-16.26	-124.84	-16.23	-124.77	-27.2	-116.5
16.31	-21.45	-141.16	-16.27	-125.59	-16.25	-125.41	-27.42	-117.07
16.41	-21.44	-142.38	-16.27	-126.29	-16.26	-126.07	-27.55	-117.95
16.51	-21.47	-143.76	-16.27	-127.07	-16.26	-126.91	-27.69	-118.75
16.61	-21.52	-144.88	-16.27	-127.85	-16.26	-127.67	-27.84	-119.74
16.71	-21.54	-145.91	-16.28	-128.41	-16.27	-128.42	-27.99	-121.81
16.81	-21.6	-146.96	-16.29	-129.2	-16.27	-129.2	-28.4	-122.95
16.91	-21.66	-147.8	-16.32	-129.86	-16.26	-129.84	-28.82	-124.18
17.01	-21.61	-148.25	-16.32	-130.53	-16.27	-130.58	-29.26	-122.93
17.11	-21.59	-149.34	-16.34	-131.24	-16.27	-131.28	-29.57	-120.33
17.21	-21.55	-150.62	-16.33	-131.87	-16.28	-132.05	-28.89	-118.23
17.31	-21.58	-151.95	-16.32	-132.5	-16.3	-132.79	-28.6	-123.22
17.41	-21.61	-153.04	-16.27	-133.08	-16.29	-133.51	-28.76	-130.4
17.51	-21.66	-154.15	-16.25	-133.98	-16.27	-134.36	-29.97	-134.19
17.61	-21.76	-154.98	-16.23	-134.53	-16.27	-135.05	-31.05	-132.07
17.71	-21.79	-155.55	-16.21	-135.56	-16.25	-135.76	-31.16	-126.2
17.81	-21.79	-156.35	-16.22	-136.36	-16.25	-136.49	-30.73	-125.76
17.91	-21.78	-157.38	-16.21	-137.41	-16.25	-137.3	-30.57	-131.3
18.01	-21.77	-159.12	-16.22	-138.27	-16.27	-138.11	-31.13	-136.49
18.11	-21.88	-160.15	-16.22	-139.08	-16.27	-138.82	-32.2	-139.9
18.21	-21.86	-161.32	-16.22	-139.83	-16.26	-139.71	-33.1	-138.61
18.31	-21.87	-162.7	-16.21	-140.69	-16.25	-140.59	-33.89	-137.17
18.41	-21.9	-163.63	-16.23	-141.44	-16.25	-141.39	-33.81	-133.66
18.51	-21.86	-164.58	-16.23	-142.24	-16.24	-142.14	-34.11	-135.87
18.61	-21.86	-165.61	-16.26	-143.13	-16.25	-142.87	-34.08	-137.37
18.71	-21.78	-166.27	-16.25	-143.85	-16.25	-143.66	-34.44	-141.26
18.81	-21.7	-167.79	-16.22	-144.7	-16.25	-144.46	-34.97	-145.36
18.91	-21.73	-168.96	-16.23	-145.61	-16.23	-145.39	-35.99	-150.85
19.01	-21.69	-170.32	-16.21	-146.43	-16.24	-146.33	-37.24	-150.55
19.11	-21.68	-171.4	-16.23	-147.22	-16.25	-147.17	-37.98	-151.31
19.21	-21.67	-172.32	-16.25	-148.03	-16.24	-147.88	-38.48	-150.37
19.31	-21.6	-173.58	-16.23	-148.88	-16.22	-148.79	-38.77	-157.1
19.41	-21.57	-174.86	-16.26	-149.99	-16.25	-149.82	-40.24	-164.89
19.51	-21.51	-175.95	-16.29	-150.87	-16.27	-150.58	-41.73	-172.15
19.61	-21.53	-177.58	-16.29	-151.61	-16.3	-151.4	-43.66	-171.16
19.71	-21.53	-178.56	-16.28	-152.41	-16.3	-152.2	-43.88	-177.47
19.81	-21.52	-179.68	-16.27	-153.17	-16.27	-153.07	-45.73	173.63
19.91	-21.52	179.43	-16.27	-154.12	-16.28	-154.05	-46.87	155.6
20.01	-21.45	178.3	-16.3	-155.1	-16.29	-155	-49.72	128