!s2p File: Measurements: S11, S21, S12, S22								
# GHz S dB R 50.0								
0.01	-14.51	-0.96	-9.24	-0.38	-9.24	-0.39	-29.85	-3.56
0.11	-14.85	-2	-9.36	-1.48	-9.36	-1.47	-31.64	-8.19
0.21	-14.94	-2.34	-9.39	-2.25	-9.39	-2.25	-32.25	-6.29
0.31	-14.98	-2.79	-9.4	-3.08	-9.4	-3.07	-32.45	-4.82
0.41	-14.99	-3.29	-9.41	-3.92	-9.41	-3.92	-32.54	-3.92
0.51	-15	-3.82	-9.42	-4.79	-9.41	-4.79	-32.6	-3.29
0.61	-15.01	-4.37	-9.42	-5.66	-9.42	-5.66	-32.64	-2.84
0.71	-15	-4.97	-9.42	-6.54	-9.42	-6.54	-32.64	-2.45
0.81	-15.01	-5.55	-9.43	-7.43	-9.42	-7.42	-32.64	-2.26
0.91	-15.01	-6.17	-9.43	-8.31	-9.43	-8.31	-32.65	-1.97
1.01	-15.01	-6.78	-9.44	-9.2	-9.43	-9.19	-32.63	-1.69
1.11	-15.01	-7.4	-9.44	-10.08	-9.43	-10.08	-32.6	-1.65
1.21	-15.02	-8.05	-9.44	-10.97	-9.44	-10.96	-32.59	-1.58
1.31	-15.01	-8.71	-9.45	-11.86	-9.44	-11.85	-32.57	-1.69
1.41	-15.02	-9.38	-9.45	-12.76	-9.45	-12.75	-32.58	-1.81
1.51	-15.02	-10.04	-9.45	-13.64	-9.45	-13.64	-32.58	-1.51
1.61	-15.02	-10.7	-9.46	-14.53	-9.45	-14.53	-32.55	-1.36
1.71	-15.01	-11.38	-9.46	-15.41	-9.46	-15.41	-32.51	-1.52
1.81	-15.01	-12.13	-9.47	-16.3	-9.46	-16.3	-32.48	-2.01
1.91	-15.01	-12.82	-9.47	-17.18	-9.47	-17.19	-32.47	-2.22
2.01	-15.01	-13.51	-9.48	-18.08	-9.47	-18.07	-32.48	-2.35
2.11	-15.01	-14.19	-9.48	-18.97	-9.48	-18.96	-32.48	-2.48
2.21	-15.02	-14.88	-9.49	-19.85	-9.48	-19.85	-32.46	-2.55
2.31	-15.02	-15.57	-9.49	-20.73	-9.49	-20.74	-32.45	-2.57
2.41	-15.02	-16.26	-9.5	-21.62	-9.49	-21.61	-32.44	-2.69
2.51	-15.03	-16.91	-9.5	-22.49	-9.5	-22.49	-32.45	-2.75
2.61	-15.03	-17.58	-9.51	-23.38	-9.51	-23.37	-32.46	-2.81
2.71	-15.04	-18.23	-9.51	-24.26	-9.51	-24.26	-32.44	-2.8
2.81	-15.05	-18.87	-9.52	-25.14	-9.52	-25.14	-32.45	-2.82
2.91	-15.05	-19.52	-9.53	-26.02	-9.52	-26.02	-32.45	-2.73
3.01	-15.05	-20.19	-9.53	-26.9	-9.53	-26.9	-32.42	-2.62
3.11	-15.06	-20.87	-9.54	-27.77	-9.54	-27.77	-32.41	-2.75
3.21	-15.07	-21.56	-9.54	-28.65	-9.54	-28.66	-32.39	-2.8
3.31	-15.08	-22.25	-9.55	-29.54	-9.55	-29.54	-32.4	-2.84
3.41	-15.08	-22.93	-9.55	-30.42	-9.55	-30.42	-32.4	-2.76
3.51	-15.09	-23.62	-9.56	-31.29	-9.56	-31.3	-32.37	-2.59
3.61	-15.1	-24.32	-9.57	-32.17	-9.57	-32.18	-32.36	-2.72
3.71	-15.1	-25.03	-9.57	-33.04	-9.57	-33.06	-32.35	-2.83
3.81	-15.12	-25.77	-9.58	-33.92	-9.58	-33.94	-32.34	-3.14
3.91	-15.13	-26.47	-9.59	-34.81	-9.59	-34.83	-32.39	-3.3
4.01	-15.14	-27.13	-9.59	-35.7	-9.6	-35.71	-32.39	-3.14
4.11	-15.14	-27.83	-9.6	-36.6	-9.6	-36.58	-32.4	-2.91
4.21	-15.15	-28.54	-9.61	-37.46	-9.61	-37.46	-32.32	-2.85
4.31	-15.16	-29.3	-9.61	-38.32	-9.62	-38.33	-32.29	-3.03
4.41	-15.17	-30.08	-9.62	-39.2	-9.63	-39.21	-32.25	-3.34
4.51	-15.19	-30.77	-9.63	-40.07	-9.63	-40.09	-32.27	-3.66
4.61	-15.2	-31.43	-9.64	-40.96	-9.64	-40.98	-32.28	-3.68
4.71	-15.2	-32.08	-9.65	-41.86	-9.65	-41.84	-32.32	-3.45
4.81	-15.2	-32.78	-9.66	-42.75	-9.66	-42.72	-32.29	-3.16
4.91	-15.21	-33.51	-9.67	-43.62	-9.66	-43.59	-32.22	-2.91
5.01	-15.21	-34.26	-9.67	-44.49	-9.67	-44.46	-32.15	-2.85
5.11	-15.23	-34.98	-9.68	-45.34	-9.68	-45.34	-32.09	-3.29
5.21	-15.25	-35.66	-9.69	-46.22	-9.69	-46.22	-32.07	-3.26
5.31	-15.26	-36.33	-9.7	-47.11	-9.7	-47.1	-32.08	-3.51
5.41	-15.27	-36.96	-9.71	-47.99	-9.71	-47.97	-32.11	-3.21
5.51	-15.28	-37.6	-9.72	-48.86	-9.72	-48.85	-32.09	-2.75
5.61	-15.29	-38.33	-9.73	-49.75	-9.73	-49.73	-32.01	-2.38
5.71	-15.3	-39.04	-9.74	-50.63	-9.74	-50.61	-31.94	-2.35
5.81	-15.32	-39.8	-9.75	-51.48	-9.75	-51.47	-31.84	-2.34
5.91	-15.35	-40.5	-9.76	-52.36	-9.76	-52.35	-31.79	-2.86
6.01	-15.37	-41.19	-9.77	-53.24	-9.77	-53.23	-31.77	-3.11
6.11	-15.38	-41.86	-9.78	-54.12	-9.78	-54.11	-31.75	-3.2
6.21	-15.39	-42.55	-9.79	-54.99	-9.79	-54.99	-31.72	-2.92
6.31	-15.4	-43.26	-9.8	-55.86	-9.81	-55.84	-31.63	-2.86
6.41	-15.4	-44.02	-9.81	-56.72	-9.82	-56.72	-31.58	-2.67
6.51	-15.41	-44.79	-9.83	-57.58	-9.83	-57.59	-31.49	-2.81
6.61	-15.43	-45.56	-9.84	-58.47	-9.84	-58.45	-31.45	-2.92
6.71	-15.45	-46.29	-9.85	-59.34	-9.85	-59.33	-31.41	-3.18
6.81	-15.46	-47.01	-9.86	-60.21	-9.86	-60.19	-31.39	-3.35
6.91	-15.47	-47.76	-9.87	-61.07	-9.88	-61.05	-31.39	-3.43
7.01	-15.47	-48.49	-9.88	-61.93	-9.89	-61.93	-31.33	-3.33
7.11	-15.48	-49.26	-9.9	-62.77	-9.9	-62.78	-31.25	-3.45
7.21	-15.49	-50.02	-9.91	-63.66	-9.92	-63.66	-31.13	-3.45
7.31	-15.5	-50.73	-9.93	-64.55	-9.93	-64.53	-31.03	-4.11
7.41	-15.51	-51.47	-9.94	-65.42	-9.94	-65.4	-30.95	-4.91
7.51	-15.52	-52.24	-9.96	-66.27	-9.96	-66.25	-30.95	-5.33
7.61	-15.53	-52.96	-9.97	-67.14	-9.97	-67.09	-30.94	-5.5
7.71	-15.53	-53.71	-9.98	-67.98	-9.99	-67.94	-30.89	-5.56
7.81	-15.54	-54.44	-9.99	-68.78	-10	-68.8	-30.86	-5.78
7.91	-15.56	-55.17	-10.01	-69.66	-10.02	-69.65	-30.76	-5.96
8.01	-15.58	-55.99	-10.03	-70.51	-10.03	-70.51	-30.73	-6.48
8.11	-15.6	-56.78	-10.04	-71.35	-10.05	-71.33	-30.72	-7.05
8.21	-15.62	-57.57	-10.06	-72.2	-10.07	-72.18	-30.72	-7.73
8.31	-15.64	-58.34	-10.07	-73.06	-10.08	-73.01	-30.72	-8.25
8.41	-15.65	-59.17	-10.08	-73.86	-10.1	-73.82	-30.73	-8.69
8.51	-15.66	-60	-10.1	-74.69	-10.11	-74.66	-30.77	-9.14
8.61	-15.67	-60.88	-10.12	-75.51	-10.13	-75.48	-30.77	-9.48
8.71	-15.69	-61.82	-10.14	-76.35	-10.15	-76.28	-30.77	-9.82
8.81	-15.71	-62.67	-10.16	-77.14	-10.16	-77.1	-30.78	-10.27
8.91	-15.73	-63.57	-10.17	-77.95	-10.17	-77.92	-30.81	-10.76
9.01	-15.75	-64.41	-10.18	-78.78	-10.19	-78.7	-30.89	-11.22
9.11	-15.77	-65.29	-10.19	-79.55	-10.2	-79.51	-30.93	-11.29
9.21	-15.8	-66.18	-10.21	-80.36	-10.21	-80.32	-30.99	-11.3
9.31	-15.82	-67.04	-10.22	-81.18	-10.22	-81.12	-31.06	-11.45
9.41	-15.84	-67.92	-10.23	-81.98	-10.23	-81.91	-31.11	-11.55
9.51	-15.86	-68.78	-10.24	-82.78	-10.25	-82.74	-31.16	-11.37
9.61	-15.88	-69.68	-10.26	-83.6	-10.26	-83.53	-31.18	-11.15
9.71	-15.91	-70.58	-10.26	-84.39	-10.27	-84.33	-31.22	-10.94
9.81	-15.94	-71.41	-10.27	-85.16	-10.28	-85.14	-31.27	-10.53
9.91	-15.96	-72.21	-10.28	-85.99	-10.28	-85.94	-31.33	-10.2
10.01	-15.98	-73.05	-10.28	-86.82	-10.29	-86.74	-31.39	-9.82
10.11	-16	-73.85	-10.3	-87.63	-10.3	-87.54	-31.44	-9.24
10.21	-16.03	-74.71	-10.31	-88.4	-10.31	-88.36	-31.48	-8.43
10.31	-16.07	-75.55	-10.31	-89.22	-10.32	-89.16	-31.48	-7.86
10.41	-16.1	-76.41	-10.32	-90.02	-10.33	-89.98	-31.43	-6.86
10.51	-16.14	-77.25	-10.33	-90.83	-10.33	-90.81	-31.38	-6.18
10.61	-16.18	-78.12	-10.33	-91.67	-10.34	-91.62	-31.34	-5.49
10.71	-16.22	-78.94	-10.33	-92.54	-10.34	-92.43	-31.31	-5.12
10.81	-16.25	-79.78	-10.34	-93.37	-10.35	-93.26	-31.29	-4.23
10.91	-16.29	-80.69	-10.35	-94.21	-10.36	-94.09	-31.3	-3.49
11.01	-16.33	-81.51	-10.35	-95.03	-10.37	-94.93	-31.22	-2.22
11.11	-16.36	-82.35	-10.36	-95.84	-10.38	-95.79	-31.12	-1.61
11.21	-16.4	-83.21	-10.37	-96.67	-10.38	-96.63	-31.02	-0.94
11.31	-16.43	-83.97	-10.38	-97.5	-10.38	-97.46	-30.89	-0.51
11.41	-16.45	-84.85	-10.38	-98.37	-10.39	-98.31	-30.78	-0.37
11.51	-16.48	-85.67	-10.4	-99.25	-10.4	-99.1	-30.71	0.23
11.61	-16.51	-86.5	-10.4	-100.06	-10.4	-99.94	-30.66	0.76
11.71	-16.53	-87.36	-10.4	-100.9	-10.42	-100.82	-30.58	1.13
11.81	-16.56	-88.27	-10.41	-101.73	-10.43	-101.63	-30.46	2.03
11.91	-16.6	-89.05	-10.42	-102.57	-10.43	-102.5	-30.25	2.63
12.01	-16.62	-89.93	-10.43	-103.39	-10.44	-103.39	-30.09	2.46
12.11	-16.64	-90.74	-10.45	-104.28	-10.45	-104.22	-29.97	2.63
12.21	-16.65	-91.53	-10.46	-105.12	-10.45	-105.04	-29.84	2.71
12.31	-16.68	-92.39	-10.47	-106.02	-10.47	-105.91	-29.73	2.63
12.41	-16.69	-93.29	-10.46	-106.91	-10.48	-106.71	-29.64	2.36
12.51	-16.73	-94.18	-10.48	-107.74	-10.49	-107.57	-29.6	2.99
12.61	-16.75	-95.02	-10.49	-108.52	-10.5	-108.42	-29.46	3.31
12.71	-16.8	-95.9	-10.49	-109.35	-10.51	-109.29	-29.31	3.68
12.81	-16.84	-96.69	-10.5	-110.2	-10.52	-110.19	-29.05	4.05
12.91	-16.88	-97.42	-10.52	-111.07	-10.52	-110.99	-28.89	3.7
13.01	-16.9	-98.3	-10.53	-111.97	-10.53	-111.86	-28.68	3.66
13.11	-16.94	-99.06	-10.54	-112.88	-10.54	-112.74	-28.58	3.05
13.21	-16.94	-99.89	-10.57	-113.71	-10.57	-113.5	-28.54	2.99
13.31	-16.98	-100.96	-10.56	-114.49	-10.57	-114.31	-28.41	3.53
13.41	-17	-101.95	-10.56	-115.33	-10.58	-115.23	-28.24	3.41
13.51	-17.04	-102.95	-10.58	-116.17	-10.6	-116.06	-28.18	3.06
13.61	-17.06	-103.85	-10.59	-116.98	-10.6	-116.92	-28	2.99
13.71	-17.09	-104.75	-10.59	-117.83	-10.6	-117.77	-27.87	3.03
13.81	-17.11	-105.65	-10.62	-118.75	-10.62	-118.65	-27.72	2.64
13.91	-17.14	-106.52	-10.63	-119.66	-10.63	-119.44	-27.66	2.15
14.01	-17.15	-107.48	-10.64	-120.52	-10.64	-120.34	-27.54	1.74
14.11	-17.16	-108.49	-10.64	-121.35	-10.66	-121.16	-27.52	1.9
14.21	-17.19	-109.5	-10.66	-122.21	-10.68	-122.01	-27.39	2.17
14.31	-17.25	-110.56	-10.66	-123	-10.69	-122.86	-27.22	2.05
14.41	-17.27	-111.27	-10.67	-123.83	-10.69	-123.74	-27.07	1.95
14.51	-17.3	-112.17	-10.69	-124.77	-10.7	-124.64	-26.94	1.37
14.61	-17.3	-113	-10.72	-125.65	-10.71	-125.48	-26.81	0.78
14.71	-17.31	-113.92	-10.74	-126.48	-10.73	-126.26	-26.71	0.09
14.81	-17.31	-114.76	-10.74	-127.39	-10.74	-127.12	-26.66	-0.33
14.91	-17.29	-115.82	-10.76	-128.25	-10.77	-128	-26.59	-0.4
15.01	-17.33	-116.82	-10.76	-129.03	-10.78	-128.81	-26.46	-0.2
15.11	-17.37	-117.87	-10.77	-129.86	-10.79	-129.72	-26.32	-0.78
15.21	-17.41	-118.6	-10.79	-130.7	-10.8	-130.58	-26.15	-1.2
15.31	-17.44	-119.32	-10.82	-131.58	-10.81	-131.41	-26.05	-1.82
15.41	-17.44	-120.21	-10.84	-132.42	-10.83	-132.23	-25.96	-2
15.51	-17.44	-121.11	-10.86	-133.26	-10.84	-133.02	-25.85	-2.64
15.61	-17.45	-122.38	-10.87	-134.16	-10.87	-133.9	-25.8	-3.11
15.71	-17.48	-123.56	-10.87	-134.99	-10.88	-134.7	-25.77	-3.24
15.81	-17.51	-124.63	-10.89	-135.78	-10.9	-135.55	-25.68	-3.44
15.91	-17.54	-125.69	-10.9	-136.63	-10.91	-136.47	-25.57	-3.83
16.01	-17.59	-126.59	-10.93	-137.43	-10.92	-137.3	-25.49	-4.18
16.11	-17.61	-127.52	-10.95	-138.2	-10.94	-138.1	-25.4	-4.66
16.21	-17.62	-128.35	-10.97	-139.08	-10.94	-138.92	-25.37	-5.24
16.31	-17.59	-129.24	-10.99	-139.91	-10.97	-139.66	-25.28	-5.34
16.41	-17.58	-130.45	-10.99	-140.69	-10.98	-140.4	-25.23	-5.83
16.51	-17.59	-131.68	-11.01	-141.57	-11	-141.33	-25.18	-6.29
16.61	-17.63	-132.75	-11.02	-142.41	-11.01	-142.15	-25.15	-6.62
16.71	-17.64	-133.78	-11.04	-143.09	-11.03	-142.99	-25.2	-6.65
16.81	-17.67	-134.69	-11.05	-143.94	-11.03	-143.86	-25.09	-5.89
16.91	-17.68	-135.54	-11.09	-144.73	-11.04	-144.63	-24.99	-5.4
17.01	-17.63	-136.31	-11.1	-145.45	-11.06	-145.4	-24.7	-5.41
17.11	-17.6	-137.43	-11.13	-146.26	-11.07	-146.18	-24.39	-6.29
17.21	-17.58	-138.71	-11.13	-146.94	-11.09	-147	-24.3	-9.74
17.31	-17.6	-140	-11.12	-147.71	-11.11	-147.85	-24.65	-10.74
17.41	-17.63	-141.22	-11.1	-148.38	-11.11	-148.66	-25.06	-9.26
17.51	-17.67	-142.16	-11.09	-149.3	-11.11	-149.55	-24.82	-5.72
17.61	-17.71	-142.95	-11.09	-149.99	-11.12	-150.33	-24.3	-4.92
17.71	-17.72	-143.75	-11.08	-151.03	-11.12	-151.1	-23.88	-7.35
17.81	-17.71	-144.62	-11.1	-151.89	-11.13	-151.89	-23.86	-9.61
17.91	-17.71	-145.75	-11.11	-152.94	-11.14	-152.76	-24.12	-10.2
18.01	-17.73	-147.25	-11.13	-153.88	-11.16	-153.62	-24.21	-8.93
18.11	-17.79	-148.18	-11.14	-154.74	-11.18	-154.43	-24.02	-7.36
18.21	-17.81	-149.43	-11.15	-155.54	-11.18	-155.33	-23.75	-7.4
18.31	-17.83	-150.48	-11.14	-156.42	-11.18	-156.21	-23.5	-7.59
18.41	-17.84	-151.44	-11.17	-157.24	-11.19	-157.08	-23.35	-9.36
18.51	-17.82	-152.54	-11.19	-158.05	-11.19	-157.82	-23.34	-9.67
18.61	-17.81	-153.46	-11.22	-158.97	-11.21	-158.63	-23.32	-10.51
18.71	-17.76	-154.54	-11.22	-159.77	-11.22	-159.48	-23.33	-10.54
18.81	-17.74	-156.03	-11.21	-160.69	-11.23	-160.36	-23.31	-10.39
18.91	-17.77	-157.19	-11.23	-161.61	-11.23	-161.29	-23.22	-9.6
19.01	-17.8	-158.43	-11.22	-162.42	-11.25	-162.22	-23	-9.79
19.11	-17.8	-159.32	-11.24	-163.22	-11.26	-163.08	-22.88	-10.23
19.21	-17.81	-160.26	-11.27	-164.12	-11.26	-163.88	-22.76	-10.99
19.31	-17.77	-161.48	-11.28	-164.96	-11.26	-164.77	-22.78	-11.2
19.41	-17.78	-162.58	-11.3	-165.96	-11.29	-165.72	-22.66	-10.71
19.51	-17.76	-163.8	-11.33	-166.87	-11.31	-166.54	-22.51	-10.77
19.61	-17.8	-165.17	-11.33	-167.73	-11.34	-167.42	-22.33	-11.47
19.71	-17.83	-166.02	-11.34	-168.57	-11.34	-168.29	-22.29	-12.02
19.81	-17.87	-167.04	-11.35	-169.35	-11.35	-169.18	-22.16	-12.56
19.91	-17.88	-167.71	-11.35	-170.24	-11.36	-170.07	-22.08	-12.56
20.01	-17.88	-168.66	-11.38	-171.12	-11.36	-170.94	-21.88	-12.82