!s2p File: Measurements: S11, S21, S12, S22								
# GHz S dB R 50.0								
0.01	-14.63	-0.98	-9.64	-0.34	-9.64	-0.36	-39.45	-7.21
0.11	-14.97	-2.01	-9.77	-1.52	-9.76	-1.52	-44.41	-39.02
0.21	-15.07	-2.32	-9.8	-2.3	-9.8	-2.3	-49.11	-40.31
0.31	-15.1	-2.72	-9.81	-3.12	-9.81	-3.12	-52.47	-26.6
0.41	-15.12	-3.19	-9.82	-3.97	-9.82	-3.96	-54.58	-7.06
0.51	-15.12	-3.7	-9.83	-4.83	-9.83	-4.83	-54.7	13.99
0.61	-15.13	-4.22	-9.83	-5.71	-9.83	-5.71	-54.01	31.26
0.71	-15.13	-4.79	-9.84	-6.6	-9.83	-6.6	-52.5	42.44
0.81	-15.13	-5.34	-9.84	-7.48	-9.84	-7.48	-51.25	49.18
0.91	-15.13	-5.94	-9.84	-8.37	-9.84	-8.37	-50.06	54.62
1.01	-15.13	-6.53	-9.85	-9.27	-9.84	-9.26	-48.91	57.77
1.11	-15.13	-7.11	-9.85	-10.15	-9.84	-10.16	-47.95	59.96
1.21	-15.13	-7.74	-9.85	-11.05	-9.85	-11.05	-47.12	61.36
1.31	-15.13	-8.38	-9.86	-11.94	-9.85	-11.94	-46.46	61.98
1.41	-15.13	-9.03	-9.86	-12.85	-9.86	-12.84	-45.92	63.33
1.51	-15.13	-9.66	-9.86	-13.75	-9.86	-13.74	-45.15	65.03
1.61	-15.13	-10.3	-9.87	-14.63	-9.86	-14.63	-44.49	65.31
1.71	-15.12	-10.96	-9.87	-15.53	-9.87	-15.53	-44	64.56
1.81	-15.12	-11.68	-9.87	-16.42	-9.87	-16.42	-43.66	64.23
1.91	-15.12	-12.36	-9.88	-17.31	-9.88	-17.31	-43.29	64.21
2.01	-15.12	-13.02	-9.88	-18.21	-9.88	-18.21	-42.92	65.18
2.11	-15.12	-13.68	-9.89	-19.1	-9.89	-19.1	-42.57	65.37
2.21	-15.12	-14.36	-9.89	-20	-9.89	-19.99	-42.15	65.78
2.31	-15.12	-15.02	-9.9	-20.89	-9.9	-20.89	-41.77	65.71
2.41	-15.12	-15.69	-9.9	-21.77	-9.9	-21.76	-41.39	65.78
2.51	-15.12	-16.33	-9.91	-22.65	-9.91	-22.66	-41.08	65.85
2.61	-15.12	-16.98	-9.91	-23.55	-9.91	-23.55	-40.75	66.39
2.71	-15.12	-17.6	-9.92	-24.44	-9.92	-24.44	-40.38	66.45
2.81	-15.13	-18.23	-9.93	-25.33	-9.92	-25.32	-40.07	66.52
2.91	-15.13	-18.86	-9.93	-26.21	-9.93	-26.22	-39.74	66.6
3.01	-15.14	-19.51	-9.94	-27.1	-9.93	-27.1	-39.38	66.41
3.11	-15.14	-20.19	-9.94	-27.99	-9.94	-27.99	-39.14	66.26
3.21	-15.14	-20.85	-9.95	-28.87	-9.94	-28.88	-38.84	66.21
3.31	-15.15	-21.53	-9.95	-29.77	-9.95	-29.77	-38.56	66.54
3.41	-15.16	-22.19	-9.96	-30.65	-9.96	-30.66	-38.3	66.24
3.51	-15.16	-22.86	-9.96	-31.53	-9.96	-31.55	-38	66.09
3.61	-15.16	-23.55	-9.97	-32.41	-9.97	-32.44	-37.76	65.97
3.71	-15.17	-24.24	-9.98	-33.29	-9.98	-33.33	-37.54	65.86
3.81	-15.18	-24.98	-9.98	-34.19	-9.98	-34.21	-37.38	65.47
3.91	-15.18	-25.67	-9.99	-35.09	-9.99	-35.11	-37.24	65.83
4.01	-15.2	-26.32	-9.99	-35.99	-10	-36	-36.96	66.09
4.11	-15.19	-27	-10	-36.89	-10	-36.88	-36.71	65.99
4.21	-15.2	-27.7	-10.01	-37.76	-10.01	-37.76	-36.43	65.52
4.31	-15.2	-28.45	-10.01	-38.63	-10.02	-38.65	-36.25	64.75
4.41	-15.21	-29.2	-10.02	-39.51	-10.02	-39.53	-36.11	64.21
4.51	-15.22	-29.88	-10.03	-40.4	-10.03	-40.43	-35.98	64.22
4.61	-15.24	-30.55	-10.04	-41.3	-10.04	-41.31	-35.81	64.21
4.71	-15.23	-31.18	-10.05	-42.21	-10.05	-42.2	-35.6	64.4
4.81	-15.23	-31.87	-10.05	-43.11	-10.05	-43.09	-35.33	64.26
4.91	-15.23	-32.6	-10.06	-43.99	-10.06	-43.97	-35.09	63.62
5.01	-15.23	-33.32	-10.06	-44.86	-10.07	-44.86	-34.87	63.13
5.11	-15.24	-34.05	-10.07	-45.73	-10.08	-45.73	-34.74	62.34
5.21	-15.26	-34.73	-10.08	-46.62	-10.09	-46.63	-34.56	62.04
5.31	-15.27	-35.39	-10.09	-47.51	-10.1	-47.52	-34.43	61.94
5.41	-15.28	-36.03	-10.1	-48.41	-10.1	-48.39	-34.25	62.11
5.51	-15.28	-36.65	-10.11	-49.29	-10.11	-49.29	-34	62.22
5.61	-15.29	-37.36	-10.12	-50.19	-10.12	-50.17	-33.76	61.68
5.71	-15.3	-38.08	-10.13	-51.08	-10.13	-51.06	-33.57	61.01
5.81	-15.32	-38.82	-10.14	-51.95	-10.14	-51.94	-33.38	60.32
5.91	-15.34	-39.53	-10.15	-52.84	-10.15	-52.84	-33.27	59.54
6.01	-15.35	-40.23	-10.16	-53.73	-10.16	-53.73	-33.18	59.23
6.11	-15.37	-40.89	-10.17	-54.62	-10.17	-54.62	-33.04	58.83
6.21	-15.37	-41.58	-10.18	-55.5	-10.18	-55.49	-32.85	58.6
6.31	-15.37	-42.28	-10.19	-56.38	-10.19	-56.38	-32.65	58.04
6.41	-15.37	-43.04	-10.2	-57.25	-10.2	-57.26	-32.48	57.76
6.51	-15.38	-43.81	-10.21	-58.12	-10.22	-58.14	-32.32	57.04
6.61	-15.4	-44.58	-10.22	-59.03	-10.23	-59.02	-32.2	56.6
6.71	-15.41	-45.32	-10.23	-59.92	-10.24	-59.9	-32.08	56.1
6.81	-15.42	-46.03	-10.25	-60.79	-10.25	-60.78	-31.98	55.78
6.91	-15.42	-46.79	-10.26	-61.66	-10.26	-61.65	-31.86	55.59
7.01	-15.43	-47.52	-10.27	-62.53	-10.27	-62.54	-31.69	55.16
7.11	-15.43	-48.28	-10.28	-63.38	-10.29	-63.41	-31.55	54.6
7.21	-15.44	-49.06	-10.29	-64.28	-10.3	-64.3	-31.39	53.9
7.31	-15.44	-49.76	-10.31	-65.19	-10.31	-65.19	-31.3	52.73
7.41	-15.45	-50.5	-10.33	-66.09	-10.33	-66.06	-31.25	51.76
7.51	-15.45	-51.28	-10.34	-66.94	-10.34	-66.92	-31.21	51.34
7.61	-15.46	-52.01	-10.35	-67.82	-10.36	-67.79	-31.11	51.09
7.71	-15.46	-52.76	-10.36	-68.68	-10.37	-68.65	-30.99	50.75
7.81	-15.47	-53.51	-10.37	-69.5	-10.39	-69.53	-30.87	50.37
7.91	-15.48	-54.23	-10.39	-70.39	-10.4	-70.4	-30.77	49.65
8.01	-15.49	-55.05	-10.41	-71.26	-10.42	-71.26	-30.69	49.05
8.11	-15.51	-55.84	-10.43	-72.1	-10.43	-72.1	-30.66	48.54
8.21	-15.53	-56.64	-10.45	-72.97	-10.45	-72.96	-30.64	47.99
8.31	-15.55	-57.42	-10.46	-73.84	-10.46	-73.81	-30.6	47.64
8.41	-15.55	-58.24	-10.47	-74.67	-10.48	-74.64	-30.56	47.36
8.51	-15.57	-59.1	-10.49	-75.51	-10.5	-75.48	-30.53	47.12
8.61	-15.57	-59.96	-10.51	-76.34	-10.52	-76.32	-30.48	46.8
8.71	-15.59	-60.91	-10.52	-77.19	-10.53	-77.13	-30.43	46.51
8.81	-15.6	-61.77	-10.54	-78	-10.54	-77.97	-30.4	46.2
8.91	-15.62	-62.67	-10.55	-78.82	-10.56	-78.8	-30.38	45.96
9.01	-15.64	-63.52	-10.56	-79.67	-10.57	-79.59	-30.37	46.1
9.11	-15.66	-64.39	-10.57	-80.45	-10.59	-80.42	-30.32	46.12
9.21	-15.68	-65.28	-10.59	-81.28	-10.6	-81.25	-30.26	46.3
9.31	-15.7	-66.15	-10.6	-82.11	-10.61	-82.05	-30.21	46.33
9.41	-15.71	-67.04	-10.61	-82.92	-10.62	-82.87	-30.15	46.41
9.51	-15.73	-67.91	-10.63	-83.74	-10.63	-83.7	-30.08	46.58
9.61	-15.75	-68.8	-10.64	-84.56	-10.64	-84.5	-29.99	46.58
9.71	-15.77	-69.71	-10.65	-85.36	-10.66	-85.32	-29.9	46.79
9.81	-15.8	-70.58	-10.65	-86.16	-10.66	-86.13	-29.81	47
9.91	-15.82	-71.37	-10.67	-86.99	-10.67	-86.95	-29.71	47.33
10.01	-15.83	-72.23	-10.67	-87.82	-10.68	-87.75	-29.62	47.52
10.11	-15.85	-73.07	-10.69	-88.65	-10.69	-88.57	-29.5	47.85
10.21	-15.88	-73.9	-10.69	-89.44	-10.7	-89.4	-29.36	48.26
10.31	-15.91	-74.77	-10.7	-90.27	-10.71	-90.21	-29.23	48.24
10.41	-15.94	-75.63	-10.7	-91.08	-10.71	-91.04	-29.04	48.37
10.51	-15.98	-76.47	-10.72	-91.89	-10.72	-91.89	-28.89	48.26
10.61	-16.02	-77.39	-10.72	-92.74	-10.73	-92.7	-28.74	48.3
10.71	-16.05	-78.2	-10.72	-93.62	-10.73	-93.53	-28.62	48.18
10.81	-16.08	-79.07	-10.73	-94.47	-10.74	-94.36	-28.47	48.36
10.91	-16.12	-79.99	-10.74	-95.32	-10.75	-95.22	-28.35	48.58
11.01	-16.16	-80.83	-10.74	-96.17	-10.76	-96.07	-28.15	48.68
11.11	-16.18	-81.69	-10.75	-96.99	-10.77	-96.93	-27.99	48.4
11.21	-16.21	-82.57	-10.76	-97.82	-10.77	-97.79	-27.84	48.27
11.31	-16.24	-83.36	-10.77	-98.66	-10.77	-98.64	-27.67	47.83
11.41	-16.26	-84.26	-10.77	-99.54	-10.78	-99.5	-27.55	47.43
11.51	-16.28	-85.08	-10.79	-100.44	-10.79	-100.29	-27.42	47.24
11.61	-16.31	-85.92	-10.79	-101.26	-10.79	-101.13	-27.3	47.24
11.71	-16.33	-86.8	-10.79	-102.12	-10.81	-102.03	-27.17	47
11.81	-16.36	-87.72	-10.8	-102.96	-10.82	-102.85	-26.99	46.91
11.91	-16.4	-88.54	-10.81	-103.81	-10.82	-103.74	-26.79	46.36
12.01	-16.41	-89.42	-10.82	-104.63	-10.83	-104.64	-26.67	45.73
12.11	-16.43	-90.28	-10.84	-105.55	-10.84	-105.49	-26.54	45.33
12.21	-16.44	-91.11	-10.85	-106.39	-10.84	-106.33	-26.42	44.84
12.31	-16.47	-91.94	-10.85	-107.31	-10.86	-107.2	-26.31	44.3
12.41	-16.48	-92.89	-10.85	-108.23	-10.87	-108.02	-26.24	43.79
12.51	-16.51	-93.76	-10.87	-109.06	-10.88	-108.89	-26.12	43.83
12.61	-16.52	-94.63	-10.87	-109.85	-10.89	-109.75	-25.98	43.52
12.71	-16.57	-95.52	-10.88	-110.7	-10.9	-110.63	-25.82	43.21
12.81	-16.61	-96.35	-10.89	-111.55	-10.91	-111.55	-25.6	42.45
12.91	-16.65	-97.15	-10.91	-112.43	-10.92	-112.37	-25.5	41.65
13.01	-16.67	-98.05	-10.92	-113.35	-10.92	-113.26	-25.34	41.02
13.11	-16.71	-98.83	-10.93	-114.28	-10.93	-114.16	-25.28	40.3
13.21	-16.71	-99.67	-10.96	-115.13	-10.97	-114.92	-25.19	40.03
13.31	-16.74	-100.74	-10.95	-115.93	-10.96	-115.75	-25.06	39.82
13.41	-16.76	-101.76	-10.96	-116.77	-10.98	-116.68	-24.91	39.15
13.51	-16.8	-102.77	-10.97	-117.63	-10.99	-117.52	-24.86	38.73
13.61	-16.81	-103.69	-10.98	-118.45	-10.99	-118.4	-24.71	38.09
13.71	-16.85	-104.65	-10.98	-119.33	-10.99	-119.25	-24.6	37.68
13.81	-16.86	-105.56	-11.01	-120.25	-11.01	-120.17	-24.49	36.89
13.91	-16.9	-106.48	-11.03	-121.17	-11.02	-120.96	-24.44	36.28
14.01	-16.9	-107.43	-11.04	-122.06	-11.03	-121.86	-24.36	35.7
14.11	-16.92	-108.43	-11.04	-122.91	-11.05	-122.73	-24.29	35.6
14.21	-16.94	-109.48	-11.05	-123.78	-11.07	-123.57	-24.16	35.33
14.31	-16.99	-110.52	-11.06	-124.57	-11.08	-124.45	-24.03	34.67
14.41	-17.01	-111.29	-11.07	-125.41	-11.08	-125.34	-23.91	34.19
14.51	-17.04	-112.27	-11.09	-126.38	-11.1	-126.25	-23.81	33.39
14.61	-17.05	-113.09	-11.12	-127.26	-11.11	-127.1	-23.73	32.62
14.71	-17.05	-114.06	-11.13	-128.13	-11.12	-127.9	-23.68	31.81
14.81	-17.05	-114.92	-11.14	-129.03	-11.14	-128.77	-23.63	31.37
14.91	-17.04	-115.97	-11.16	-129.91	-11.16	-129.67	-23.56	31.04
15.01	-17.07	-116.98	-11.16	-130.73	-11.18	-130.49	-23.42	30.81
15.11	-17.1	-118.04	-11.17	-131.57	-11.19	-131.42	-23.34	30
15.21	-17.15	-118.84	-11.19	-132.41	-11.19	-132.31	-23.21	29.25
15.31	-17.18	-119.62	-11.22	-133.3	-11.21	-133.14	-23.15	28.54
15.41	-17.18	-120.5	-11.24	-134.17	-11.23	-133.98	-23.06	28.05
15.51	-17.19	-121.46	-11.26	-135.03	-11.24	-134.81	-22.99	27.28
15.61	-17.19	-122.72	-11.28	-135.93	-11.27	-135.68	-22.95	26.8
15.71	-17.22	-123.86	-11.28	-136.77	-11.29	-136.5	-22.9	26.5
15.81	-17.25	-124.94	-11.3	-137.59	-11.3	-137.37	-22.83	26.17
15.91	-17.27	-126.02	-11.31	-138.45	-11.31	-138.31	-22.73	25.56
16.01	-17.31	-127.01	-11.33	-139.26	-11.33	-139.13	-22.67	24.96
16.11	-17.33	-127.97	-11.35	-140.06	-11.34	-139.95	-22.6	24.35
16.21	-17.35	-128.88	-11.38	-140.95	-11.35	-140.79	-22.59	23.82
16.31	-17.32	-129.76	-11.4	-141.78	-11.38	-141.53	-22.52	23.38
16.41	-17.32	-130.96	-11.4	-142.58	-11.39	-142.29	-22.48	22.94
16.51	-17.33	-132.22	-11.42	-143.47	-11.41	-143.23	-22.44	22.42
16.61	-17.36	-133.31	-11.43	-144.33	-11.42	-144.07	-22.4	22.07
16.71	-17.37	-134.39	-11.45	-145.02	-11.44	-144.92	-22.42	22.04
16.81	-17.4	-135.3	-11.47	-145.91	-11.44	-145.8	-22.26	22.09
16.91	-17.41	-136.23	-11.5	-146.7	-11.45	-146.58	-22.16	22.12
17.01	-17.38	-137.04	-11.52	-147.42	-11.47	-147.36	-21.96	21.4
17.11	-17.35	-138.12	-11.55	-148.25	-11.49	-148.16	-21.79	20.15
17.21	-17.32	-139.41	-11.55	-148.93	-11.5	-148.97	-21.88	17.75
17.31	-17.35	-140.65	-11.54	-149.7	-11.53	-149.84	-22.12	17.92
17.41	-17.38	-141.85	-11.52	-150.39	-11.53	-150.67	-22.27	19.81
17.51	-17.41	-142.88	-11.51	-151.32	-11.53	-151.56	-21.9	21.4
17.61	-17.45	-143.71	-11.51	-152.02	-11.54	-152.36	-21.5	20.79
17.71	-17.46	-144.58	-11.5	-153.07	-11.54	-153.14	-21.29	18.24
17.81	-17.46	-145.49	-11.53	-153.92	-11.55	-153.94	-21.35	16.57
17.91	-17.47	-146.57	-11.53	-154.99	-11.56	-154.82	-21.52	16.67
18.01	-17.48	-148.01	-11.55	-155.94	-11.58	-155.69	-21.5	17.62
18.11	-17.54	-149.01	-11.56	-156.83	-11.6	-156.51	-21.26	18.19
18.21	-17.56	-150.27	-11.57	-157.63	-11.6	-157.42	-21.06	17.53
18.31	-17.57	-151.36	-11.57	-158.52	-11.6	-158.31	-20.88	16.92
18.41	-17.58	-152.37	-11.59	-159.35	-11.61	-159.19	-20.84	15.24
18.51	-17.56	-153.52	-11.61	-160.16	-11.62	-159.95	-20.81	15.03
18.61	-17.56	-154.5	-11.65	-161.09	-11.64	-160.77	-20.82	14.32
18.71	-17.51	-155.5	-11.64	-161.92	-11.64	-161.62	-20.8	14.26
18.81	-17.5	-156.99	-11.64	-162.84	-11.66	-162.52	-20.75	14.24
18.91	-17.54	-158.09	-11.66	-163.77	-11.66	-163.45	-20.63	14.51
19.01	-17.56	-159.35	-11.65	-164.59	-11.67	-164.39	-20.47	13.88
19.11	-17.55	-160.31	-11.67	-165.41	-11.68	-165.26	-20.38	13.36
19.21	-17.56	-161.28	-11.7	-166.34	-11.68	-166.09	-20.29	12.54
19.31	-17.53	-162.55	-11.7	-167.17	-11.69	-166.98	-20.3	12.34
19.41	-17.53	-163.63	-11.72	-168.19	-11.72	-167.94	-20.16	12.37
19.51	-17.52	-164.83	-11.76	-169.09	-11.74	-168.78	-20.04	11.94
19.61	-17.56	-166.2	-11.76	-169.98	-11.76	-169.66	-19.93	11.01
19.71	-17.58	-167.04	-11.76	-170.85	-11.77	-170.57	-19.91	10.57
19.81	-17.61	-168.11	-11.78	-171.62	-11.78	-171.45	-19.81	9.92
19.91	-17.63	-168.88	-11.77	-172.54	-11.78	-172.35	-19.73	9.66
20.01	-17.62	-169.85	-11.81	-173.44	-11.78	-173.24	-19.58	9.09