!s2p File: Measurements: S11, S21, S12, S22								
# GHz S dB R 50.0								
0.01	-25.31	-0.19	-19.54	-0.29	-19.54	-0.33	-21.75	-2.04
0.11	-25.5	-1.56	-19.67	-1.37	-19.67	-1.38	-22.66	-5.19
0.21	-25.56	-1.88	-19.71	-2.03	-19.7	-2.01	-22.94	-5.37
0.31	-25.58	-2.33	-19.72	-2.7	-19.72	-2.71	-23.03	-5.8
0.41	-25.59	-2.92	-19.73	-3.44	-19.72	-3.42	-23.08	-6.58
0.51	-25.58	-3.42	-19.73	-4.19	-19.73	-4.16	-23.11	-7.47
0.61	-25.58	-3.95	-19.73	-4.93	-19.73	-4.92	-23.13	-8.46
0.71	-25.57	-4.57	-19.74	-5.7	-19.73	-5.69	-23.15	-9.47
0.81	-25.57	-5.13	-19.74	-6.47	-19.74	-6.46	-23.16	-10.59
0.91	-25.59	-5.72	-19.75	-7.24	-19.74	-7.21	-23.19	-11.66
1.01	-25.59	-6.33	-19.75	-7.98	-19.75	-8	-23.21	-12.76
1.11	-25.6	-6.94	-19.75	-8.76	-19.75	-8.76	-23.23	-13.89
1.21	-25.61	-7.6	-19.76	-9.54	-19.75	-9.52	-23.24	-15.02
1.31	-25.62	-8.32	-19.76	-10.3	-19.76	-10.3	-23.27	-16.23
1.41	-25.64	-9.09	-19.77	-11.09	-19.76	-11.07	-23.3	-17.46
1.51	-25.66	-9.78	-19.78	-11.86	-19.77	-11.85	-23.34	-18.55
1.61	-25.65	-10.42	-19.78	-12.63	-19.78	-12.61	-23.36	-19.67
1.71	-25.63	-11.22	-19.79	-13.4	-19.78	-13.39	-23.38	-20.89
1.81	-25.63	-12.17	-19.79	-14.16	-19.79	-14.16	-23.4	-22.16
1.91	-25.65	-12.94	-19.8	-14.92	-19.8	-14.91	-23.43	-23.42
2.01	-25.67	-13.72	-19.81	-15.71	-19.8	-15.71	-23.48	-24.68
2.11	-25.67	-14.45	-19.81	-16.48	-19.81	-16.45	-23.53	-25.91
2.21	-25.69	-15.22	-19.82	-17.22	-19.82	-17.23	-23.57	-27.12
2.31	-25.7	-15.99	-19.83	-17.99	-19.83	-17.99	-23.61	-28.29
2.41	-25.71	-16.77	-19.84	-18.76	-19.83	-18.74	-23.65	-29.51
2.51	-25.75	-17.45	-19.85	-19.53	-19.84	-19.51	-23.71	-30.75
2.61	-25.77	-18.1	-19.86	-20.29	-19.85	-20.27	-23.77	-31.99
2.71	-25.81	-18.71	-19.86	-21.03	-19.86	-21.03	-23.82	-33.16
2.81	-25.84	-19.29	-19.87	-21.81	-19.87	-21.79	-23.89	-34.33
2.91	-25.86	-19.9	-19.88	-22.56	-19.88	-22.54	-23.95	-35.53
3.01	-25.89	-20.6	-19.89	-23.32	-19.89	-23.29	-24.01	-36.64
3.11	-25.92	-21.35	-19.9	-24.07	-19.89	-24.06	-24.07	-37.89
3.21	-25.96	-22.12	-19.91	-24.82	-19.9	-24.81	-24.14	-39.03
3.31	-26.01	-22.85	-19.92	-25.59	-19.91	-25.57	-24.22	-40.27
3.41	-26.04	-23.55	-19.93	-26.33	-19.92	-26.33	-24.3	-41.43
3.51	-26.07	-24.29	-19.94	-27.08	-19.93	-27.08	-24.37	-42.6
3.61	-26.11	-25.07	-19.95	-27.83	-19.94	-27.84	-24.45	-43.82
3.71	-26.15	-25.94	-19.96	-28.58	-19.96	-28.59	-24.53	-45.06
3.81	-26.21	-26.84	-19.97	-29.34	-19.97	-29.35	-24.59	-46.32
3.91	-26.27	-27.61	-19.98	-30.1	-19.98	-30.1	-24.69	-47.66
4.01	-26.33	-28.29	-20	-30.85	-19.99	-30.86	-24.8	-48.83
4.11	-26.34	-28.97	-20	-31.61	-20	-31.6	-24.9	-50.05
4.21	-26.38	-29.78	-20.01	-32.36	-20.01	-32.34	-24.98	-51.08
4.31	-26.42	-30.85	-20.03	-33.06	-20.03	-33.09	-25.05	-52.28
4.41	-26.5	-31.92	-20.04	-33.8	-20.04	-33.82	-25.14	-53.57
4.51	-26.57	-32.68	-20.06	-34.55	-20.06	-34.56	-25.23	-54.94
4.61	-26.64	-33.3	-20.07	-35.31	-20.07	-35.31	-25.34	-56.28
4.71	-26.67	-33.85	-20.08	-36.08	-20.08	-36.06	-25.48	-57.52
4.81	-26.68	-34.62	-20.1	-36.82	-20.09	-36.8	-25.6	-58.62
4.91	-26.68	-35.55	-20.11	-37.55	-20.1	-37.53	-25.7	-59.65
5.01	-26.72	-36.56	-20.12	-38.29	-20.12	-38.27	-25.81	-60.71
5.11	-26.8	-37.54	-20.14	-39.02	-20.13	-38.99	-25.9	-61.94
5.21	-26.89	-38.28	-20.15	-39.74	-20.15	-39.75	-26.01	-63.2
5.31	-26.98	-38.95	-20.17	-40.51	-20.17	-40.48	-26.14	-64.59
5.41	-27.05	-39.41	-20.18	-41.23	-20.18	-41.2	-26.29	-65.89
5.51	-27.1	-40.02	-20.2	-41.96	-20.19	-41.95	-26.46	-67.02
5.61	-27.16	-40.9	-20.21	-42.71	-20.21	-42.69	-26.61	-67.99
5.71	-27.23	-41.84	-20.22	-43.45	-20.22	-43.41	-26.74	-69.04
5.81	-27.33	-42.93	-20.24	-44.16	-20.24	-44.13	-26.86	-70.09
5.91	-27.45	-43.77	-20.26	-44.9	-20.26	-44.9	-26.98	-71.36
6.01	-27.56	-44.57	-20.28	-45.64	-20.28	-45.62	-27.1	-72.69
6.11	-27.66	-45.25	-20.3	-46.36	-20.29	-46.35	-27.25	-73.95
6.21	-27.71	-45.94	-20.32	-47.08	-20.31	-47.08	-27.43	-75.13
6.31	-27.77	-46.82	-20.33	-47.8	-20.33	-47.78	-27.58	-76.12
6.41	-27.82	-47.82	-20.36	-48.51	-20.35	-48.52	-27.76	-77.25
6.51	-27.9	-48.92	-20.37	-49.2	-20.37	-49.19	-27.91	-78.25
6.61	-28.02	-49.96	-20.39	-49.93	-20.39	-49.93	-28.06	-79.53
6.71	-28.12	-50.89	-20.41	-50.66	-20.41	-50.62	-28.22	-80.75
6.81	-28.22	-51.8	-20.43	-51.35	-20.43	-51.34	-28.38	-82.1
6.91	-28.29	-52.64	-20.45	-52.04	-20.45	-52.03	-28.57	-83.5
7.01	-28.34	-53.5	-20.47	-52.76	-20.47	-52.76	-28.77	-84.65
7.11	-28.4	-54.58	-20.49	-53.44	-20.49	-53.44	-28.95	-85.62
7.21	-28.5	-55.59	-20.51	-54.15	-20.51	-54.15	-29.14	-86.5
7.31	-28.57	-56.53	-20.53	-54.92	-20.53	-54.91	-29.25	-87.48
7.41	-28.66	-57.36	-20.57	-55.65	-20.56	-55.62	-29.37	-88.49
7.51	-28.74	-58.26	-20.59	-56.27	-20.58	-56.25	-29.53	-90.07
7.61	-28.82	-59.11	-20.61	-56.96	-20.61	-56.91	-29.73	-91.4
7.71	-28.9	-59.96	-20.63	-57.61	-20.63	-57.55	-29.94	-92.73
7.81	-28.97	-60.87	-20.65	-58.23	-20.66	-58.24	-30.15	-93.94
7.91	-29.11	-61.67	-20.69	-58.93	-20.69	-58.93	-30.35	-94.98
8.01	-29.24	-62.79	-20.71	-59.57	-20.71	-59.56	-30.53	-96.18
8.11	-29.38	-63.83	-20.73	-60.2	-20.74	-60.2	-30.68	-97.77
8.21	-29.53	-64.98	-20.76	-60.87	-20.76	-60.89	-30.83	-99.4
8.31	-29.67	-65.9	-20.78	-61.54	-20.78	-61.51	-30.99	-100.99
8.41	-29.75	-67.04	-20.81	-62.17	-20.81	-62.14	-31.2	-102.54
8.51	-29.86	-68.26	-20.84	-62.75	-20.84	-62.73	-31.37	-104.27
8.61	-29.92	-69.78	-20.87	-63.33	-20.87	-63.3	-31.54	-105.88
8.71	-30.01	-71.35	-20.89	-63.92	-20.89	-63.86	-31.74	-107.59
8.81	-30.1	-72.82	-20.92	-64.48	-20.91	-64.46	-31.93	-109.34
8.91	-30.23	-74.44	-20.93	-65.04	-20.93	-65.04	-32.08	-111.31
9.01	-30.37	-75.81	-20.96	-65.64	-20.96	-65.59	-32.24	-113.62
9.11	-30.51	-77.28	-20.98	-66.18	-20.98	-66.13	-32.46	-115.74
9.21	-30.62	-78.65	-21	-66.72	-20.99	-66.68	-32.67	-118.22
9.31	-30.71	-80.02	-21.01	-67.28	-21.01	-67.24	-32.88	-120.67
9.41	-30.79	-81.59	-21.02	-67.82	-21.02	-67.78	-33.08	-123.05
9.51	-30.85	-83.14	-21.05	-68.36	-21.04	-68.33	-33.32	-125.77
9.61	-30.99	-84.94	-21.06	-68.89	-21.06	-68.84	-33.57	-128.24
9.71	-31.07	-86.55	-21.07	-69.43	-21.07	-69.39	-33.82	-131.03
9.81	-31.2	-88.08	-21.08	-69.95	-21.08	-69.93	-34.06	-134.08
9.91	-31.31	-89.28	-21.09	-70.52	-21.08	-70.49	-34.3	-137.46
10.01	-31.39	-90.64	-21.09	-71.09	-21.1	-71.04	-34.5	-140.61
10.11	-31.48	-91.96	-21.11	-71.62	-21.1	-71.53	-34.71	-144.63
10.21	-31.58	-93.61	-21.12	-72.13	-21.11	-72.09	-34.97	-148.64
10.31	-31.7	-95.38	-21.11	-72.68	-21.11	-72.63	-35.24	-152.64
10.41	-31.81	-97.17	-21.12	-73.22	-21.12	-73.18	-35.57	-156.67
10.51	-32.02	-99.19	-21.12	-73.71	-21.12	-73.74	-35.86	-160.51
10.61	-32.16	-101.34	-21.12	-74.32	-21.12	-74.31	-36.05	-164.88
10.71	-32.34	-103.28	-21.12	-74.93	-21.12	-74.87	-36.2	-169.1
10.81	-32.48	-105.14	-21.12	-75.57	-21.12	-75.47	-36.32	-174.06
10.91	-32.58	-107.52	-21.13	-76.14	-21.13	-76.04	-36.35	-178.95
11.01	-32.72	-109.63	-21.12	-76.68	-21.13	-76.64	-36.41	175.16
11.11	-32.79	-111.84	-21.13	-77.24	-21.13	-77.23	-36.54	170.18
11.21	-32.89	-114.07	-21.13	-77.85	-21.13	-77.84	-36.59	165.5
11.31	-33	-115.8	-21.14	-78.43	-21.13	-78.42	-36.62	160.68
11.41	-33.09	-118.26	-21.14	-79.03	-21.14	-79.01	-36.59	156.7
11.51	-33.14	-120.01	-21.14	-79.63	-21.13	-79.56	-36.47	151.9
11.61	-33.18	-121.82	-21.14	-80.2	-21.12	-80.14	-36.26	147.55
11.71	-33.17	-124.17	-21.13	-80.79	-21.14	-80.75	-36.06	143.38
11.81	-33.23	-126.84	-21.12	-81.36	-21.14	-81.29	-35.79	138.3
11.91	-33.34	-129.42	-21.13	-82.01	-21.13	-81.96	-35.69	133.29
12.01	-33.31	-131.65	-21.13	-82.56	-21.13	-82.62	-35.61	130.01
12.11	-33.29	-133.4	-21.14	-83.27	-21.13	-83.26	-35.38	125.94
12.21	-33.28	-135.48	-21.16	-83.77	-21.14	-83.77	-35.24	122.54
12.31	-33.3	-137.62	-21.15	-84.41	-21.14	-84.35	-35.01	119.86
12.41	-33.24	-139.76	-21.13	-85.09	-21.14	-84.94	-34.84	117.11
12.51	-33.28	-142.4	-21.14	-85.66	-21.14	-85.55	-34.42	114.42
12.61	-33.23	-144.52	-21.13	-86.22	-21.14	-86.15	-34.07	111.23
12.71	-33.3	-147.47	-21.12	-86.81	-21.13	-86.8	-33.75	107.97
12.81	-33.36	-150.41	-21.15	-87.41	-21.15	-87.42	-33.54	103.75
12.91	-33.52	-152.88	-21.14	-88.02	-21.13	-87.98	-33.36	101.31
13.01	-33.44	-154.88	-21.15	-88.67	-21.13	-88.63	-33.14	98
13.11	-33.5	-157.43	-21.14	-89.32	-21.13	-89.27	-33.01	96.34
13.21	-33.47	-159.16	-21.17	-89.86	-21.17	-89.7	-32.79	94.84
13.31	-33.23	-162.05	-21.14	-90.35	-21.13	-90.24	-32.37	92.93
13.41	-33.12	-164.63	-21.13	-90.9	-21.14	-90.87	-32.14	90.3
13.51	-32.97	-167.44	-21.12	-91.54	-21.13	-91.48	-31.96	89.09
13.61	-32.87	-169.61	-21.13	-92.12	-21.13	-92.13	-31.7	86.54
13.71	-32.83	-172.17	-21.11	-92.71	-21.11	-92.73	-31.45	85
13.81	-32.72	-173.44	-21.12	-93.38	-21.11	-93.36	-31.26	82.87
13.91	-32.57	-175.5	-21.11	-94.06	-21.1	-93.92	-31.12	81.58
14.01	-32.4	-176.95	-21.11	-94.74	-21.1	-94.62	-30.95	80
14.11	-32.15	-179.08	-21.1	-95.33	-21.11	-95.19	-30.68	79.32
14.21	-31.94	178.67	-21.1	-95.87	-21.12	-95.72	-30.4	77.87
14.31	-31.82	175.59	-21.08	-96.4	-21.09	-96.34	-30.18	76.2
14.41	-31.79	174.22	-21.08	-97.05	-21.08	-97.06	-29.92	74.56
14.51	-31.65	171.67	-21.08	-97.74	-21.09	-97.71	-29.77	72.76
14.61	-31.61	170.7	-21.1	-98.38	-21.08	-98.3	-29.67	71.13
14.71	-31.47	169.7	-21.08	-98.94	-21.06	-98.79	-29.59	69.89
14.81	-31.35	168.79	-21.08	-99.71	-21.07	-99.52	-29.45	69.04
14.91	-31.11	168.24	-21.09	-100.33	-21.08	-100.17	-29.29	68.2
15.01	-30.91	165.91	-21.07	-100.83	-21.08	-100.68	-28.99	67.05
15.11	-30.75	163.68	-21.06	-101.39	-21.06	-101.34	-28.88	65.57
15.21	-30.72	161.69	-21.06	-102.03	-21.05	-102.02	-28.7	63.97
15.31	-30.76	159.78	-21.06	-102.74	-21.05	-102.61	-28.58	62.71
15.41	-30.64	158.63	-21.08	-103.23	-21.05	-103.13	-28.42	61.79
15.51	-30.56	157.48	-21.07	-103.79	-21.04	-103.66	-28.33	60.54
15.61	-30.24	156.51	-21.05	-104.41	-21.04	-104.25	-28.24	59.94
15.71	-29.96	154.91	-21.02	-105.09	-21.02	-104.9	-28.05	59.46
15.81	-29.71	153.25	-21.03	-105.74	-21.03	-105.59	-27.91	58.42
15.91	-29.48	151.47	-21.03	-106.31	-21.03	-106.22	-27.79	57.52
16.01	-29.39	148.98	-21.03	-106.82	-21.01	-106.76	-27.67	56.67
16.11	-29.33	147.28	-21.02	-107.26	-21	-107.26	-27.57	56.01
16.21	-29.32	146.08	-21	-107.96	-20.97	-107.87	-27.49	55.56
16.31	-29.26	146.15	-20.98	-108.6	-20.96	-108.41	-27.29	54.8
16.41	-29.01	145.52	-20.96	-109.19	-20.94	-108.96	-27.19	54
16.51	-28.73	144.26	-20.95	-109.91	-20.93	-109.74	-27.11	53.19
16.61	-28.59	142.58	-20.94	-110.56	-20.92	-110.4	-27.03	52.78
16.71	-28.51	141.38	-20.92	-111.05	-20.9	-111.03	-26.94	53.39
16.81	-28.43	140.03	-20.92	-111.73	-20.88	-111.72	-26.64	53.01
16.91	-28.41	138.84	-20.92	-112.17	-20.86	-112.17	-26.37	53.12
17.01	-28.44	139.64	-20.89	-112.82	-20.83	-112.88	-25.99	51.09
17.11	-28.24	139.58	-20.89	-113.46	-20.81	-113.48	-25.75	48.02
17.21	-27.97	139.26	-20.86	-113.97	-20.8	-114.21	-26.2	44.6
17.31	-27.74	137.85	-20.84	-114.53	-20.82	-114.86	-26.55	46.56
17.41	-27.61	136.28	-20.76	-115.04	-20.78	-115.51	-26.49	51.39
17.51	-27.58	134.85	-20.72	-115.91	-20.74	-116.33	-25.55	52.09
17.61	-27.58	133.36	-20.68	-116.32	-20.72	-116.88	-24.96	49.34
17.71	-27.67	132.54	-20.63	-117.38	-20.68	-117.63	-24.87	44.69
17.81	-27.64	132.3	-20.63	-118.19	-20.65	-118.3	-25.11	42.78
17.91	-27.53	132	-20.61	-119.11	-20.65	-119.02	-25.29	44.27
18.01	-27.21	131.08	-20.6	-119.9	-20.63	-119.75	-25.01	45.78
18.11	-27.11	129.05	-20.57	-120.6	-20.62	-120.37	-24.55	45.72
18.21	-27.03	128.24	-20.56	-121.41	-20.59	-121.32	-24.24	43.57
18.31	-26.92	127.28	-20.53	-122.23	-20.56	-122.14	-24	41.95
18.41	-26.89	126.58	-20.53	-122.9	-20.55	-122.87	-24.07	39.65
18.51	-26.89	126.58	-20.51	-123.82	-20.52	-123.73	-24.01	39.24
18.61	-26.76	126.55	-20.54	-124.62	-20.53	-124.42	-24.07	38.52
18.71	-26.71	127.05	-20.51	-125.3	-20.51	-125.12	-24.01	38.7
18.81	-26.48	126.64	-20.47	-126.12	-20.49	-125.88	-23.87	38.86
18.91	-26.38	125.58	-20.46	-127.01	-20.45	-126.83	-23.59	38.9
19.01	-26.28	125.14	-20.43	-127.88	-20.46	-127.79	-23.38	37.27
19.11	-26.2	124.96	-20.44	-128.64	-20.46	-128.61	-23.31	36.18
19.21	-26.19	124.63	-20.46	-129.37	-20.44	-129.25	-23.26	35.3
19.31	-26.1	124.74	-20.41	-130.27	-20.39	-130.19	-23.16	35.33
19.41	-25.93	125.14	-20.44	-131.43	-20.43	-131.25	-22.94	34.69
19.51	-25.82	125.03	-20.47	-132.28	-20.45	-132.07	-22.78	33.77
19.61	-25.6	124.23	-20.48	-132.97	-20.49	-132.77	-22.72	32.34
19.71	-25.53	123.56	-20.47	-133.61	-20.48	-133.44	-22.69	32.15
19.81	-25.59	122.61	-20.42	-134.46	-20.43	-134.4	-22.51	31.03
19.91	-25.59	122.98	-20.44	-135.44	-20.46	-135.35	-22.42	30.33
20.01	-25.54	123.95	-20.49	-136.27	-20.48	-136.2	-22.26	29.1