!s2p File: Measurements: S11, S21, S12, S22								
# GHz S dB R 50.0								
0.01	-25.35	-0.08	-26.56	-0.33	-26.58	-0.27	-16.47	-1.28
0.11	-25.53	-1.51	-26.71	-1.28	-26.71	-1.29	-16.95	-2.96
0.21	-25.58	-1.86	-26.75	-1.83	-26.75	-1.81	-17.08	-3.48
0.31	-25.6	-2.34	-26.77	-2.43	-26.76	-2.42	-17.12	-4.15
0.41	-25.61	-2.92	-26.77	-3.03	-26.77	-3.01	-17.15	-4.96
0.51	-25.6	-3.45	-26.78	-3.66	-26.78	-3.64	-17.16	-5.81
0.61	-25.6	-3.99	-26.79	-4.29	-26.78	-4.3	-17.18	-6.73
0.71	-25.6	-4.61	-26.79	-4.94	-26.78	-4.94	-17.18	-7.64
0.81	-25.59	-5.19	-26.79	-5.59	-26.78	-5.6	-17.19	-8.62
0.91	-25.61	-5.83	-26.79	-6.25	-26.79	-6.24	-17.21	-9.56
1.01	-25.61	-6.42	-26.8	-6.91	-26.79	-6.9	-17.21	-10.52
1.11	-25.62	-7.03	-26.8	-7.56	-26.8	-7.55	-17.22	-11.48
1.21	-25.63	-7.71	-26.81	-8.24	-26.81	-8.21	-17.23	-12.46
1.31	-25.63	-8.48	-26.81	-8.88	-26.81	-8.89	-17.24	-13.46
1.41	-25.65	-9.24	-26.82	-9.56	-26.81	-9.53	-17.26	-14.48
1.51	-25.68	-9.94	-26.82	-10.25	-26.82	-10.2	-17.28	-15.44
1.61	-25.67	-10.61	-26.83	-10.88	-26.82	-10.88	-17.29	-16.38
1.71	-25.66	-11.4	-26.83	-11.55	-26.83	-11.52	-17.3	-17.4
1.81	-25.66	-12.37	-26.84	-12.24	-26.84	-12.19	-17.31	-18.45
1.91	-25.67	-13.16	-26.85	-12.88	-26.84	-12.84	-17.33	-19.48
2.01	-25.69	-13.93	-26.86	-13.56	-26.85	-13.52	-17.35	-20.5
2.11	-25.7	-14.65	-26.86	-14.17	-26.86	-14.2	-17.37	-21.52
2.21	-25.71	-15.44	-26.87	-14.84	-26.87	-14.84	-17.39	-22.5
2.31	-25.72	-16.22	-26.88	-15.48	-26.87	-15.52	-17.42	-23.51
2.41	-25.74	-17	-26.88	-16.18	-26.88	-16.16	-17.44	-24.5
2.51	-25.77	-17.7	-26.89	-16.85	-26.89	-16.84	-17.46	-25.5
2.61	-25.81	-18.38	-26.91	-17.48	-26.9	-17.48	-17.49	-26.51
2.71	-25.84	-18.98	-26.91	-18.12	-26.91	-18.1	-17.52	-27.48
2.81	-25.87	-19.53	-26.92	-18.79	-26.92	-18.76	-17.55	-28.48
2.91	-25.9	-20.18	-26.93	-19.43	-26.93	-19.42	-17.58	-29.44
3.01	-25.91	-20.89	-26.94	-20.07	-26.93	-20.06	-17.61	-30.4
3.11	-25.95	-21.69	-26.94	-20.72	-26.95	-20.71	-17.64	-31.39
3.21	-26	-22.46	-26.96	-21.4	-26.96	-21.34	-17.67	-32.36
3.31	-26.04	-23.2	-26.97	-22.04	-26.97	-22.03	-17.7	-33.36
3.41	-26.09	-23.92	-26.98	-22.69	-26.97	-22.68	-17.74	-34.32
3.51	-26.11	-24.62	-26.99	-23.34	-26.99	-23.33	-17.77	-35.28
3.61	-26.14	-25.42	-27	-23.96	-26.99	-23.96	-17.81	-36.27
3.71	-26.19	-26.35	-27.02	-24.62	-27.01	-24.64	-17.84	-37.24
3.81	-26.25	-27.28	-27.03	-25.26	-27.03	-25.26	-17.87	-38.28
3.91	-26.32	-28.06	-27.04	-25.92	-27.04	-25.87	-17.91	-39.31
4.01	-26.38	-28.74	-27.05	-26.56	-27.05	-26.55	-17.96	-40.28
4.11	-26.39	-29.39	-27.05	-27.19	-27.06	-27.19	-18.01	-41.24
4.21	-26.43	-30.25	-27.08	-27.8	-27.07	-27.82	-18.04	-42.13
4.31	-26.47	-31.33	-27.09	-28.47	-27.09	-28.46	-18.07	-43.11
4.41	-26.54	-32.41	-27.1	-29.08	-27.11	-29.11	-18.1	-44.15
4.51	-26.62	-33.2	-27.12	-29.73	-27.12	-29.73	-18.15	-45.19
4.61	-26.7	-33.8	-27.13	-30.34	-27.13	-30.37	-18.2	-46.2
4.71	-26.72	-34.39	-27.15	-31.04	-27.14	-30.96	-18.25	-47.18
4.81	-26.73	-35.13	-27.16	-31.67	-27.16	-31.65	-18.31	-48.11
4.91	-26.74	-36.11	-27.18	-32.31	-27.17	-32.25	-18.35	-48.99
5.01	-26.77	-37.14	-27.18	-32.95	-27.19	-32.89	-18.39	-49.89
5.11	-26.86	-38.13	-27.21	-33.52	-27.21	-33.52	-18.43	-50.89
5.21	-26.95	-38.92	-27.22	-34.15	-27.22	-34.15	-18.48	-51.89
5.31	-27.04	-39.55	-27.24	-34.78	-27.24	-34.76	-18.53	-52.91
5.41	-27.12	-40.05	-27.26	-35.44	-27.26	-35.4	-18.6	-53.92
5.51	-27.17	-40.68	-27.28	-36.04	-27.27	-36.07	-18.66	-54.81
5.61	-27.22	-41.53	-27.3	-36.7	-27.3	-36.69	-18.72	-55.66
5.71	-27.31	-42.52	-27.31	-37.36	-27.31	-37.25	-18.77	-56.57
5.81	-27.41	-43.63	-27.33	-37.93	-27.32	-37.89	-18.82	-57.46
5.91	-27.53	-44.55	-27.35	-38.55	-27.35	-38.5	-18.86	-58.49
6.01	-27.66	-45.37	-27.37	-39.18	-27.37	-39.16	-18.91	-59.49
6.11	-27.75	-46.02	-27.39	-39.83	-27.39	-39.81	-18.97	-60.48
6.21	-27.81	-46.75	-27.42	-40.39	-27.41	-40.37	-19.04	-61.4
6.31	-27.86	-47.64	-27.44	-41	-27.43	-41	-19.1	-62.27
6.41	-27.93	-48.64	-27.47	-41.63	-27.46	-41.6	-19.17	-63.17
6.51	-28	-49.81	-27.49	-42.18	-27.49	-42.14	-19.22	-64.02
6.61	-28.11	-50.84	-27.51	-42.79	-27.51	-42.74	-19.28	-64.99
6.71	-28.23	-51.85	-27.53	-43.41	-27.53	-43.33	-19.33	-65.97
6.81	-28.34	-52.74	-27.56	-43.96	-27.55	-43.91	-19.4	-66.96
6.91	-28.41	-53.66	-27.58	-44.49	-27.58	-44.48	-19.47	-67.98
7.01	-28.46	-54.55	-27.59	-45.11	-27.6	-45.09	-19.54	-68.88
7.11	-28.54	-55.57	-27.63	-45.65	-27.63	-45.63	-19.61	-69.76
7.21	-28.63	-56.61	-27.64	-46.24	-27.64	-46.19	-19.67	-70.57
7.31	-28.72	-57.63	-27.67	-46.91	-27.66	-46.89	-19.72	-71.48
7.41	-28.81	-58.49	-27.72	-47.56	-27.72	-47.51	-19.76	-72.4
7.51	-28.9	-59.46	-27.75	-47.95	-27.75	-47.92	-19.82	-73.44
7.61	-28.99	-60.22	-27.77	-48.52	-27.78	-48.44	-19.9	-74.42
7.71	-29.07	-61.1	-27.8	-49	-27.8	-48.91	-19.97	-75.37
7.81	-29.16	-62.05	-27.83	-49.47	-27.83	-49.48	-20.05	-76.29
7.91	-29.3	-62.86	-27.87	-50.01	-27.87	-50.02	-20.12	-77.17
8.01	-29.44	-64.08	-27.9	-50.55	-27.89	-50.48	-20.18	-78.11
8.11	-29.58	-65.05	-27.92	-50.97	-27.92	-50.96	-20.25	-79.16
8.21	-29.74	-66.24	-27.95	-51.52	-27.95	-51.47	-20.31	-80.18
8.31	-29.89	-67.27	-27.98	-51.98	-27.98	-51.96	-20.38	-81.17
8.41	-29.99	-68.36	-28.01	-52.45	-28.01	-52.44	-20.46	-82.23
8.51	-30.1	-69.62	-28.05	-52.87	-28.06	-52.8	-20.53	-83.24
8.61	-30.17	-71.07	-28.08	-53.19	-28.09	-53.18	-20.6	-84.23
8.71	-30.26	-72.62	-28.1	-53.62	-28.12	-53.48	-20.67	-85.26
8.81	-30.37	-74.28	-28.14	-53.99	-28.13	-53.92	-20.74	-86.26
8.91	-30.5	-75.86	-28.15	-54.37	-28.15	-54.35	-20.82	-87.35
9.01	-30.66	-77.24	-28.18	-54.77	-28.19	-54.7	-20.89	-88.49
9.11	-30.8	-78.77	-28.2	-55.09	-28.21	-55	-20.98	-89.55
9.21	-30.92	-80.09	-28.21	-55.39	-28.22	-55.34	-21.07	-90.7
9.31	-31.01	-81.52	-28.23	-55.77	-28.23	-55.68	-21.15	-91.77
9.41	-31.1	-82.97	-28.24	-56.1	-28.24	-56.05	-21.24	-92.88
9.51	-31.15	-84.56	-28.26	-56.45	-28.25	-56.37	-21.34	-93.98
9.61	-31.31	-86.41	-28.26	-56.75	-28.25	-56.68	-21.44	-95.04
9.71	-31.4	-88.04	-28.26	-57.12	-28.27	-57.04	-21.54	-96.14
9.81	-31.53	-89.61	-28.27	-57.34	-28.26	-57.36	-21.64	-97.24
9.91	-31.64	-90.83	-28.26	-57.8	-28.25	-57.73	-21.76	-98.44
10.01	-31.73	-92.13	-28.27	-58.19	-28.27	-58.12	-21.86	-99.59
10.11	-31.81	-93.49	-28.27	-58.44	-28.27	-58.39	-21.98	-100.78
10.21	-31.92	-95.08	-28.28	-58.74	-28.27	-58.71	-22.11	-102.03
10.31	-32.03	-96.82	-28.25	-59.15	-28.25	-59.08	-22.24	-103.1
10.41	-32.16	-98.77	-28.25	-59.56	-28.24	-59.49	-22.38	-104.12
10.51	-32.35	-100.76	-28.24	-59.82	-28.23	-59.82	-22.51	-105.16
10.61	-32.51	-103.09	-28.23	-60.25	-28.21	-60.19	-22.64	-106.26
10.71	-32.7	-105.03	-28.2	-60.7	-28.2	-60.65	-22.76	-107.42
10.81	-32.83	-106.98	-28.2	-61.24	-28.19	-61.13	-22.9	-108.65
10.91	-32.94	-109.37	-28.2	-61.65	-28.19	-61.53	-23.05	-109.88
11.01	-33.07	-111.43	-28.17	-62.03	-28.18	-61.92	-23.23	-111.19
11.11	-33.15	-113.72	-28.16	-62.48	-28.16	-62.44	-23.39	-112.23
11.21	-33.23	-116.08	-28.16	-62.93	-28.15	-62.94	-23.54	-113.35
11.31	-33.34	-117.89	-28.16	-63.31	-28.14	-63.34	-23.69	-114.29
11.41	-33.42	-120.43	-28.15	-63.76	-28.14	-63.78	-23.81	-115.4
11.51	-33.48	-122.28	-28.13	-64.26	-28.12	-64.12	-23.97	-116.63
11.61	-33.51	-124.13	-28.11	-64.72	-28.1	-64.6	-24.12	-117.88
11.71	-33.5	-126.39	-28.1	-65.09	-28.11	-65.11	-24.27	-119.18
11.81	-33.54	-129.35	-28.08	-65.57	-28.08	-65.5	-24.48	-120.64
11.91	-33.64	-131.93	-28.08	-66.1	-28.06	-66.01	-24.69	-121.51
12.01	-33.62	-134.09	-28.05	-66.54	-28.05	-66.53	-24.84	-122.52
12.11	-33.55	-135.99	-28.07	-67.18	-28.07	-67.16	-25.01	-123.63
12.21	-33.53	-138.12	-28.08	-67.31	-28.06	-67.41	-25.17	-124.66
12.31	-33.57	-140.36	-28.05	-67.88	-28.04	-67.79	-25.31	-125.97
12.41	-33.49	-142.48	-28.02	-68.53	-28.02	-68.24	-25.45	-127.06
12.51	-33.5	-145.21	-28.02	-68.89	-28.02	-68.78	-25.64	-128.81
12.61	-33.45	-147.38	-27.99	-69.31	-28	-69.28	-25.86	-130.26
12.71	-33.51	-150.54	-27.97	-69.82	-27.98	-69.83	-26.08	-131.57
12.81	-33.56	-153.36	-27.99	-70.17	-28	-70.19	-26.37	-132.54
12.91	-33.73	-155.81	-27.96	-70.7	-27.94	-70.67	-26.55	-133.67
13.01	-33.64	-158	-27.99	-71.27	-27.96	-71.24	-26.81	-134.5
13.11	-33.71	-160.6	-27.95	-71.79	-27.94	-71.7	-26.93	-135.71
13.21	-33.63	-162.52	-28	-72.02	-27.99	-71.87	-27.1	-137.07
13.31	-33.39	-165.22	-27.91	-72.36	-27.92	-72.27	-27.35	-139.13
13.41	-33.27	-167.77	-27.89	-72.75	-27.91	-72.73	-27.6	-140.42
13.51	-33.1	-170.63	-27.86	-73.41	-27.87	-73.32	-27.76	-142
13.61	-32.98	-172.75	-27.85	-73.8	-27.86	-73.85	-28.06	-143.44
13.71	-32.94	-175.35	-27.82	-74.33	-27.83	-74.32	-28.29	-144.92
13.81	-32.84	-176.62	-27.81	-74.86	-27.81	-74.78	-28.54	-146.38
13.91	-32.68	-178.61	-27.8	-75.41	-27.78	-75.22	-28.71	-147.89
14.01	-32.48	-179.96	-27.77	-76.07	-27.76	-75.91	-28.95	-149.44
14.11	-32.23	177.98	-27.76	-76.51	-27.77	-76.43	-29.14	-151.93
14.21	-32.01	175.75	-27.76	-76.77	-27.76	-76.65	-29.42	-154.05
14.31	-31.85	172.61	-27.69	-77.24	-27.71	-77.15	-29.73	-155.92
14.41	-31.83	171.17	-27.67	-77.9	-27.68	-77.89	-30.06	-158.18
14.51	-31.67	168.88	-27.69	-78.46	-27.68	-78.4	-30.38	-159.64
14.61	-31.66	167.67	-27.68	-78.99	-27.66	-78.86	-30.65	-161.11
14.71	-31.5	166.81	-27.63	-79.42	-27.63	-79.23	-30.85	-162.6
14.81	-31.37	166.06	-27.63	-80.11	-27.61	-79.97	-31.04	-164.81
14.91	-31.15	165.36	-27.63	-80.65	-27.63	-80.5	-31.27	-167.48
15.01	-30.93	163.22	-27.59	-80.92	-27.61	-80.73	-31.61	-170.7
15.11	-30.77	160.95	-27.57	-81.39	-27.57	-81.24	-31.92	-172.83
15.21	-30.72	158.87	-27.54	-81.94	-27.55	-81.9	-32.34	-175.39
15.31	-30.76	156.94	-27.54	-82.51	-27.53	-82.38	-32.63	-177.23
15.41	-30.67	155.71	-27.55	-82.74	-27.53	-82.67	-32.89	179.61
15.51	-30.53	154.72	-27.5	-83.22	-27.48	-83.11	-33.18	177.44
15.61	-30.25	153.74	-27.47	-83.73	-27.46	-83.53	-33.3	174.63
15.71	-29.96	152.36	-27.42	-84.4	-27.42	-84.18	-33.44	170.35
15.81	-29.69	150.65	-27.42	-84.98	-27.42	-84.8	-33.67	166.81
15.91	-29.46	148.77	-27.41	-85.32	-27.41	-85.21	-33.92	163.45
16.01	-29.38	146.26	-27.36	-85.65	-27.36	-85.63	-34.11	159.97
16.11	-29.3	144.62	-27.32	-85.84	-27.32	-85.87	-34.26	156.75
16.21	-29.3	143.37	-27.27	-86.61	-27.24	-86.49	-34.25	153.46
16.31	-29.25	143.33	-27.23	-87.18	-27.21	-87.03	-34.41	148.8
16.41	-29.01	142.87	-27.18	-87.7	-27.17	-87.5	-34.43	145.05
16.51	-28.72	141.71	-27.16	-88.41	-27.13	-88.22	-34.53	141.7
16.61	-28.6	140.05	-27.11	-89.01	-27.1	-88.82	-34.43	138.26
16.71	-28.48	138.75	-27.07	-89.45	-27.04	-89.48	-34	135.18
16.81	-28.4	137.36	-27.07	-90.04	-27.03	-90.05	-33.76	128.59
16.91	-28.4	136.13	-27.03	-90.28	-26.97	-90.29	-33.39	122.85
17.01	-28.45	136.86	-26.97	-91.08	-26.9	-91.13	-33.53	114.7
17.11	-28.25	136.92	-26.94	-91.69	-26.87	-91.72	-34.03	106.59
17.21	-28.02	136.56	-26.89	-92.22	-26.84	-92.43	-35.69	108.25
17.31	-27.76	135.25	-26.86	-92.58	-26.84	-92.85	-34.96	116.23
17.41	-27.64	133.59	-26.73	-93.1	-26.76	-93.56	-33	118.35
17.51	-27.61	132.21	-26.68	-94.02	-26.7	-94.47	-31.56	107.07
17.61	-27.59	130.58	-26.59	-94.28	-26.64	-94.79	-31.26	96.65
17.71	-27.7	129.66	-26.51	-95.41	-26.56	-95.7	-31.96	88.16
17.81	-27.67	129.42	-26.49	-96.24	-26.51	-96.44	-32.59	87.23
17.91	-27.57	129.13	-26.45	-97.25	-26.49	-97.16	-32.23	91.23
18.01	-27.28	128.22	-26.41	-97.98	-26.45	-97.84	-31.23	90.45
18.11	-27.15	126.35	-26.35	-98.64	-26.4	-98.48	-30.32	85.65
18.21	-27.09	125.28	-26.31	-99.69	-26.34	-99.52	-29.97	79.7
18.31	-26.99	124.35	-26.26	-100.52	-26.31	-100.47	-29.65	74.9
18.41	-26.98	123.5	-26.24	-101.11	-26.27	-101.15	-29.99	71.28
18.51	-27.01	123.51	-26.19	-102.32	-26.2	-102.3	-29.74	70.11
18.61	-26.87	123.61	-26.22	-103.09	-26.21	-102.86	-29.76	69.24
18.71	-26.85	123.95	-26.14	-103.83	-26.15	-103.56	-29.45	68.96
18.81	-26.63	123.52	-26.06	-104.65	-26.09	-104.39	-29.05	68.32
18.91	-26.55	122.51	-26.02	-105.71	-26.02	-105.49	-28.43	66.93
19.01	-26.49	121.92	-25.96	-106.78	-26.01	-106.7	-28.08	63.26
19.11	-26.44	121.9	-26	-107.76	-26.01	-107.69	-27.91	61.01
19.21	-26.44	121.46	-25.97	-108.33	-25.97	-108.2	-27.81	59.08
19.31	-26.38	121.55	-25.87	-109.6	-25.83	-109.48	-27.54	59.13
19.41	-26.24	122.02	-25.91	-111.13	-25.91	-110.97	-27.09	57.46
19.51	-26.19	121.88	-25.92	-112.09	-25.91	-111.9	-26.7	55.73
19.61	-25.98	121.42	-25.95	-112.85	-25.97	-112.62	-26.56	52.76
19.71	-25.94	120.66	-25.91	-113.45	-25.92	-113.2	-26.45	52.26
19.81	-26.06	119.58	-25.76	-114.62	-25.76	-114.6	-26.13	50.55
19.91	-26.09	120.23	-25.82	-116.22	-25.84	-116.16	-25.82	49.05
20.01	-26.1	121.53	-25.89	-117.48	-25.88	-117.41	-25.5	46.62