!s2p File: Measurements: S11, S21, S12, S22								
# GHz S dB R 50.0								
0.01	-15.54	-0.7	-16.75	-0.41	-16.76	-0.29	-23.78	-1.64
0.11	-15.79	-1.8	-16.87	-1.43	-16.87	-1.41	-24.62	-4.09
0.21	-15.86	-2.31	-16.91	-2.1	-16.91	-2.08	-24.9	-3.39
0.31	-15.88	-2.88	-16.92	-2.8	-16.92	-2.8	-24.98	-2.93
0.41	-15.9	-3.5	-16.93	-3.53	-16.93	-3.52	-25.03	-2.73
0.51	-15.91	-4.13	-16.94	-4.3	-16.93	-4.29	-25.05	-2.71
0.61	-15.91	-4.78	-16.94	-5.07	-16.94	-5.06	-25.07	-2.76
0.71	-15.91	-5.47	-16.94	-5.84	-16.94	-5.84	-25.07	-2.78
0.81	-15.92	-6.14	-16.95	-6.63	-16.94	-6.61	-25.07	-2.98
0.91	-15.92	-6.83	-16.95	-7.4	-16.95	-7.4	-25.08	-3.1
1.01	-15.93	-7.53	-16.96	-8.18	-16.95	-8.18	-25.07	-3.24
1.11	-15.93	-8.25	-16.96	-8.97	-16.95	-8.96	-25.06	-3.44
1.21	-15.94	-8.96	-16.96	-9.74	-16.96	-9.74	-25.06	-3.63
1.31	-15.94	-9.71	-16.97	-10.53	-16.96	-10.53	-25.06	-3.91
1.41	-15.95	-10.47	-16.97	-11.34	-16.96	-11.33	-25.06	-4.19
1.51	-15.96	-11.22	-16.97	-12.12	-16.97	-12.12	-25.06	-4.29
1.61	-15.95	-11.95	-16.97	-12.9	-16.97	-12.9	-25.05	-4.48
1.71	-15.95	-12.72	-16.98	-13.7	-16.97	-13.69	-25.03	-4.8
1.81	-15.95	-13.55	-16.98	-14.48	-16.98	-14.47	-25.02	-5.23
1.91	-15.96	-14.33	-16.99	-15.26	-16.98	-15.26	-25.02	-5.54
2.01	-15.97	-15.1	-16.99	-16.05	-16.99	-16.05	-25.02	-5.85
2.11	-15.97	-15.86	-17	-16.84	-16.99	-16.84	-25.02	-6.16
2.21	-15.98	-16.64	-17	-17.62	-17	-17.62	-25.02	-6.42
2.31	-15.99	-17.4	-17	-18.41	-17	-18.41	-25.01	-6.7
2.41	-15.99	-18.17	-17.01	-19.19	-17.01	-19.18	-25.01	-7
2.51	-16	-18.92	-17.01	-19.97	-17.01	-19.97	-25.01	-7.27
2.61	-16.02	-19.66	-17.02	-20.75	-17.02	-20.75	-25.01	-7.53
2.71	-16.03	-20.37	-17.02	-21.53	-17.02	-21.54	-25.01	-7.81
2.81	-16.05	-21.08	-17.03	-22.32	-17.03	-22.33	-25.02	-8.03
2.91	-16.06	-21.82	-17.03	-23.09	-17.03	-23.09	-25.02	-8.25
3.01	-16.07	-22.56	-17.04	-23.88	-17.03	-23.87	-25.01	-8.44
3.11	-16.08	-23.32	-17.04	-24.66	-17.04	-24.66	-25.01	-8.76
3.21	-16.1	-24.09	-17.05	-25.43	-17.05	-25.44	-25.01	-9.01
3.31	-16.12	-24.86	-17.05	-26.23	-17.05	-26.22	-25.01	-9.26
3.41	-16.13	-25.61	-17.06	-27	-17.06	-27	-25.01	-9.49
3.51	-16.14	-26.38	-17.06	-27.77	-17.06	-27.79	-25.01	-9.71
3.61	-16.16	-27.15	-17.07	-28.56	-17.07	-28.59	-25.01	-9.97
3.71	-16.18	-27.95	-17.07	-29.35	-17.08	-29.36	-25.01	-10.3
3.81	-16.2	-28.79	-17.08	-30.13	-17.08	-30.15	-25	-10.66
3.91	-16.22	-29.56	-17.09	-30.9	-17.09	-30.93	-25.03	-10.99
4.01	-16.25	-30.3	-17.09	-31.7	-17.09	-31.72	-25.03	-11.18
4.11	-16.26	-31.07	-17.1	-32.5	-17.1	-32.49	-25.04	-11.4
4.21	-16.27	-31.86	-17.1	-33.27	-17.11	-33.26	-25.02	-11.56
4.31	-16.29	-32.72	-17.11	-34.05	-17.11	-34.05	-25	-11.94
4.41	-16.32	-33.57	-17.12	-34.82	-17.12	-34.83	-24.99	-12.34
4.51	-16.35	-34.33	-17.13	-35.59	-17.13	-35.61	-25	-12.75
4.61	-16.37	-35.09	-17.14	-36.39	-17.14	-36.39	-25.01	-13.03
4.71	-16.39	-35.79	-17.14	-37.18	-17.14	-37.18	-25.04	-13.22
4.81	-16.4	-36.55	-17.15	-37.97	-17.15	-37.96	-25.03	-13.38
4.91	-16.41	-37.36	-17.16	-38.74	-17.16	-38.73	-25.01	-13.53
5.01	-16.42	-38.19	-17.16	-39.53	-17.16	-39.52	-25	-13.74
5.11	-16.46	-39.02	-17.17	-40.28	-17.17	-40.28	-24.98	-14.15
5.21	-16.49	-39.78	-17.18	-41.06	-17.18	-41.08	-24.98	-14.47
5.31	-16.52	-40.52	-17.19	-41.86	-17.19	-41.85	-24.99	-14.83
5.41	-16.55	-41.2	-17.2	-42.64	-17.2	-42.62	-25.01	-15.03
5.51	-16.57	-41.91	-17.21	-43.42	-17.21	-43.41	-25.03	-15.1
5.61	-16.6	-42.7	-17.22	-44.21	-17.22	-44.2	-25.01	-15.16
5.71	-16.63	-43.52	-17.23	-44.99	-17.23	-44.98	-24.99	-15.36
5.81	-16.66	-44.35	-17.23	-45.74	-17.24	-45.74	-24.96	-15.62
5.91	-16.7	-45.16	-17.24	-46.53	-17.25	-46.53	-24.95	-16.06
6.01	-16.74	-45.93	-17.25	-47.33	-17.26	-47.31	-24.95	-16.46
6.11	-16.78	-46.65	-17.27	-48.1	-17.27	-48.1	-24.95	-16.71
6.21	-16.8	-47.39	-17.28	-48.88	-17.28	-48.88	-24.96	-16.89
6.31	-16.83	-48.16	-17.29	-49.65	-17.29	-49.62	-24.94	-17.06
6.41	-16.85	-49.01	-17.3	-50.41	-17.3	-50.42	-24.93	-17.21
6.51	-16.87	-49.85	-17.31	-51.17	-17.32	-51.16	-24.91	-17.44
6.61	-16.91	-50.67	-17.33	-51.96	-17.33	-51.94	-24.89	-17.75
6.71	-16.95	-51.5	-17.34	-52.73	-17.34	-52.71	-24.89	-18.09
6.81	-16.98	-52.27	-17.35	-53.49	-17.35	-53.47	-24.89	-18.44
6.91	-17.01	-53.08	-17.36	-54.24	-17.36	-54.22	-24.91	-18.7
7.01	-17.04	-53.84	-17.37	-55.01	-17.38	-54.99	-24.9	-18.89
7.11	-17.06	-54.67	-17.38	-55.74	-17.39	-55.76	-24.89	-19.07
7.21	-17.1	-55.5	-17.39	-56.53	-17.4	-56.53	-24.85	-19.27
7.31	-17.13	-56.26	-17.41	-57.34	-17.41	-57.33	-24.8	-19.76
7.41	-17.16	-57.04	-17.43	-58.13	-17.43	-58.1	-24.77	-20.26
7.51	-17.18	-57.85	-17.45	-58.86	-17.45	-58.82	-24.78	-20.76
7.61	-17.22	-58.62	-17.46	-59.6	-17.46	-59.56	-24.79	-21.03
7.71	-17.25	-59.39	-17.47	-60.33	-17.48	-60.31	-24.78	-21.34
7.81	-17.28	-60.18	-17.49	-61.03	-17.5	-61.06	-24.78	-21.58
7.91	-17.32	-60.92	-17.51	-61.8	-17.51	-61.81	-24.76	-21.87
8.01	-17.36	-61.78	-17.52	-62.54	-17.53	-62.55	-24.75	-22.23
8.11	-17.4	-62.6	-17.54	-63.26	-17.54	-63.25	-24.75	-22.74
8.21	-17.46	-63.42	-17.56	-64.01	-17.56	-63.99	-24.76	-23.25
8.31	-17.5	-64.23	-17.57	-64.76	-17.58	-64.73	-24.77	-23.75
8.41	-17.53	-65.06	-17.58	-65.45	-17.59	-65.43	-24.78	-24.12
8.51	-17.57	-65.92	-17.6	-66.16	-17.61	-66.14	-24.79	-24.58
8.61	-17.6	-66.81	-17.62	-66.85	-17.63	-66.82	-24.79	-24.98
8.71	-17.63	-67.78	-17.64	-67.56	-17.64	-67.5	-24.8	-25.38
8.81	-17.67	-68.67	-17.65	-68.24	-17.65	-68.19	-24.81	-25.83
8.91	-17.71	-69.6	-17.66	-68.91	-17.67	-68.89	-24.83	-26.36
9.01	-17.76	-70.48	-17.68	-69.63	-17.68	-69.56	-24.87	-26.84
9.11	-17.8	-71.37	-17.69	-70.28	-17.7	-70.25	-24.89	-27.23
9.21	-17.85	-72.27	-17.71	-70.95	-17.71	-70.91	-24.93	-27.54
9.31	-17.89	-73.13	-17.71	-71.63	-17.72	-71.58	-24.96	-27.91
9.41	-17.92	-74.03	-17.72	-72.3	-17.72	-72.25	-24.99	-28.29
9.51	-17.96	-74.94	-17.74	-72.98	-17.74	-72.95	-25.02	-28.55
9.61	-18.01	-75.86	-17.74	-73.66	-17.74	-73.61	-25.05	-28.8
9.71	-18.05	-76.8	-17.74	-74.33	-17.75	-74.29	-25.08	-29.06
9.81	-18.1	-77.67	-17.75	-74.96	-17.76	-74.96	-25.12	-29.31
9.91	-18.14	-78.48	-17.75	-75.67	-17.76	-75.65	-25.18	-29.54
10.01	-18.18	-79.31	-17.76	-76.38	-17.76	-76.33	-25.21	-29.78
10.11	-18.22	-80.14	-17.77	-77.07	-17.77	-76.99	-25.28	-29.91
10.21	-18.27	-81.02	-17.78	-77.7	-17.77	-77.68	-25.33	-29.91
10.31	-18.32	-81.92	-17.77	-78.39	-17.78	-78.35	-25.36	-30.02
10.41	-18.37	-82.81	-17.77	-79.06	-17.78	-79.06	-25.39	-29.89
10.51	-18.44	-83.72	-17.78	-79.74	-17.78	-79.72	-25.41	-29.94
10.61	-18.5	-84.66	-17.78	-80.46	-17.78	-80.43	-25.43	-30
10.71	-18.56	-85.54	-17.78	-81.22	-17.78	-81.12	-25.46	-30.09
10.81	-18.62	-86.43	-17.78	-81.93	-17.78	-81.84	-25.51	-30.1
10.91	-18.68	-87.4	-17.78	-82.65	-17.78	-82.57	-25.58	-30.13
11.01	-18.74	-88.27	-17.78	-83.37	-17.78	-83.3	-25.61	-29.81
11.11	-18.79	-89.15	-17.78	-84.07	-17.79	-84.03	-25.62	-29.71
11.21	-18.84	-90.13	-17.79	-84.79	-17.79	-84.76	-25.63	-29.68
11.31	-18.9	-90.95	-17.79	-85.51	-17.78	-85.5	-25.61	-29.62
11.41	-18.95	-91.9	-17.79	-86.27	-17.79	-86.21	-25.61	-29.74
11.51	-19	-92.75	-17.8	-87	-17.79	-86.9	-25.64	-29.77
11.61	-19.05	-93.62	-17.79	-87.73	-17.79	-87.6	-25.68	-29.78
11.71	-19.09	-94.53	-17.78	-88.43	-17.8	-88.39	-25.71	-29.8
11.81	-19.15	-95.5	-17.78	-89.15	-17.8	-89.09	-25.74	-29.44
11.91	-19.22	-96.42	-17.8	-89.9	-17.79	-89.86	-25.7	-29.09
12.01	-19.26	-97.39	-17.8	-90.62	-17.8	-90.66	-25.67	-29.3
12.11	-19.29	-98.26	-17.81	-91.46	-17.81	-91.41	-25.66	-29.16
12.21	-19.34	-99.12	-17.82	-92.11	-17.81	-92.07	-25.63	-29.27
12.31	-19.39	-100	-17.82	-92.9	-17.82	-92.82	-25.63	-29.45
12.41	-19.44	-100.95	-17.81	-93.71	-17.82	-93.54	-25.63	-29.78
12.51	-19.5	-101.85	-17.82	-94.42	-17.83	-94.29	-25.68	-29.66
12.61	-19.54	-102.76	-17.82	-95.08	-17.83	-95.02	-25.69	-29.38
12.71	-19.61	-103.74	-17.82	-95.82	-17.83	-95.79	-25.69	-29.12
12.81	-19.69	-104.69	-17.83	-96.53	-17.84	-96.58	-25.61	-28.62
12.91	-19.77	-105.44	-17.84	-97.28	-17.83	-97.26	-25.57	-28.8
13.01	-19.82	-106.37	-17.84	-98.11	-17.84	-98.05	-25.5	-28.61
13.11	-19.91	-107.21	-17.85	-98.91	-17.85	-98.82	-25.47	-29.03
13.21	-19.94	-107.94	-17.88	-99.6	-17.88	-99.42	-25.49	-29.24
13.31	-19.99	-109.15	-17.86	-100.24	-17.86	-100.11	-25.52	-28.98
13.41	-20.04	-110.2	-17.86	-100.93	-17.87	-100.89	-25.47	-28.82
13.51	-20.1	-111.32	-17.86	-101.67	-17.87	-101.63	-25.49	-29.05
13.61	-20.15	-112.32	-17.86	-102.4	-17.87	-102.4	-25.42	-28.9
13.71	-20.23	-113.26	-17.86	-103.16	-17.86	-103.13	-25.41	-28.84
13.81	-20.26	-114.19	-17.87	-103.95	-17.87	-103.9	-25.36	-28.95
13.91	-20.32	-115.17	-17.88	-104.76	-17.88	-104.6	-25.35	-29.31
14.01	-20.35	-116.14	-17.88	-105.56	-17.87	-105.41	-25.33	-29.42
14.11	-20.39	-117.25	-17.88	-106.25	-17.9	-106.14	-25.39	-29.49
14.21	-20.43	-118.31	-17.89	-106.98	-17.91	-106.82	-25.38	-29.18
14.31	-20.52	-119.51	-17.89	-107.63	-17.9	-107.55	-25.34	-29.06
14.41	-20.57	-120.33	-17.88	-108.4	-17.89	-108.4	-25.3	-28.85
14.51	-20.64	-121.42	-17.9	-109.24	-17.9	-109.17	-25.24	-28.98
14.61	-20.68	-122.18	-17.92	-110.01	-17.9	-109.89	-25.17	-29.26
14.71	-20.71	-123.13	-17.92	-110.75	-17.91	-110.58	-25.13	-29.81
14.81	-20.73	-123.94	-17.92	-111.57	-17.91	-111.37	-25.15	-30.09
14.91	-20.73	-124.99	-17.94	-112.35	-17.94	-112.16	-25.17	-30.09
15.01	-20.81	-126.07	-17.93	-112.96	-17.94	-112.81	-25.15	-29.68
15.11	-20.87	-127.28	-17.93	-113.7	-17.94	-113.63	-25.09	-29.91
15.21	-20.94	-128.13	-17.94	-114.46	-17.94	-114.41	-25.01	-29.8
15.31	-21.03	-128.79	-17.96	-115.26	-17.94	-115.14	-24.97	-30.14
15.41	-21.08	-129.68	-17.98	-115.94	-17.96	-115.83	-24.95	-30.21
15.51	-21.12	-130.55	-17.98	-116.65	-17.96	-116.46	-24.9	-30.47
15.61	-21.13	-131.84	-17.99	-117.42	-17.98	-117.24	-24.91	-30.83
15.71	-21.16	-133.09	-17.98	-118.18	-17.98	-117.96	-24.94	-30.87
15.81	-21.21	-134.29	-17.99	-118.89	-17.99	-118.74	-24.94	-30.85
15.91	-21.26	-135.59	-17.99	-119.59	-18	-119.52	-24.88	-30.94
16.01	-21.38	-136.58	-18.01	-120.27	-18	-120.19	-24.87	-31.18
16.11	-21.44	-137.54	-18.02	-120.91	-18	-120.86	-24.83	-31.38
16.21	-21.49	-138.24	-18.03	-121.68	-17.99	-121.55	-24.86	-31.97
16.31	-21.47	-138.95	-18.02	-122.42	-18	-122.24	-24.86	-31.81
16.41	-21.46	-140.2	-18.02	-123.11	-18	-122.86	-24.86	-32.14
16.51	-21.49	-141.58	-18.02	-123.89	-18	-123.7	-24.86	-32.45
16.61	-21.54	-142.65	-18.01	-124.62	-18	-124.44	-24.88	-32.7
16.71	-21.56	-143.67	-18.02	-125.21	-18	-125.2	-25.04	-33.01
16.81	-21.62	-144.65	-18.03	-125.99	-17.99	-125.98	-25.06	-32.01
16.91	-21.67	-145.42	-18.05	-126.64	-17.99	-126.59	-25.1	-31.14
17.01	-21.61	-145.95	-18.04	-127.31	-17.98	-127.35	-24.9	-30.27
17.11	-21.58	-147.05	-18.06	-128.03	-17.99	-128.06	-24.61	-30.11
17.21	-21.53	-148.31	-18.04	-128.62	-17.99	-128.8	-24.33	-33.37
17.31	-21.57	-149.68	-18.03	-129.25	-18.01	-129.55	-24.71	-35.58
17.41	-21.61	-150.82	-17.98	-129.79	-17.99	-130.23	-25.32	-35.52
17.51	-21.65	-151.89	-17.95	-130.75	-17.97	-131.13	-25.46	-31.02
17.61	-21.74	-152.58	-17.93	-131.28	-17.96	-131.78	-25.07	-28.36
17.71	-21.77	-153.21	-17.9	-132.31	-17.94	-132.51	-24.53	-29.71
17.81	-21.76	-153.92	-17.9	-133.14	-17.93	-133.25	-24.44	-32.11
17.91	-21.74	-155.02	-17.88	-134.18	-17.92	-134.09	-24.8	-33.64
18.01	-21.74	-156.82	-17.89	-135.08	-17.93	-134.9	-25.11	-32.42
18.11	-21.86	-157.8	-17.88	-135.86	-17.93	-135.62	-25.12	-29.8
18.21	-21.83	-159.06	-17.88	-136.69	-17.91	-136.55	-24.9	-28.81
18.31	-21.86	-160.26	-17.86	-137.57	-17.9	-137.44	-24.7	-28.03
18.41	-21.87	-161.2	-17.87	-138.31	-17.9	-138.25	-24.5	-29.69
18.51	-21.81	-162.17	-17.87	-139.16	-17.88	-139.06	-24.58	-29.76
18.61	-21.81	-163.2	-17.9	-140.09	-17.89	-139.81	-24.62	-30.55
18.71	-21.72	-163.95	-17.88	-140.83	-17.88	-140.62	-24.73	-30.31
18.81	-21.65	-165.56	-17.85	-141.7	-17.87	-141.43	-24.81	-29.9
18.91	-21.67	-166.67	-17.85	-142.64	-17.85	-142.39	-24.87	-28.45
19.01	-21.64	-168.11	-17.83	-143.52	-17.85	-143.42	-24.68	-27.67
19.11	-21.63	-169.15	-17.84	-144.36	-17.86	-144.32	-24.59	-27.45
19.21	-21.61	-170.09	-17.86	-145.22	-17.85	-145.04	-24.48	-27.98
19.31	-21.53	-171.37	-17.83	-146.13	-17.82	-146.04	-24.64	-27.91
19.41	-21.5	-172.73	-17.87	-147.32	-17.86	-147.13	-24.6	-26.45
19.51	-21.43	-173.89	-17.89	-148.19	-17.87	-147.92	-24.52	-25.62
19.61	-21.45	-175.57	-17.89	-149	-17.9	-148.78	-24.3	-25.81
19.71	-21.46	-176.56	-17.89	-149.82	-17.9	-149.61	-24.32	-26.1
19.81	-21.45	-177.65	-17.86	-150.63	-17.86	-150.52	-24.25	-25.82
19.91	-21.46	-178.52	-17.86	-151.74	-17.87	-151.64	-24.19	-25.01
20.01	-21.39	-179.76	-17.9	-152.8	-17.88	-152.69	-24	-24.38