!s2p File: Measurements: S11, S21, S12, S22								
# GHz S dB R 50.0								
0.01	-15.37	-0.67	-14.35	-0.45	-14.36	-0.38	-15.38	-1.24
0.11	-15.62	-1.81	-14.47	-1.37	-14.47	-1.37	-15.78	-2.16
0.21	-15.69	-2.35	-14.51	-2.07	-14.5	-2.07	-15.86	-2.64
0.31	-15.71	-2.93	-14.52	-2.81	-14.51	-2.82	-15.89	-3.23
0.41	-15.73	-3.57	-14.53	-3.6	-14.52	-3.58	-15.91	-3.89
0.51	-15.74	-4.22	-14.53	-4.39	-14.53	-4.37	-15.92	-4.6
0.61	-15.74	-4.89	-14.54	-5.17	-14.53	-5.17	-15.92	-5.32
0.71	-15.74	-5.59	-14.54	-5.98	-14.54	-5.97	-15.93	-6.07
0.81	-15.75	-6.29	-14.54	-6.78	-14.54	-6.76	-15.93	-6.84
0.91	-15.75	-7.01	-14.55	-7.58	-14.54	-7.57	-15.94	-7.59
1.01	-15.76	-7.72	-14.55	-8.38	-14.55	-8.38	-15.94	-8.34
1.11	-15.76	-8.45	-14.55	-9.18	-14.55	-9.18	-15.95	-9.12
1.21	-15.77	-9.18	-14.56	-9.98	-14.55	-9.98	-15.95	-9.9
1.31	-15.77	-9.95	-14.56	-10.81	-14.56	-10.8	-15.95	-10.7
1.41	-15.78	-10.74	-14.57	-11.62	-14.56	-11.61	-15.96	-11.49
1.51	-15.79	-11.49	-14.57	-12.43	-14.56	-12.43	-15.97	-12.26
1.61	-15.79	-12.24	-14.57	-13.23	-14.57	-13.23	-15.97	-13.01
1.71	-15.79	-13.03	-14.58	-14.03	-14.57	-14.04	-15.97	-13.84
1.81	-15.79	-13.87	-14.58	-14.85	-14.58	-14.84	-15.97	-14.66
1.91	-15.79	-14.66	-14.59	-15.64	-14.59	-15.65	-15.98	-15.49
2.01	-15.8	-15.46	-14.59	-16.46	-14.59	-16.45	-15.99	-16.3
2.11	-15.81	-16.23	-14.6	-17.27	-14.59	-17.26	-16	-17.1
2.21	-15.82	-17.03	-14.6	-18.07	-14.6	-18.06	-16.01	-17.89
2.31	-15.83	-17.8	-14.61	-18.86	-14.61	-18.87	-16.02	-18.68
2.41	-15.83	-18.59	-14.62	-19.67	-14.61	-19.66	-16.02	-19.47
2.51	-15.85	-19.34	-14.62	-20.46	-14.62	-20.48	-16.04	-20.26
2.61	-15.86	-20.11	-14.63	-21.26	-14.62	-21.27	-16.05	-21.04
2.71	-15.87	-20.83	-14.64	-22.06	-14.63	-22.06	-16.06	-21.82
2.81	-15.89	-21.56	-14.64	-22.87	-14.64	-22.86	-16.07	-22.61
2.91	-15.9	-22.31	-14.65	-23.67	-14.64	-23.66	-16.08	-23.37
3.01	-15.91	-23.07	-14.65	-24.46	-14.65	-24.46	-16.09	-24.12
3.11	-15.93	-23.86	-14.66	-25.26	-14.66	-25.26	-16.1	-24.9
3.21	-15.95	-24.64	-14.67	-26.05	-14.66	-26.06	-16.11	-25.67
3.31	-15.96	-25.42	-14.67	-26.87	-14.67	-26.85	-16.13	-26.45
3.41	-15.98	-26.19	-14.68	-27.66	-14.67	-27.66	-16.14	-27.21
3.51	-15.99	-26.97	-14.69	-28.45	-14.68	-28.45	-16.15	-27.96
3.61	-16.01	-27.76	-14.69	-29.24	-14.69	-29.25	-16.17	-28.73
3.71	-16.03	-28.57	-14.7	-30.04	-14.7	-30.06	-16.18	-29.52
3.81	-16.05	-29.41	-14.71	-30.84	-14.71	-30.86	-16.19	-30.33
3.91	-16.08	-30.22	-14.72	-31.64	-14.72	-31.64	-16.21	-31.13
4.01	-16.1	-30.97	-14.72	-32.45	-14.72	-32.45	-16.23	-31.89
4.11	-16.11	-31.76	-14.73	-33.25	-14.73	-33.24	-16.25	-32.62
4.21	-16.13	-32.55	-14.74	-34.03	-14.74	-34.02	-16.25	-33.35
4.31	-16.15	-33.41	-14.75	-34.82	-14.75	-34.82	-16.26	-34.13
4.41	-16.18	-34.29	-14.76	-35.6	-14.76	-35.6	-16.27	-34.93
4.51	-16.21	-35.07	-14.77	-36.39	-14.77	-36.41	-16.29	-35.74
4.61	-16.23	-35.83	-14.78	-37.2	-14.77	-37.2	-16.31	-36.52
4.71	-16.25	-36.55	-14.78	-38	-14.78	-38	-16.33	-37.27
4.81	-16.26	-37.32	-14.8	-38.8	-14.79	-38.79	-16.35	-37.98
4.91	-16.27	-38.16	-14.8	-39.59	-14.8	-39.57	-16.36	-38.69
5.01	-16.29	-39	-14.81	-40.37	-14.81	-40.36	-16.37	-39.4
5.11	-16.32	-39.82	-14.82	-41.14	-14.82	-41.13	-16.38	-40.19
5.21	-16.36	-40.61	-14.83	-41.93	-14.83	-41.94	-16.4	-40.95
5.31	-16.39	-41.35	-14.84	-42.73	-14.84	-42.73	-16.42	-41.73
5.41	-16.42	-42.06	-14.85	-43.52	-14.85	-43.51	-16.45	-42.49
5.51	-16.45	-42.78	-14.86	-44.31	-14.86	-44.3	-16.47	-43.18
5.61	-16.47	-43.56	-14.87	-45.11	-14.87	-45.1	-16.49	-43.84
5.71	-16.5	-44.4	-14.88	-45.9	-14.88	-45.88	-16.5	-44.55
5.81	-16.54	-45.25	-14.89	-46.67	-14.89	-46.67	-16.51	-45.26
5.91	-16.58	-46.06	-14.91	-47.46	-14.91	-47.45	-16.52	-46.04
6.01	-16.62	-46.87	-14.92	-48.26	-14.92	-48.25	-16.54	-46.83
6.11	-16.66	-47.58	-14.93	-49.04	-14.93	-49.03	-16.56	-47.57
6.21	-16.68	-48.36	-14.94	-49.81	-14.94	-49.81	-16.58	-48.28
6.31	-16.71	-49.14	-14.96	-50.6	-14.95	-50.58	-16.6	-48.93
6.41	-16.73	-49.96	-14.97	-51.37	-14.97	-51.37	-16.62	-49.65
6.51	-16.76	-50.84	-14.98	-52.14	-14.98	-52.14	-16.63	-50.32
6.61	-16.8	-51.68	-14.99	-52.92	-14.99	-52.9	-16.65	-51.06
6.71	-16.83	-52.51	-15.01	-53.71	-15.01	-53.7	-16.67	-51.83
6.81	-16.87	-53.32	-15.02	-54.47	-15.02	-54.47	-16.69	-52.58
6.91	-16.9	-54.11	-15.03	-55.24	-15.03	-55.23	-16.71	-53.34
7.01	-16.92	-54.91	-15.05	-56.01	-15.05	-56.01	-16.74	-54.02
7.11	-16.95	-55.72	-15.06	-56.75	-15.06	-56.76	-16.76	-54.72
7.21	-16.98	-56.57	-15.07	-57.54	-15.07	-57.54	-16.77	-55.36
7.31	-17.01	-57.36	-15.09	-58.35	-15.09	-58.34	-16.77	-56.06
7.41	-17.05	-58.15	-15.11	-59.13	-15.11	-59.11	-16.77	-56.83
7.51	-17.08	-58.99	-15.13	-59.87	-15.12	-59.85	-16.79	-57.62
7.61	-17.11	-59.76	-15.14	-60.63	-15.14	-60.59	-16.82	-58.36
7.71	-17.14	-60.55	-15.15	-61.37	-15.15	-61.35	-16.84	-59.07
7.81	-17.17	-61.36	-15.17	-62.07	-15.17	-62.11	-16.86	-59.77
7.91	-17.21	-62.12	-15.19	-62.85	-15.19	-62.86	-16.88	-60.46
8.01	-17.26	-62.99	-15.2	-63.6	-15.2	-63.61	-16.9	-61.19
8.11	-17.3	-63.83	-15.22	-64.33	-15.22	-64.33	-16.91	-61.98
8.21	-17.35	-64.68	-15.24	-65.09	-15.23	-65.09	-16.93	-62.77
8.31	-17.4	-65.52	-15.25	-65.84	-15.25	-65.81	-16.95	-63.53
8.41	-17.43	-66.35	-15.26	-66.53	-15.27	-66.54	-16.97	-64.3
8.51	-17.47	-67.24	-15.28	-67.27	-15.29	-67.26	-17	-65.07
8.61	-17.5	-68.16	-15.3	-67.98	-15.3	-67.96	-17.02	-65.82
8.71	-17.53	-69.11	-15.31	-68.71	-15.32	-68.64	-17.04	-66.56
8.81	-17.57	-70.05	-15.34	-69.4	-15.33	-69.37	-17.06	-67.31
8.91	-17.62	-70.98	-15.35	-70.09	-15.34	-70.09	-17.08	-68.12
9.01	-17.67	-71.89	-15.36	-70.83	-15.36	-70.76	-17.11	-68.93
9.11	-17.71	-72.83	-15.37	-71.49	-15.37	-71.46	-17.14	-69.69
9.21	-17.76	-73.72	-15.39	-72.19	-15.38	-72.16	-17.18	-70.48
9.31	-17.8	-74.62	-15.4	-72.89	-15.39	-72.85	-17.21	-71.24
9.41	-17.84	-75.53	-15.4	-73.58	-15.4	-73.55	-17.24	-72.02
9.51	-17.87	-76.46	-15.42	-74.27	-15.42	-74.26	-17.28	-72.77
9.61	-17.93	-77.42	-15.43	-74.98	-15.42	-74.93	-17.31	-73.47
9.71	-17.97	-78.35	-15.43	-75.66	-15.44	-75.64	-17.34	-74.2
9.81	-18.02	-79.28	-15.44	-76.35	-15.44	-76.35	-17.38	-74.95
9.91	-18.07	-80.11	-15.45	-77.05	-15.45	-77.03	-17.43	-75.68
10.01	-18.11	-80.93	-15.45	-77.78	-15.46	-77.74	-17.47	-76.44
10.11	-18.15	-81.8	-15.47	-78.48	-15.46	-78.43	-17.51	-77.17
10.21	-18.2	-82.67	-15.48	-79.15	-15.47	-79.13	-17.56	-77.89
10.31	-18.26	-83.58	-15.48	-79.85	-15.48	-79.82	-17.61	-78.57
10.41	-18.31	-84.51	-15.48	-80.55	-15.48	-80.54	-17.66	-79.17
10.51	-18.38	-85.39	-15.49	-81.24	-15.49	-81.25	-17.7	-79.82
10.61	-18.45	-86.41	-15.49	-81.98	-15.49	-81.96	-17.74	-80.5
10.71	-18.51	-87.29	-15.5	-82.72	-15.5	-82.67	-17.79	-81.18
10.81	-18.58	-88.18	-15.5	-83.46	-15.5	-83.39	-17.84	-81.87
10.91	-18.64	-89.18	-15.5	-84.19	-15.5	-84.13	-17.89	-82.58
11.01	-18.7	-90.01	-15.51	-84.9	-15.51	-84.86	-17.96	-83.24
11.11	-18.75	-90.96	-15.51	-85.62	-15.52	-85.62	-18.01	-83.82
11.21	-18.8	-91.95	-15.53	-86.35	-15.52	-86.35	-18.05	-84.44
11.31	-18.86	-92.78	-15.54	-87.08	-15.52	-87.09	-18.09	-84.99
11.41	-18.92	-93.8	-15.53	-87.82	-15.53	-87.82	-18.12	-85.66
11.51	-18.97	-94.61	-15.54	-88.6	-15.54	-88.5	-18.18	-86.3
11.61	-19.02	-95.48	-15.55	-89.31	-15.54	-89.24	-18.22	-86.96
11.71	-19.07	-96.43	-15.54	-90.01	-15.56	-90.02	-18.27	-87.68
11.81	-19.13	-97.38	-15.55	-90.73	-15.56	-90.7	-18.34	-88.29
11.91	-19.2	-98.33	-15.56	-91.48	-15.56	-91.48	-18.39	-88.73
12.01	-19.24	-99.29	-15.57	-92.2	-15.57	-92.26	-18.42	-89.33
12.11	-19.28	-100.19	-15.58	-93.01	-15.57	-93.01	-18.47	-89.88
12.21	-19.33	-101.15	-15.6	-93.71	-15.58	-93.68	-18.5	-90.46
12.31	-19.39	-101.92	-15.59	-94.49	-15.59	-94.43	-18.54	-91.14
12.41	-19.43	-102.91	-15.59	-95.28	-15.6	-95.13	-18.57	-91.74
12.51	-19.5	-103.84	-15.61	-95.99	-15.61	-95.89	-18.64	-92.49
12.61	-19.53	-104.71	-15.61	-96.65	-15.62	-96.63	-18.7	-93.05
12.71	-19.61	-105.74	-15.61	-97.38	-15.62	-97.39	-18.76	-93.6
12.81	-19.69	-106.68	-15.63	-98.1	-15.63	-98.18	-18.82	-93.99
12.91	-19.78	-107.51	-15.64	-98.88	-15.63	-98.86	-18.86	-94.45
13.01	-19.83	-108.5	-15.64	-99.66	-15.63	-99.63	-18.9	-94.87
13.11	-19.93	-109.3	-15.65	-100.45	-15.64	-100.39	-18.93	-95.52
13.21	-19.96	-110.11	-15.68	-101.17	-15.68	-101.04	-18.97	-96.14
13.31	-20.01	-111.25	-15.66	-101.78	-15.66	-101.72	-19.04	-96.84
13.41	-20.06	-112.29	-15.67	-102.49	-15.68	-102.51	-19.09	-97.32
13.51	-20.12	-113.49	-15.67	-103.24	-15.68	-103.22	-19.13	-97.98
13.61	-20.17	-114.46	-15.68	-103.95	-15.69	-103.98	-19.19	-98.41
13.71	-20.25	-115.52	-15.68	-104.66	-15.68	-104.72	-19.24	-98.99
13.81	-20.29	-116.44	-15.7	-105.47	-15.69	-105.51	-19.29	-99.46
13.91	-20.36	-117.42	-15.71	-106.29	-15.7	-106.18	-19.32	-100.14
14.01	-20.39	-118.41	-15.71	-107.06	-15.7	-106.96	-19.37	-100.65
14.11	-20.44	-119.4	-15.71	-107.76	-15.73	-107.69	-19.44	-101.44
14.21	-20.48	-120.5	-15.72	-108.48	-15.74	-108.38	-19.5	-102.01
14.31	-20.56	-121.73	-15.72	-109.13	-15.74	-109.11	-19.57	-102.46
14.41	-20.6	-122.49	-15.73	-109.87	-15.74	-109.91	-19.64	-102.93
14.51	-20.68	-123.75	-15.74	-110.71	-15.74	-110.69	-19.69	-103.38
14.61	-20.73	-124.52	-15.76	-111.48	-15.75	-111.42	-19.72	-103.82
14.71	-20.76	-125.49	-15.77	-112.21	-15.76	-112.08	-19.75	-104.33
14.81	-20.8	-126.29	-15.77	-113	-15.77	-112.85	-19.79	-105.02
14.91	-20.78	-127.28	-15.79	-113.77	-15.79	-113.63	-19.86	-105.65
15.01	-20.86	-128.46	-15.79	-114.4	-15.8	-114.29	-19.94	-106.16
15.11	-20.92	-129.61	-15.79	-115.11	-15.8	-115.09	-19.99	-106.61
15.21	-21	-130.51	-15.8	-115.83	-15.8	-115.84	-20.05	-106.93
15.31	-21.1	-131.26	-15.83	-116.64	-15.81	-116.55	-20.08	-107.35
15.41	-21.15	-132.16	-15.84	-117.32	-15.83	-117.25	-20.15	-107.96
15.51	-21.2	-133.03	-15.85	-118.03	-15.83	-117.91	-20.19	-108.39
15.61	-21.22	-134.35	-15.86	-118.81	-15.85	-118.66	-20.23	-109.04
15.71	-21.26	-135.47	-15.85	-119.53	-15.86	-119.36	-20.31	-109.74
15.81	-21.3	-136.73	-15.86	-120.24	-15.87	-120.13	-20.37	-110.24
15.91	-21.34	-138	-15.87	-120.93	-15.87	-120.91	-20.44	-110.76
16.01	-21.45	-139.08	-15.89	-121.6	-15.88	-121.6	-20.5	-111.29
16.11	-21.52	-140.13	-15.9	-122.24	-15.88	-122.25	-20.55	-111.78
16.21	-21.59	-140.83	-15.91	-123.03	-15.88	-122.96	-20.59	-112.51
16.31	-21.57	-141.55	-15.91	-123.76	-15.89	-123.6	-20.68	-112.94
16.41	-21.57	-142.74	-15.91	-124.43	-15.9	-124.24	-20.72	-113.53
16.51	-21.58	-144.11	-15.91	-125.21	-15.9	-125.08	-20.78	-114.1
16.61	-21.64	-145.21	-15.91	-125.95	-15.9	-125.81	-20.83	-114.72
16.71	-21.66	-146.21	-15.92	-126.52	-15.91	-126.56	-20.9	-115.82
16.81	-21.72	-147.33	-15.93	-127.29	-15.9	-127.32	-21.07	-116.42
16.91	-21.79	-148.13	-15.96	-127.94	-15.9	-127.94	-21.25	-117.06
17.01	-21.74	-148.56	-15.95	-128.58	-15.91	-128.67	-21.39	-116.64
17.11	-21.72	-149.69	-15.97	-129.31	-15.91	-129.35	-21.49	-115.7
17.21	-21.67	-150.83	-15.96	-129.91	-15.92	-130.1	-21.19	-115.12
17.31	-21.71	-152.18	-15.95	-130.51	-15.94	-130.84	-21.06	-117.43
17.41	-21.73	-153.33	-15.91	-131.09	-15.93	-131.56	-21.16	-120.46
17.51	-21.77	-154.47	-15.88	-131.96	-15.91	-132.39	-21.64	-121.66
17.61	-21.88	-155.32	-15.87	-132.51	-15.91	-133.04	-21.95	-120.58
17.71	-21.91	-155.9	-15.85	-133.53	-15.89	-133.78	-21.91	-118.97
17.81	-21.91	-156.59	-15.86	-134.32	-15.89	-134.48	-21.73	-119.2
17.91	-21.9	-157.66	-15.85	-135.34	-15.89	-135.27	-21.7	-121.63
18.01	-21.89	-159.38	-15.86	-136.2	-15.9	-136.05	-21.94	-123.45
18.11	-22.01	-160.46	-15.86	-136.94	-15.9	-136.75	-22.28	-124.16
18.21	-21.99	-161.59	-15.86	-137.74	-15.9	-137.65	-22.52	-123.68
18.31	-21.99	-162.96	-15.84	-138.57	-15.88	-138.5	-22.7	-123.24
18.41	-22.02	-163.94	-15.86	-139.3	-15.89	-139.29	-22.62	-122.66
18.51	-21.98	-164.87	-15.87	-140.1	-15.88	-140.02	-22.7	-123.4
18.61	-21.98	-165.96	-15.9	-140.98	-15.89	-140.74	-22.68	-124.06
18.71	-21.91	-166.59	-15.88	-141.69	-15.88	-141.51	-22.79	-125.25
18.81	-21.84	-168.08	-15.86	-142.55	-15.88	-142.33	-22.94	-126.26
18.91	-21.85	-169.23	-15.86	-143.43	-15.87	-143.23	-23.22	-127.24
19.01	-21.81	-170.56	-15.85	-144.23	-15.88	-144.15	-23.44	-126.82
19.11	-21.79	-171.72	-15.87	-145.01	-15.89	-145	-23.55	-126.8
19.21	-21.78	-172.68	-15.89	-145.81	-15.88	-145.69	-23.58	-126.79
19.31	-21.72	-173.88	-15.87	-146.66	-15.86	-146.59	-23.68	-128.13
19.41	-21.68	-175.27	-15.89	-147.74	-15.89	-147.61	-23.95	-128.8
19.51	-21.63	-176.27	-15.92	-148.6	-15.91	-148.39	-24.2	-129.12
19.61	-21.64	-177.99	-15.93	-149.37	-15.95	-149.17	-24.35	-128.3
19.71	-21.64	-178.91	-15.92	-150.15	-15.94	-149.97	-24.41	-128.87
19.81	-21.64	-179.95	-15.91	-150.87	-15.92	-150.84	-24.58	-128.82
19.91	-21.63	179.02	-15.91	-151.88	-15.93	-151.83	-24.79	-129.23
20.01	-21.57	177.87	-15.96	-152.79	-15.94	-152.72	-25.07	-128.47