!s2p File: Measurements: S11, S21, S12, S22								
# GHz S dB R 50.0								
0.01	-14.16	-1.02	-7.71	-0.41	-7.71	-0.37	-22.82	-1.88
0.11	-14.5	-2.07	-7.84	-1.53	-7.83	-1.52	-23.72	-5.1
0.21	-14.59	-2.42	-7.87	-2.33	-7.87	-2.32	-24.04	-4.86
0.31	-14.63	-2.88	-7.88	-3.16	-7.88	-3.16	-24.14	-4.9
0.41	-14.64	-3.39	-7.89	-4.03	-7.89	-4.03	-24.19	-5.2
0.51	-14.65	-3.95	-7.9	-4.91	-7.89	-4.91	-24.22	-5.7
0.61	-14.66	-4.53	-7.9	-5.81	-7.9	-5.81	-24.25	-6.23
0.71	-14.65	-5.15	-7.9	-6.71	-7.9	-6.71	-24.25	-6.86
0.81	-14.66	-5.76	-7.91	-7.62	-7.9	-7.62	-24.26	-7.53
0.91	-14.66	-6.39	-7.91	-8.52	-7.91	-8.52	-24.27	-8.2
1.01	-14.66	-7.03	-7.92	-9.43	-7.91	-9.43	-24.28	-8.88
1.11	-14.66	-7.68	-7.92	-10.34	-7.91	-10.34	-24.29	-9.64
1.21	-14.67	-8.34	-7.92	-11.24	-7.92	-11.24	-24.29	-10.38
1.31	-14.67	-9.03	-7.92	-12.16	-7.92	-12.16	-24.3	-11.21
1.41	-14.67	-9.73	-7.93	-13.08	-7.92	-13.08	-24.33	-12.07
1.51	-14.67	-10.41	-7.93	-13.99	-7.93	-13.99	-24.34	-12.72
1.61	-14.67	-11.09	-7.94	-14.9	-7.93	-14.9	-24.35	-13.48
1.71	-14.66	-11.8	-7.94	-15.82	-7.94	-15.8	-24.36	-14.31
1.81	-14.66	-12.56	-7.94	-16.72	-7.94	-16.72	-24.36	-15.23
1.91	-14.66	-13.28	-7.95	-17.63	-7.95	-17.63	-24.38	-16.11
2.01	-14.67	-13.99	-7.96	-18.55	-7.95	-18.54	-24.41	-16.99
2.11	-14.67	-14.69	-7.96	-19.45	-7.96	-19.45	-24.43	-17.79
2.21	-14.67	-15.4	-7.96	-20.36	-7.96	-20.36	-24.46	-18.64
2.31	-14.67	-16.12	-7.97	-21.27	-7.97	-21.27	-24.49	-19.45
2.41	-14.67	-16.82	-7.97	-22.17	-7.97	-22.17	-24.51	-20.28
2.51	-14.68	-17.52	-7.98	-23.07	-7.98	-23.08	-24.53	-21.09
2.61	-14.69	-18.21	-7.99	-23.99	-7.98	-23.99	-24.57	-21.93
2.71	-14.69	-18.87	-7.99	-24.88	-7.99	-24.89	-24.6	-22.7
2.81	-14.7	-19.54	-8	-25.79	-7.99	-25.79	-24.64	-23.5
2.91	-14.7	-20.21	-8	-26.69	-8	-26.7	-24.68	-24.27
3.01	-14.71	-20.91	-8.01	-27.6	-8	-27.59	-24.7	-25.01
3.11	-14.71	-21.63	-8.01	-28.5	-8.01	-28.5	-24.74	-25.82
3.21	-14.72	-22.33	-8.02	-29.4	-8.02	-29.41	-24.77	-26.62
3.31	-14.73	-23.05	-8.02	-30.32	-8.02	-30.31	-24.82	-27.47
3.41	-14.74	-23.77	-8.03	-31.21	-8.03	-31.21	-24.86	-28.21
3.51	-14.74	-24.47	-8.04	-32.11	-8.03	-32.12	-24.9	-29
3.61	-14.75	-25.19	-8.04	-33	-8.04	-33.03	-24.94	-29.78
3.71	-14.76	-25.92	-8.05	-33.91	-8.05	-33.93	-24.98	-30.64
3.81	-14.77	-26.69	-8.06	-34.82	-8.05	-34.84	-25.02	-31.54
3.91	-14.78	-27.42	-8.06	-35.73	-8.06	-35.75	-25.08	-32.47
4.01	-14.8	-28.12	-8.07	-36.64	-8.07	-36.65	-25.14	-33.24
4.11	-14.8	-28.83	-8.07	-37.57	-8.07	-37.55	-25.2	-33.95
4.21	-14.81	-29.56	-8.08	-38.46	-8.08	-38.45	-25.24	-34.68
4.31	-14.81	-30.36	-8.09	-39.33	-8.09	-39.35	-25.27	-35.52
4.41	-14.83	-31.15	-8.09	-40.24	-8.1	-40.25	-25.31	-36.44
4.51	-14.84	-31.85	-8.11	-41.14	-8.11	-41.16	-25.37	-37.42
4.61	-14.86	-32.58	-8.11	-42.05	-8.11	-42.07	-25.43	-38.24
4.71	-14.86	-33.24	-8.12	-42.98	-8.12	-42.97	-25.52	-39.05
4.81	-14.86	-33.96	-8.13	-43.88	-8.13	-43.87	-25.58	-39.68
4.91	-14.86	-34.72	-8.14	-44.78	-8.14	-44.76	-25.63	-40.37
5.01	-14.87	-35.48	-8.14	-45.67	-8.15	-45.66	-25.68	-41
5.11	-14.88	-36.23	-8.15	-46.56	-8.15	-46.56	-25.71	-41.91
5.21	-14.9	-36.94	-8.16	-47.45	-8.16	-47.46	-25.78	-42.64
5.31	-14.92	-37.64	-8.17	-48.38	-8.17	-48.37	-25.85	-43.62
5.41	-14.93	-38.31	-8.18	-49.28	-8.18	-49.26	-25.93	-44.4
5.51	-14.94	-38.96	-8.19	-50.17	-8.19	-50.17	-26.03	-45.06
5.61	-14.95	-39.73	-8.2	-51.09	-8.2	-51.07	-26.1	-45.59
5.71	-14.96	-40.46	-8.2	-52	-8.21	-51.98	-26.15	-46.25
5.81	-14.98	-41.25	-8.21	-52.87	-8.22	-52.87	-26.2	-46.91
5.91	-15.01	-41.99	-8.23	-53.78	-8.23	-53.77	-26.25	-47.87
6.01	-15.03	-42.72	-8.23	-54.69	-8.24	-54.68	-26.32	-48.75
6.11	-15.04	-43.41	-8.25	-55.6	-8.25	-55.58	-26.39	-49.53
6.21	-15.05	-44.14	-8.26	-56.48	-8.26	-56.48	-26.48	-50.29
6.31	-15.05	-44.87	-8.27	-57.38	-8.27	-57.37	-26.54	-50.86
6.41	-15.06	-45.67	-8.28	-58.27	-8.28	-58.27	-26.63	-51.56
6.51	-15.07	-46.46	-8.29	-59.15	-8.29	-59.16	-26.7	-52.21
6.61	-15.09	-47.25	-8.3	-60.07	-8.3	-60.06	-26.77	-53.01
6.71	-15.11	-48.03	-8.31	-60.98	-8.31	-60.95	-26.83	-53.83
6.81	-15.11	-48.78	-8.33	-61.86	-8.33	-61.85	-26.92	-54.77
6.91	-15.12	-49.56	-8.34	-62.74	-8.34	-62.73	-27.01	-55.62
7.01	-15.13	-50.34	-8.35	-63.63	-8.35	-63.64	-27.11	-56.29
7.11	-15.14	-51.13	-8.36	-64.5	-8.37	-64.52	-27.19	-56.98
7.21	-15.15	-51.93	-8.37	-65.42	-8.38	-65.43	-27.26	-57.46
7.31	-15.16	-52.66	-8.39	-66.34	-8.39	-66.33	-27.28	-58.22
7.41	-15.17	-53.44	-8.4	-67.25	-8.4	-67.21	-27.3	-59.19
7.51	-15.18	-54.24	-8.42	-68.12	-8.42	-68.09	-27.39	-60.26
7.61	-15.19	-55	-8.43	-69.02	-8.43	-68.97	-27.5	-61.15
7.71	-15.2	-55.79	-8.44	-69.87	-8.45	-69.85	-27.59	-61.99
7.81	-15.2	-56.58	-8.45	-70.71	-8.46	-70.74	-27.68	-62.78
7.91	-15.22	-57.34	-8.47	-71.62	-8.48	-71.63	-27.76	-63.43
8.01	-15.24	-58.21	-8.49	-72.51	-8.49	-72.5	-27.83	-64.35
8.11	-15.26	-59.03	-8.5	-73.37	-8.51	-73.37	-27.92	-65.49
8.21	-15.28	-59.87	-8.52	-74.25	-8.52	-74.24	-27.97	-66.62
8.31	-15.3	-60.69	-8.53	-75.14	-8.54	-75.1	-28.06	-67.71
8.41	-15.31	-61.55	-8.54	-75.98	-8.55	-75.96	-28.15	-68.87
8.51	-15.33	-62.45	-8.56	-76.84	-8.57	-76.82	-28.26	-70.15
8.61	-15.33	-63.37	-8.58	-77.7	-8.59	-77.68	-28.36	-71.32
8.71	-15.35	-64.36	-8.59	-78.57	-8.6	-78.5	-28.47	-72.48
8.81	-15.37	-65.25	-8.61	-79.41	-8.61	-79.36	-28.57	-73.62
8.91	-15.4	-66.21	-8.63	-80.24	-8.63	-80.21	-28.67	-74.97
9.01	-15.42	-67.11	-8.64	-81.1	-8.64	-81.02	-28.8	-76.56
9.11	-15.45	-68.01	-8.65	-81.9	-8.66	-81.86	-28.95	-77.88
9.21	-15.47	-68.94	-8.66	-82.75	-8.67	-82.71	-29.13	-79.27
9.31	-15.5	-69.86	-8.68	-83.61	-8.68	-83.55	-29.28	-80.72
9.41	-15.52	-70.78	-8.68	-84.44	-8.69	-84.38	-29.43	-82.16
9.51	-15.54	-71.71	-8.7	-85.28	-8.7	-85.24	-29.63	-83.52
9.61	-15.57	-72.63	-8.71	-86.13	-8.71	-86.06	-29.83	-84.73
9.71	-15.6	-73.57	-8.72	-86.94	-8.73	-86.9	-30.03	-86.23
9.81	-15.63	-74.46	-8.73	-87.75	-8.74	-87.75	-30.25	-87.69
9.91	-15.66	-75.3	-8.74	-88.61	-8.74	-88.58	-30.48	-89.29
10.01	-15.68	-76.19	-8.74	-89.48	-8.75	-89.4	-30.69	-90.88
10.11	-15.71	-77.05	-8.76	-90.33	-8.76	-90.24	-30.98	-92.56
10.21	-15.74	-77.95	-8.77	-91.13	-8.77	-91.1	-31.28	-94.27
10.31	-15.78	-78.84	-8.77	-91.98	-8.78	-91.93	-31.55	-95.62
10.41	-15.81	-79.72	-8.78	-92.81	-8.79	-92.79	-31.9	-96.87
10.51	-15.86	-80.61	-8.8	-93.65	-8.8	-93.64	-32.21	-98.17
10.61	-15.91	-81.55	-8.8	-94.53	-8.8	-94.49	-32.52	-99.76
10.71	-15.95	-82.38	-8.8	-95.43	-8.81	-95.33	-32.8	-101.42
10.81	-15.99	-83.28	-8.81	-96.29	-8.82	-96.19	-33.18	-103.34
10.91	-16.02	-84.24	-8.82	-97.16	-8.83	-97.06	-33.53	-105.61
11.01	-16.08	-85.13	-8.82	-98.02	-8.84	-97.94	-34.03	-107.66
11.11	-16.11	-85.98	-8.83	-98.86	-8.85	-98.81	-34.42	-109.09
11.21	-16.15	-86.87	-8.85	-99.71	-8.85	-99.68	-34.87	-111.14
11.31	-16.18	-87.68	-8.86	-100.57	-8.86	-100.54	-35.28	-112.48
11.41	-16.21	-88.59	-8.86	-101.47	-8.87	-101.42	-35.64	-114.32
11.51	-16.24	-89.45	-8.88	-102.38	-8.88	-102.23	-36.11	-116.97
11.61	-16.27	-90.33	-8.88	-103.22	-8.88	-103.1	-36.53	-119.98
11.71	-16.3	-91.21	-8.88	-104.09	-8.9	-104.01	-37.01	-122.82
11.81	-16.34	-92.17	-8.89	-104.94	-8.91	-104.85	-37.67	-126.13
11.91	-16.38	-93	-8.91	-105.81	-8.91	-105.75	-38.43	-128.33
12.01	-16.41	-93.88	-8.92	-106.64	-8.93	-106.67	-38.92	-130.53
12.11	-16.43	-94.73	-8.93	-107.58	-8.93	-107.52	-39.47	-133.88
12.21	-16.44	-95.56	-8.95	-108.44	-8.94	-108.37	-40.1	-137.41
12.31	-16.47	-96.45	-8.95	-109.38	-8.96	-109.26	-40.59	-141.34
12.41	-16.49	-97.43	-8.95	-110.3	-8.97	-110.09	-40.99	-145.46
12.51	-16.53	-98.33	-8.97	-111.14	-8.98	-110.98	-41.52	-153.24
12.61	-16.56	-99.26	-8.98	-111.97	-8.99	-111.86	-42.17	-160.07
12.71	-16.61	-100.15	-8.98	-112.81	-9	-112.76	-42.88	-167.15
12.81	-16.66	-100.95	-9	-113.69	-9.01	-113.68	-43.84	-176.3
12.91	-16.71	-101.75	-9.02	-114.58	-9.02	-114.51	-44.41	176.79
13.01	-16.73	-102.65	-9.02	-115.51	-9.02	-115.41	-44.9	166.82
13.11	-16.78	-103.47	-9.04	-116.45	-9.04	-116.32	-44.86	159.62
13.21	-16.78	-104.32	-9.07	-117.31	-9.07	-117.11	-44.27	150.85
13.31	-16.82	-105.45	-9.06	-118.13	-9.07	-117.95	-43.7	139.92
13.41	-16.84	-106.51	-9.06	-119	-9.08	-118.9	-43.36	130.95
13.51	-16.89	-107.52	-9.08	-119.86	-9.1	-119.76	-42.72	127.26
13.61	-16.92	-108.43	-9.09	-120.68	-9.1	-120.65	-42.18	118.82
13.71	-16.95	-109.42	-9.1	-121.58	-9.1	-121.52	-41.38	112.91
13.81	-16.98	-110.32	-9.12	-122.52	-9.12	-122.44	-40.97	107.78
13.91	-17.01	-111.26	-9.14	-123.45	-9.14	-123.24	-40.38	105.52
14.01	-17.02	-112.22	-9.15	-124.35	-9.15	-124.15	-39.87	101.63
14.11	-17.05	-113.28	-9.15	-125.2	-9.17	-125.02	-39	100.19
14.21	-17.08	-114.37	-9.17	-126.11	-9.19	-125.89	-38.19	97.08
14.31	-17.14	-115.45	-9.18	-126.91	-9.2	-126.78	-37.66	92.86
14.41	-17.17	-116.18	-9.19	-127.76	-9.21	-127.68	-37.12	89.97
14.51	-17.21	-117.1	-9.21	-128.72	-9.22	-128.59	-36.67	87.2
14.61	-17.22	-117.92	-9.24	-129.62	-9.23	-129.45	-36.32	84.61
14.71	-17.23	-118.91	-9.25	-130.49	-9.25	-130.26	-36.06	82.66
14.81	-17.23	-119.77	-9.26	-131.42	-9.26	-131.15	-35.66	81.97
14.91	-17.22	-120.87	-9.28	-132.31	-9.28	-132.06	-35.22	80.85
15.01	-17.26	-121.94	-9.28	-133.13	-9.3	-132.9	-34.57	79.28
15.11	-17.31	-122.99	-9.29	-133.98	-9.31	-133.83	-34.27	77.01
15.21	-17.36	-123.75	-9.31	-134.84	-9.32	-134.73	-33.91	74.47
15.31	-17.39	-124.49	-9.34	-135.74	-9.33	-135.57	-33.64	73
15.41	-17.4	-125.41	-9.36	-136.61	-9.35	-136.43	-33.24	71.84
15.51	-17.4	-126.37	-9.38	-137.48	-9.37	-137.25	-33.01	70.16
15.61	-17.41	-127.71	-9.4	-138.4	-9.39	-138.16	-32.75	69.6
15.71	-17.45	-128.96	-9.4	-139.27	-9.41	-138.97	-32.39	69.3
15.81	-17.49	-130.06	-9.42	-140.11	-9.43	-139.86	-32.07	68.43
15.91	-17.52	-131.15	-9.43	-140.97	-9.44	-140.81	-31.79	67.13
16.01	-17.58	-132.1	-9.46	-141.79	-9.46	-141.66	-31.5	66.07
16.11	-17.6	-133.02	-9.48	-142.61	-9.47	-142.49	-31.26	65.02
16.21	-17.62	-133.93	-9.51	-143.51	-9.48	-143.35	-31.07	64.48
16.31	-17.6	-134.83	-9.52	-144.37	-9.51	-144.1	-30.77	63.51
16.41	-17.6	-136.09	-9.53	-145.18	-9.52	-144.88	-30.57	62.9
16.51	-17.62	-137.41	-9.55	-146.09	-9.54	-145.84	-30.39	62.3
16.61	-17.67	-138.5	-9.56	-146.96	-9.55	-146.7	-30.17	61.92
16.71	-17.68	-139.54	-9.58	-147.67	-9.57	-147.56	-29.97	62.53
16.81	-17.73	-140.39	-9.6	-148.55	-9.57	-148.45	-29.48	61.93
16.91	-17.74	-141.28	-9.63	-149.38	-9.59	-149.25	-29.05	61.41
17.01	-17.7	-142.06	-9.65	-150.1	-9.61	-150.04	-28.65	58.83
17.11	-17.67	-143.18	-9.68	-150.92	-9.62	-150.84	-28.4	55.4
17.21	-17.65	-144.58	-9.68	-151.65	-9.64	-151.69	-28.89	52.42
17.31	-17.69	-145.92	-9.68	-152.44	-9.66	-152.59	-29.13	55.51
17.41	-17.74	-147.16	-9.66	-153.17	-9.67	-153.43	-28.82	60.61
17.51	-17.79	-148.12	-9.65	-154.11	-9.67	-154.32	-27.75	60.48
17.61	-17.84	-148.89	-9.65	-154.82	-9.68	-155.15	-27.1	56.95
17.71	-17.86	-149.66	-9.65	-155.88	-9.69	-155.94	-27.02	52.09
17.81	-17.85	-150.53	-9.68	-156.75	-9.7	-156.76	-27.24	50.46
17.91	-17.85	-151.64	-9.68	-157.82	-9.72	-157.63	-27.28	52.44
18.01	-17.87	-153.2	-9.7	-158.77	-9.74	-158.51	-26.9	53.81
18.11	-17.95	-154.25	-9.71	-159.67	-9.75	-159.34	-26.33	53.42
18.21	-17.98	-155.42	-9.73	-160.47	-9.76	-160.25	-25.98	51.16
18.31	-18.01	-156.48	-9.72	-161.36	-9.76	-161.13	-25.71	49.41
18.41	-18.03	-157.45	-9.75	-162.2	-9.77	-162.04	-25.72	47.21
18.51	-18	-158.47	-9.77	-163.02	-9.78	-162.81	-25.61	46.83
18.61	-18	-159.39	-9.81	-163.96	-9.8	-163.64	-25.58	46.18
18.71	-17.94	-160.44	-9.81	-164.79	-9.81	-164.51	-25.44	46.31
18.81	-17.94	-161.97	-9.81	-165.73	-9.83	-165.41	-25.24	46.34
18.91	-17.99	-163.13	-9.83	-166.65	-9.83	-166.32	-24.89	46.18
19.01	-18.02	-164.3	-9.82	-167.48	-9.85	-167.26	-24.65	44.58
19.11	-18.03	-165.19	-9.84	-168.29	-9.85	-168.12	-24.51	43.56
19.21	-18.04	-166.09	-9.87	-169.2	-9.86	-168.96	-24.38	42.41
19.31	-18	-167.27	-9.88	-170.03	-9.87	-169.84	-24.28	42.22
19.41	-18	-168.35	-9.89	-171.01	-9.89	-170.77	-24.01	41.7
19.51	-17.98	-169.59	-9.93	-171.95	-9.91	-171.61	-23.8	40.75
19.61	-18.04	-171	-9.93	-172.83	-9.94	-172.51	-23.67	39.34
19.71	-18.07	-171.87	-9.94	-173.7	-9.94	-173.41	-23.59	38.87
19.81	-18.13	-172.87	-9.95	-174.5	-9.95	-174.3	-23.43	37.56
19.91	-18.14	-173.47	-9.95	-175.36	-9.96	-175.19	-23.28	37.11
20.01	-18.14	-174.37	-9.98	-176.25	-9.96	-176.05	-23.08	35.83