!s2p File: Measurements: S11, S21, S12, S22								
# GHz S dB R 50.0								
0.01	-15.53	-0.7	-15.73	-0.36	-15.71	-0.36	-24.26	-1.78
0.11	-15.78	-1.8	-15.85	-1.45	-15.85	-1.45	-25.17	-5.3
0.21	-15.85	-2.31	-15.89	-2.14	-15.88	-2.13	-25.51	-4.92
0.31	-15.88	-2.87	-15.9	-2.86	-15.9	-2.86	-25.62	-4.78
0.41	-15.9	-3.49	-15.91	-3.64	-15.91	-3.61	-25.67	-5
0.51	-15.9	-4.14	-15.91	-4.41	-15.91	-4.4	-25.71	-5.34
0.61	-15.91	-4.77	-15.92	-5.19	-15.91	-5.19	-25.73	-5.8
0.71	-15.91	-5.46	-15.92	-5.99	-15.92	-5.99	-25.74	-6.32
0.81	-15.91	-6.14	-15.93	-6.8	-15.92	-6.79	-25.75	-6.94
0.91	-15.92	-6.84	-15.93	-7.59	-15.92	-7.59	-25.76	-7.49
1.01	-15.92	-7.52	-15.93	-8.39	-15.93	-8.39	-25.78	-8.11
1.11	-15.93	-8.23	-15.93	-9.2	-15.93	-9.2	-25.78	-8.74
1.21	-15.93	-8.95	-15.94	-10	-15.93	-10	-25.79	-9.41
1.31	-15.94	-9.7	-15.94	-10.82	-15.94	-10.81	-25.79	-10.13
1.41	-15.94	-10.47	-15.95	-11.64	-15.94	-11.62	-25.82	-10.89
1.51	-15.95	-11.2	-15.95	-12.45	-15.94	-12.44	-25.85	-11.48
1.61	-15.95	-11.93	-15.95	-13.24	-15.95	-13.25	-25.84	-12.08
1.71	-15.95	-12.7	-15.96	-14.05	-15.95	-14.05	-25.85	-12.87
1.81	-15.95	-13.53	-15.96	-14.87	-15.96	-14.86	-25.85	-13.73
1.91	-15.95	-14.31	-15.96	-15.66	-15.96	-15.67	-25.87	-14.5
2.01	-15.96	-15.08	-15.97	-16.48	-15.97	-16.48	-25.9	-15.3
2.11	-15.97	-15.85	-15.97	-17.29	-15.97	-17.28	-25.92	-16.06
2.21	-15.97	-16.62	-15.98	-18.08	-15.97	-18.09	-25.94	-16.74
2.31	-15.98	-17.37	-15.98	-18.89	-15.98	-18.9	-25.96	-17.48
2.41	-15.99	-18.16	-15.99	-19.7	-15.98	-19.71	-25.99	-18.23
2.51	-16	-18.88	-15.99	-20.49	-15.99	-20.5	-26.02	-18.96
2.61	-16.01	-19.62	-16	-21.3	-15.99	-21.31	-26.05	-19.71
2.71	-16.02	-20.35	-16	-22.11	-16	-22.11	-26.08	-20.42
2.81	-16.04	-21.06	-16.01	-22.91	-16	-22.91	-26.13	-21.11
2.91	-16.05	-21.79	-16.01	-23.71	-16.01	-23.71	-26.16	-21.77
3.01	-16.06	-22.53	-16.02	-24.52	-16.01	-24.51	-26.18	-22.4
3.11	-16.08	-23.3	-16.02	-25.32	-16.02	-25.31	-26.21	-23.14
3.21	-16.09	-24.07	-16.03	-26.11	-16.02	-26.13	-26.25	-23.83
3.31	-16.11	-24.83	-16.03	-26.92	-16.03	-26.92	-26.29	-24.56
3.41	-16.13	-25.58	-16.03	-27.72	-16.03	-27.73	-26.34	-25.23
3.51	-16.14	-26.34	-16.04	-28.52	-16.04	-28.54	-26.38	-25.86
3.61	-16.15	-27.12	-16.05	-29.32	-16.04	-29.33	-26.42	-26.58
3.71	-16.17	-27.93	-16.05	-30.12	-16.05	-30.15	-26.45	-27.35
3.81	-16.19	-28.75	-16.06	-30.93	-16.06	-30.95	-26.49	-28.2
3.91	-16.22	-29.52	-16.07	-31.73	-16.07	-31.76	-26.56	-29.04
4.01	-16.24	-30.27	-16.07	-32.55	-16.07	-32.56	-26.62	-29.7
4.11	-16.25	-31.03	-16.07	-33.37	-16.08	-33.36	-26.68	-30.34
4.21	-16.26	-31.82	-16.08	-34.17	-16.08	-34.16	-26.71	-30.89
4.31	-16.28	-32.68	-16.09	-34.95	-16.09	-34.96	-26.73	-31.66
4.41	-16.31	-33.53	-16.1	-35.75	-16.1	-35.76	-26.77	-32.48
4.51	-16.34	-34.31	-16.11	-36.54	-16.11	-36.56	-26.82	-33.39
4.61	-16.36	-35.04	-16.11	-37.36	-16.11	-37.37	-26.89	-34.2
4.71	-16.38	-35.75	-16.12	-38.18	-16.12	-38.18	-26.98	-34.86
4.81	-16.39	-36.51	-16.13	-39	-16.13	-38.97	-27.05	-35.41
4.91	-16.4	-37.33	-16.13	-39.79	-16.13	-39.78	-27.09	-35.91
5.01	-16.42	-38.15	-16.14	-40.59	-16.14	-40.57	-27.13	-36.51
5.11	-16.44	-38.98	-16.15	-41.37	-16.15	-41.37	-27.16	-37.33
5.21	-16.48	-39.74	-16.16	-42.18	-16.16	-42.17	-27.22	-38.05
5.31	-16.51	-40.48	-16.17	-42.98	-16.17	-42.98	-27.3	-38.98
5.41	-16.54	-41.15	-16.18	-43.78	-16.18	-43.77	-27.39	-39.66
5.51	-16.56	-41.88	-16.18	-44.58	-16.18	-44.58	-27.5	-40.15
5.61	-16.58	-42.65	-16.19	-45.4	-16.19	-45.4	-27.56	-40.53
5.71	-16.61	-43.47	-16.2	-46.21	-16.2	-46.19	-27.61	-41.12
5.81	-16.64	-44.31	-16.21	-46.99	-16.21	-46.98	-27.65	-41.67
5.91	-16.69	-45.1	-16.22	-47.8	-16.22	-47.79	-27.7	-42.56
6.01	-16.72	-45.89	-16.23	-48.61	-16.23	-48.59	-27.76	-43.38
6.11	-16.76	-46.6	-16.24	-49.41	-16.24	-49.4	-27.85	-44.14
6.21	-16.78	-47.35	-16.26	-50.19	-16.25	-50.2	-27.94	-44.7
6.31	-16.81	-48.13	-16.26	-50.99	-16.26	-50.99	-28.02	-45.15
6.41	-16.83	-48.93	-16.28	-51.77	-16.28	-51.79	-28.11	-45.69
6.51	-16.85	-49.79	-16.29	-52.56	-16.29	-52.57	-28.15	-46.16
6.61	-16.89	-50.64	-16.3	-53.37	-16.3	-53.37	-28.22	-46.91
6.71	-16.93	-51.46	-16.31	-54.16	-16.31	-54.17	-28.3	-47.66
6.81	-16.96	-52.24	-16.32	-54.96	-16.32	-54.94	-28.39	-48.45
6.91	-16.99	-53.02	-16.33	-55.75	-16.34	-55.73	-28.5	-49.22
7.01	-17.01	-53.81	-16.34	-56.53	-16.35	-56.52	-28.6	-49.7
7.11	-17.04	-54.62	-16.36	-57.3	-16.36	-57.32	-28.68	-50.2
7.21	-17.07	-55.45	-16.37	-58.09	-16.37	-58.11	-28.74	-50.57
7.31	-17.1	-56.23	-16.38	-58.94	-16.38	-58.93	-28.76	-51.27
7.41	-17.13	-57	-16.4	-59.75	-16.4	-59.73	-28.78	-52.11
7.51	-17.16	-57.84	-16.42	-60.5	-16.42	-60.48	-28.86	-53.09
7.61	-17.19	-58.59	-16.43	-61.29	-16.43	-61.23	-28.98	-53.79
7.71	-17.22	-59.37	-16.44	-62.04	-16.45	-62.01	-29.09	-54.47
7.81	-17.25	-60.16	-16.46	-62.75	-16.46	-62.79	-29.19	-55.11
7.91	-17.29	-60.91	-16.48	-63.57	-16.48	-63.58	-29.28	-55.64
8.01	-17.33	-61.77	-16.49	-64.35	-16.49	-64.34	-29.35	-56.33
8.11	-17.37	-62.6	-16.51	-65.08	-16.51	-65.09	-29.43	-57.34
8.21	-17.42	-63.41	-16.52	-65.85	-16.53	-65.85	-29.52	-58.37
8.31	-17.47	-64.23	-16.54	-66.64	-16.54	-66.61	-29.61	-59.31
8.41	-17.5	-65.05	-16.55	-67.36	-16.56	-67.35	-29.73	-60.26
8.51	-17.53	-65.92	-16.57	-68.11	-16.58	-68.08	-29.84	-61.3
8.61	-17.56	-66.84	-16.59	-68.83	-16.6	-68.81	-29.95	-62.21
8.71	-17.59	-67.79	-16.6	-69.57	-16.61	-69.5	-30.06	-63.13
8.81	-17.63	-68.71	-16.63	-70.28	-16.62	-70.25	-30.15	-64.1
8.91	-17.68	-69.63	-16.64	-70.99	-16.64	-70.98	-30.27	-65.29
9.01	-17.72	-70.49	-16.65	-71.73	-16.66	-71.66	-30.42	-66.61
9.11	-17.76	-71.43	-16.66	-72.42	-16.67	-72.38	-30.57	-67.59
9.21	-17.81	-72.31	-16.68	-73.12	-16.68	-73.1	-30.75	-68.71
9.31	-17.85	-73.2	-16.69	-73.84	-16.69	-73.79	-30.92	-70
9.41	-17.88	-74.12	-16.69	-74.54	-16.7	-74.49	-31.09	-71.08
9.51	-17.91	-75	-16.71	-75.26	-16.71	-75.22	-31.28	-72.25
9.61	-17.97	-75.94	-16.72	-75.96	-16.72	-75.91	-31.47	-73.16
9.71	-18.01	-76.87	-16.73	-76.66	-16.73	-76.62	-31.7	-74.26
9.81	-18.05	-77.75	-16.73	-77.33	-16.74	-77.32	-31.91	-75.49
9.91	-18.09	-78.58	-16.74	-78.08	-16.74	-78.04	-32.17	-76.71
10.01	-18.13	-79.42	-16.74	-78.8	-16.75	-78.73	-32.41	-78.09
10.11	-18.18	-80.26	-16.75	-79.51	-16.76	-79.44	-32.71	-79.32
10.21	-18.22	-81.12	-16.76	-80.18	-16.76	-80.16	-33.03	-80.64
10.31	-18.28	-82	-16.76	-80.88	-16.77	-80.84	-33.35	-81.68
10.41	-18.32	-82.94	-16.77	-81.6	-16.77	-81.58	-33.71	-82.29
10.51	-18.39	-83.83	-16.78	-82.29	-16.77	-82.3	-34.04	-83.11
10.61	-18.46	-84.84	-16.77	-83.04	-16.77	-83.03	-34.35	-84.13
10.71	-18.52	-85.69	-16.77	-83.83	-16.78	-83.74	-34.68	-85.59
10.81	-18.58	-86.56	-16.77	-84.57	-16.78	-84.5	-35.13	-86.83
10.91	-18.64	-87.56	-16.78	-85.32	-16.78	-85.25	-35.58	-88.4
11.01	-18.7	-88.4	-16.78	-86.04	-16.79	-85.97	-36.18	-89.57
11.11	-18.74	-89.3	-16.78	-86.75	-16.8	-86.76	-36.64	-90.44
11.21	-18.79	-90.3	-16.79	-87.52	-16.79	-87.49	-37.12	-91.47
11.31	-18.85	-91.1	-16.8	-88.25	-16.8	-88.25	-37.61	-91.76
11.41	-18.91	-92.12	-16.8	-89.03	-16.8	-88.99	-38	-93.3
11.51	-18.95	-92.94	-16.81	-89.82	-16.8	-89.7	-38.6	-94.75
11.61	-19	-93.8	-16.81	-90.54	-16.8	-90.43	-39.24	-97.03
11.71	-19.05	-94.74	-16.8	-91.28	-16.82	-91.25	-39.92	-98.96
11.81	-19.1	-95.71	-16.8	-92.02	-16.82	-91.96	-40.9	-101.27
11.91	-19.17	-96.62	-16.82	-92.77	-16.82	-92.75	-41.87	-100.24
12.01	-19.2	-97.59	-16.82	-93.52	-16.82	-93.56	-42.52	-101.65
12.11	-19.25	-98.47	-16.83	-94.37	-16.83	-94.34	-43.46	-102.99
12.21	-19.29	-99.37	-16.85	-95.09	-16.83	-95.06	-44.44	-103.51
12.31	-19.34	-100.19	-16.84	-95.88	-16.84	-95.81	-45.44	-106.89
12.41	-19.39	-101.15	-16.84	-96.7	-16.85	-96.55	-46.32	-109.48
12.51	-19.45	-102.09	-16.85	-97.44	-16.86	-97.32	-47.97	-118.23
12.61	-19.48	-102.95	-16.85	-98.13	-16.87	-98.08	-50.2	-125.94
12.71	-19.56	-103.96	-16.85	-98.88	-16.87	-98.86	-53.08	-138.13
12.81	-19.63	-104.89	-16.87	-99.65	-16.87	-99.68	-58.86	-154.71
12.91	-19.72	-105.7	-16.87	-100.42	-16.87	-100.38	-61.97	174.3
13.01	-19.77	-106.68	-16.88	-101.25	-16.88	-101.18	-60.62	107.06
13.11	-19.86	-107.44	-16.89	-102.07	-16.89	-102.01	-57.11	101.53
13.21	-19.89	-108.24	-16.92	-102.81	-16.92	-102.62	-53.91	96.02
13.31	-19.94	-109.43	-16.9	-103.46	-16.91	-103.34	-49.92	94.2
13.41	-19.98	-110.46	-16.9	-104.18	-16.92	-104.15	-47.9	86.01
13.51	-20.05	-111.62	-16.9	-104.97	-16.92	-104.9	-46.74	87.45
13.61	-20.1	-112.61	-16.91	-105.69	-16.92	-105.71	-45.19	81.69
13.71	-20.17	-113.62	-16.91	-106.47	-16.91	-106.45	-43.92	80.77
13.81	-20.2	-114.56	-16.93	-107.29	-16.93	-107.24	-43.02	78.45
13.91	-20.27	-115.51	-16.94	-108.12	-16.93	-107.95	-42.36	78.67
14.01	-20.29	-116.48	-16.94	-108.91	-16.94	-108.77	-41.61	77.29
14.11	-20.34	-117.53	-16.94	-109.65	-16.96	-109.53	-40.64	78.99
14.21	-20.38	-118.63	-16.95	-110.41	-16.97	-110.24	-39.64	77.79
14.31	-20.46	-119.84	-16.95	-111.06	-16.96	-110.99	-39.01	75.54
14.41	-20.51	-120.64	-16.95	-111.85	-16.96	-111.83	-38.25	74.34
14.51	-20.58	-121.81	-16.97	-112.73	-16.97	-112.65	-37.77	72.26
14.61	-20.62	-122.58	-16.99	-113.52	-16.97	-113.4	-37.4	70.73
14.71	-20.65	-123.52	-16.99	-114.27	-16.98	-114.09	-37.14	70.02
14.81	-20.68	-124.34	-16.99	-115.12	-16.99	-114.89	-36.75	70.25
14.91	-20.67	-125.34	-17.01	-115.91	-17.01	-115.71	-36.23	70.2
15.01	-20.75	-126.48	-17.01	-116.58	-17.02	-116.4	-35.56	69.36
15.11	-20.8	-127.65	-17.01	-117.3	-17.03	-117.23	-35.23	68.1
15.21	-20.88	-128.47	-17.02	-118.06	-17.02	-118.02	-34.77	66.19
15.31	-20.97	-129.3	-17.05	-118.89	-17.03	-118.76	-34.53	65.05
15.41	-21.01	-130.11	-17.07	-119.61	-17.05	-119.51	-34.13	64.81
15.51	-21.05	-131.01	-17.07	-120.35	-17.05	-120.17	-33.87	63.58
15.61	-21.07	-132.3	-17.08	-121.14	-17.07	-120.94	-33.65	63.52
15.71	-21.11	-133.5	-17.07	-121.92	-17.08	-121.68	-33.25	63.91
15.81	-21.15	-134.76	-17.09	-122.65	-17.09	-122.47	-32.9	63.35
15.91	-21.19	-136	-17.09	-123.39	-17.1	-123.3	-32.59	62.44
16.01	-21.3	-137.07	-17.11	-124.07	-17.11	-123.99	-32.35	61.7
16.11	-21.37	-138.05	-17.12	-124.73	-17.11	-124.67	-32.11	60.95
16.21	-21.43	-138.76	-17.13	-125.51	-17.1	-125.4	-31.96	61.02
16.31	-21.4	-139.5	-17.14	-126.27	-17.12	-126.07	-31.65	60.64
16.41	-21.4	-140.67	-17.13	-126.97	-17.12	-126.73	-31.44	60.44
16.51	-21.42	-142.06	-17.14	-127.78	-17.13	-127.59	-31.25	60.02
16.61	-21.47	-143.2	-17.14	-128.56	-17.13	-128.35	-31.04	59.98
16.71	-21.5	-144.18	-17.15	-129.14	-17.13	-129.1	-30.83	61.39
16.81	-21.55	-145.25	-17.16	-129.93	-17.13	-129.89	-30.3	61.2
16.91	-21.61	-146.01	-17.18	-130.6	-17.13	-130.54	-29.85	60.95
17.01	-21.55	-146.5	-17.17	-131.26	-17.13	-131.28	-29.42	58.6
17.11	-21.52	-147.62	-17.19	-132.01	-17.13	-131.99	-29.16	55.07
17.21	-21.48	-148.81	-17.18	-132.64	-17.14	-132.76	-29.77	51.75
17.31	-21.52	-150.17	-17.18	-133.27	-17.16	-133.52	-30.09	55.82
17.41	-21.55	-151.35	-17.13	-133.84	-17.15	-134.24	-29.74	62.45
17.51	-21.59	-152.44	-17.11	-134.76	-17.13	-135.12	-28.45	62.67
17.61	-21.69	-153.27	-17.09	-135.34	-17.13	-135.8	-27.72	58.8
17.71	-21.72	-153.83	-17.07	-136.35	-17.11	-136.5	-27.68	53.62
17.81	-21.71	-154.57	-17.08	-137.18	-17.1	-137.25	-27.96	52.02
17.91	-21.7	-155.64	-17.06	-138.23	-17.1	-138.1	-28.05	54.71
18.01	-21.7	-157.37	-17.07	-139.11	-17.11	-138.88	-27.61	56.8
18.11	-21.81	-158.37	-17.07	-139.9	-17.12	-139.63	-26.94	56.45
18.21	-21.78	-159.57	-17.07	-140.68	-17.1	-140.53	-26.57	54.15
18.31	-21.8	-160.88	-17.05	-141.53	-17.09	-141.42	-26.25	52.41
18.41	-21.82	-161.84	-17.07	-142.28	-17.09	-142.21	-26.33	50.02
18.51	-21.77	-162.78	-17.07	-143.12	-17.08	-142.97	-26.2	50.14
18.61	-21.77	-163.87	-17.1	-144.02	-17.09	-143.72	-26.19	49.83
18.71	-21.68	-164.52	-17.08	-144.75	-17.08	-144.52	-26.02	50.26
18.81	-21.62	-166.04	-17.05	-145.59	-17.08	-145.33	-25.8	50.5
18.91	-21.63	-167.19	-17.06	-146.53	-17.06	-146.26	-25.42	50.64
19.01	-21.61	-168.52	-17.04	-147.36	-17.07	-147.23	-25.12	49.04
19.11	-21.58	-169.64	-17.05	-148.19	-17.07	-148.13	-24.95	48.15
19.21	-21.57	-170.6	-17.07	-149	-17.06	-148.82	-24.86	46.94
19.31	-21.5	-171.83	-17.04	-149.86	-17.04	-149.75	-24.77	47.37
19.41	-21.47	-173.18	-17.07	-151	-17.06	-150.81	-24.44	47.11
19.51	-21.41	-174.18	-17.09	-151.86	-17.07	-151.58	-24.19	46.47
19.61	-21.42	-175.88	-17.09	-152.7	-17.1	-152.44	-24.02	44.83
19.71	-21.42	-176.88	-17.08	-153.51	-17.1	-153.29	-23.95	44.54
19.81	-21.42	-177.89	-17.06	-154.25	-17.06	-154.14	-23.77	43.67
19.91	-21.4	-178.88	-17.05	-155.31	-17.07	-155.19	-23.55	43.28
20.01	-21.34	179.95	-17.09	-156.31	-17.07	-156.18	-23.3	42.12