!s2p File: Measurements: S11, S21, S12, S22								
# GHz S dB R 50.0								
0.01	-25.29	-0.21	-20.58	-0.34	-20.56	-0.36	-21.85	-1.82
0.11	-25.51	-1.56	-20.69	-1.38	-20.69	-1.35	-22.7	-4.27
0.21	-25.57	-1.9	-20.73	-1.98	-20.73	-1.98	-22.94	-4.08
0.31	-25.58	-2.37	-20.74	-2.67	-20.74	-2.64	-23.02	-4.17
0.41	-25.59	-2.9	-20.75	-3.36	-20.75	-3.36	-23.07	-4.5
0.51	-25.58	-3.44	-20.75	-4.08	-20.75	-4.08	-23.1	-4.96
0.61	-25.58	-3.97	-20.76	-4.83	-20.75	-4.81	-23.11	-5.5
0.71	-25.58	-4.58	-20.76	-5.59	-20.76	-5.56	-23.13	-6.1
0.81	-25.58	-5.14	-20.76	-6.33	-20.76	-6.32	-23.15	-6.72
0.91	-25.59	-5.75	-20.77	-7.07	-20.76	-7.06	-23.17	-7.36
1.01	-25.6	-6.34	-20.77	-7.82	-20.77	-7.82	-23.18	-7.98
1.11	-25.61	-6.97	-20.78	-8.57	-20.77	-8.56	-23.2	-8.64
1.21	-25.62	-7.64	-20.78	-9.33	-20.78	-9.31	-23.21	-9.29
1.31	-25.62	-8.37	-20.79	-10.08	-20.78	-10.08	-23.23	-10.02
1.41	-25.64	-9.14	-20.79	-10.84	-20.79	-10.83	-23.26	-10.78
1.51	-25.66	-9.81	-20.8	-11.59	-20.79	-11.58	-23.29	-11.39
1.61	-25.65	-10.44	-20.8	-12.34	-20.8	-12.34	-23.31	-12
1.71	-25.64	-11.26	-20.81	-13.09	-20.81	-13.07	-23.32	-12.75
1.81	-25.64	-12.19	-20.81	-13.85	-20.81	-13.83	-23.34	-13.56
1.91	-25.66	-13	-20.82	-14.58	-20.82	-14.58	-23.38	-14.34
2.01	-25.67	-13.75	-20.83	-15.35	-20.83	-15.35	-23.42	-15.07
2.11	-25.68	-14.47	-20.84	-16.11	-20.83	-16.09	-23.45	-15.78
2.21	-25.69	-15.26	-20.84	-16.85	-20.84	-16.85	-23.49	-16.46
2.31	-25.71	-15.99	-20.85	-17.6	-20.85	-17.58	-23.53	-17.13
2.41	-25.72	-16.81	-20.86	-18.33	-20.86	-18.33	-23.57	-17.84
2.51	-25.75	-17.51	-20.87	-19.08	-20.87	-19.07	-23.61	-18.53
2.61	-25.78	-18.16	-20.88	-19.82	-20.87	-19.81	-23.67	-19.2
2.71	-25.82	-18.74	-20.89	-20.58	-20.88	-20.56	-23.71	-19.84
2.81	-25.85	-19.3	-20.9	-21.32	-20.89	-21.29	-23.77	-20.51
2.91	-25.87	-19.93	-20.91	-22.05	-20.9	-22.04	-23.83	-21.09
3.01	-25.89	-20.67	-20.92	-22.79	-20.91	-22.77	-23.87	-21.66
3.11	-25.92	-21.4	-20.92	-23.53	-20.92	-23.52	-23.93	-22.31
3.21	-25.97	-22.17	-20.93	-24.27	-20.93	-24.25	-23.98	-22.9
3.31	-26.01	-22.91	-20.94	-25	-20.94	-24.98	-24.05	-23.53
3.41	-26.06	-23.64	-20.95	-25.73	-20.95	-25.73	-24.11	-24.07
3.51	-26.08	-24.34	-20.97	-26.46	-20.96	-26.47	-24.17	-24.63
3.61	-26.11	-25.13	-20.98	-27.19	-20.97	-27.21	-24.23	-25.2
3.71	-26.16	-26.03	-20.99	-27.94	-20.98	-27.96	-24.3	-25.81
3.81	-26.22	-26.94	-21	-28.66	-21	-28.68	-24.36	-26.46
3.91	-26.29	-27.7	-21.01	-29.4	-21.01	-29.41	-24.44	-27.1
4.01	-26.35	-28.33	-21.02	-30.13	-21.02	-30.14	-24.53	-27.6
4.11	-26.36	-29.1	-21.03	-30.89	-21.03	-30.87	-24.61	-28.06
4.21	-26.4	-29.91	-21.04	-31.61	-21.04	-31.59	-24.66	-28.43
4.31	-26.44	-30.94	-21.06	-32.32	-21.06	-32.3	-24.73	-28.97
4.41	-26.51	-31.99	-21.07	-33.05	-21.07	-33.02	-24.79	-29.59
4.51	-26.58	-32.76	-21.09	-33.75	-21.09	-33.77	-24.87	-30.22
4.61	-26.66	-33.38	-21.1	-34.49	-21.1	-34.5	-24.97	-30.73
4.71	-26.68	-33.93	-21.11	-35.24	-21.11	-35.22	-25.07	-31.13
4.81	-26.69	-34.66	-21.13	-35.97	-21.12	-35.96	-25.16	-31.39
4.91	-26.7	-35.65	-21.14	-36.69	-21.14	-36.64	-25.22	-31.67
5.01	-26.74	-36.65	-21.15	-37.41	-21.15	-37.37	-25.29	-31.96
5.11	-26.81	-37.62	-21.17	-38.11	-21.16	-38.08	-25.35	-32.44
5.21	-26.92	-38.42	-21.18	-38.82	-21.18	-38.8	-25.44	-32.84
5.31	-27	-39.05	-21.2	-39.54	-21.2	-39.52	-25.54	-33.31
5.41	-27.07	-39.52	-21.22	-40.27	-21.21	-40.24	-25.66	-33.61
5.51	-27.12	-40.12	-21.23	-41	-21.22	-40.97	-25.77	-33.71
5.61	-27.18	-40.99	-21.25	-41.71	-21.25	-41.69	-25.85	-33.71
5.71	-27.26	-41.98	-21.26	-42.43	-21.26	-42.38	-25.92	-33.9
5.81	-27.36	-43.05	-21.28	-43.08	-21.28	-43.09	-25.99	-34.06
5.91	-27.47	-43.89	-21.3	-43.84	-21.3	-43.81	-26.05	-34.43
6.01	-27.59	-44.69	-21.31	-44.53	-21.31	-44.52	-26.14	-34.75
6.11	-27.69	-45.34	-21.33	-45.26	-21.33	-45.24	-26.24	-34.91
6.21	-27.74	-46.06	-21.35	-45.93	-21.35	-45.95	-26.34	-35.02
6.31	-27.8	-46.95	-21.37	-46.65	-21.37	-46.62	-26.41	-34.97
6.41	-27.86	-47.91	-21.39	-47.33	-21.39	-47.34	-26.5	-34.96
6.51	-27.93	-49.03	-21.41	-48	-21.41	-47.99	-26.55	-34.93
6.61	-28.05	-50.08	-21.43	-48.73	-21.43	-48.7	-26.64	-35.09
6.71	-28.15	-51.08	-21.45	-49.41	-21.45	-49.39	-26.72	-35.19
6.81	-28.26	-51.92	-21.47	-50.09	-21.47	-50.06	-26.8	-35.26
6.91	-28.32	-52.81	-21.49	-50.77	-21.49	-50.73	-26.91	-35.41
7.01	-28.38	-53.69	-21.51	-51.45	-21.51	-51.41	-26.99	-35.25
7.11	-28.45	-54.69	-21.53	-52.09	-21.53	-52.11	-27.06	-35.11
7.21	-28.53	-55.71	-21.55	-52.79	-21.55	-52.79	-27.1	-34.88
7.31	-28.62	-56.68	-21.58	-53.55	-21.57	-53.52	-27.11	-34.93
7.41	-28.71	-57.54	-21.61	-54.22	-21.61	-54.19	-27.14	-35.11
7.51	-28.79	-58.45	-21.64	-54.83	-21.63	-54.81	-27.2	-35.35
7.61	-28.88	-59.24	-21.66	-55.5	-21.65	-55.44	-27.29	-35.27
7.71	-28.95	-60.1	-21.68	-56.11	-21.68	-56.08	-27.36	-35.13
7.81	-29.04	-60.98	-21.7	-56.72	-21.71	-56.73	-27.42	-34.98
7.91	-29.17	-61.82	-21.73	-57.36	-21.73	-57.37	-27.47	-34.8
8.01	-29.31	-62.96	-21.76	-58.01	-21.76	-58.01	-27.5	-34.8
8.11	-29.44	-64	-21.79	-58.61	-21.78	-58.6	-27.57	-34.95
8.21	-29.59	-65.12	-21.81	-59.23	-21.81	-59.23	-27.63	-35.14
8.31	-29.75	-66.09	-21.84	-59.87	-21.83	-59.83	-27.69	-35.21
8.41	-29.83	-67.15	-21.86	-60.45	-21.86	-60.42	-27.76	-35.21
8.51	-29.93	-68.44	-21.89	-61.02	-21.9	-60.98	-27.83	-35.25
8.61	-29.99	-69.9	-21.92	-61.54	-21.93	-61.55	-27.88	-35.28
8.71	-30.08	-71.47	-21.94	-62.12	-21.95	-62.04	-27.95	-35.29
8.81	-30.18	-73	-21.97	-62.66	-21.96	-62.6	-28	-35.27
8.91	-30.31	-74.58	-21.99	-63.21	-21.98	-63.16	-28.08	-35.45
9.01	-30.46	-75.94	-22.01	-63.77	-22.01	-63.68	-28.18	-35.59
9.11	-30.6	-77.46	-22.03	-64.24	-22.03	-64.2	-28.26	-35.46
9.21	-30.7	-78.79	-22.05	-64.76	-22.05	-64.7	-28.38	-35.27
9.31	-30.81	-80.26	-22.06	-65.25	-22.06	-65.22	-28.47	-35.22
9.41	-30.89	-81.77	-22.08	-65.77	-22.07	-65.74	-28.56	-35.02
9.51	-30.94	-83.26	-22.1	-66.31	-22.09	-66.25	-28.66	-34.75
9.61	-31.08	-85.08	-22.11	-66.8	-22.1	-66.74	-28.74	-34.24
9.71	-31.17	-86.75	-22.12	-67.28	-22.11	-67.25	-28.83	-33.83
9.81	-31.3	-88.26	-22.12	-67.79	-22.12	-67.75	-28.92	-33.55
9.91	-31.4	-89.5	-22.13	-68.34	-22.12	-68.28	-29.02	-32.92
10.01	-31.51	-90.74	-22.13	-68.87	-22.13	-68.78	-29.12	-32.46
10.11	-31.58	-92.13	-22.15	-69.37	-22.14	-69.27	-29.22	-31.83
10.21	-31.68	-93.75	-22.15	-69.8	-22.14	-69.77	-29.35	-30.95
10.31	-31.8	-95.42	-22.14	-70.33	-22.15	-70.29	-29.4	-30.02
10.41	-31.93	-97.37	-22.14	-70.89	-22.15	-70.84	-29.44	-28.88
10.51	-32.12	-99.33	-22.15	-71.37	-22.14	-71.35	-29.46	-27.9
10.61	-32.27	-101.58	-22.15	-71.9	-22.14	-71.9	-29.48	-26.96
10.71	-32.46	-103.48	-22.14	-72.5	-22.14	-72.44	-29.5	-26.25
10.81	-32.61	-105.35	-22.14	-73.11	-22.14	-73.01	-29.56	-25.2
10.91	-32.7	-107.75	-22.14	-73.69	-22.14	-73.56	-29.59	-24.27
11.01	-32.83	-109.91	-22.14	-74.22	-22.15	-74.12	-29.62	-22.77
11.11	-32.91	-111.99	-22.14	-74.74	-22.14	-74.72	-29.58	-21.67
11.21	-33	-114.47	-22.15	-75.32	-22.14	-75.34	-29.53	-20.71
11.31	-33.15	-116.08	-22.16	-75.85	-22.14	-75.88	-29.44	-19.77
11.41	-33.2	-118.67	-22.15	-76.43	-22.14	-76.41	-29.37	-19.29
11.51	-33.25	-120.26	-22.15	-77.03	-22.14	-76.93	-29.33	-18.32
11.61	-33.3	-122.17	-22.14	-77.57	-22.12	-77.49	-29.29	-17.55
11.71	-33.29	-124.57	-22.13	-78.13	-22.15	-78.11	-29.25	-16.85
11.81	-33.34	-127.44	-22.13	-78.72	-22.14	-78.64	-29.18	-15.54
11.91	-33.47	-130.02	-22.14	-79.29	-22.13	-79.26	-29.02	-14.53
12.01	-33.45	-132.16	-22.13	-79.87	-22.12	-79.9	-28.88	-14.23
12.11	-33.41	-133.91	-22.14	-80.55	-22.13	-80.56	-28.76	-13.58
12.21	-33.42	-136.08	-22.16	-81.01	-22.13	-81.02	-28.63	-13.4
12.31	-33.43	-137.94	-22.15	-81.64	-22.13	-81.54	-28.55	-13.15
12.41	-33.37	-140.39	-22.12	-82.32	-22.13	-82.11	-28.45	-13.09
12.51	-33.38	-143.01	-22.13	-82.82	-22.13	-82.72	-28.41	-12.38
12.61	-33.36	-145.14	-22.12	-83.37	-22.12	-83.3	-28.31	-11.57
12.71	-33.4	-148.22	-22.11	-83.96	-22.12	-83.92	-28.18	-10.94
12.81	-33.48	-151.03	-22.13	-84.49	-22.13	-84.53	-27.94	-10.35
12.91	-33.65	-153.48	-22.12	-85.11	-22.11	-85.07	-27.81	-10.39
13.01	-33.58	-155.73	-22.13	-85.74	-22.12	-85.71	-27.6	-10.18
13.11	-33.64	-158.27	-22.12	-86.4	-22.11	-86.32	-27.51	-10.57
13.21	-33.57	-159.97	-22.16	-86.87	-22.15	-86.7	-27.44	-10.59
13.31	-33.34	-162.84	-22.12	-87.32	-22.12	-87.22	-27.37	-9.84
13.41	-33.23	-165.38	-22.11	-87.86	-22.11	-87.83	-27.2	-9.74
13.51	-33.08	-168.28	-22.09	-88.49	-22.1	-88.43	-27.15	-9.87
13.61	-32.99	-170.48	-22.1	-89.07	-22.1	-89.04	-26.97	-9.71
13.71	-32.92	-172.97	-22.08	-89.64	-22.08	-89.63	-26.88	-9.72
13.81	-32.83	-174.21	-22.08	-90.25	-22.07	-90.24	-26.73	-9.77
13.91	-32.69	-176.23	-22.08	-90.91	-22.06	-90.77	-26.64	-10.1
14.01	-32.47	-177.63	-22.07	-91.57	-22.05	-91.48	-26.53	-10.33
14.11	-32.27	-179.92	-22.07	-92.19	-22.07	-92.05	-26.51	-10.08
14.21	-32.05	177.88	-22.07	-92.67	-22.08	-92.54	-26.39	-9.93
14.31	-31.88	174.69	-22.04	-93.19	-22.04	-93.11	-26.27	-9.98
14.41	-31.87	173.37	-22.03	-93.85	-22.03	-93.85	-26.14	-9.79
14.51	-31.72	170.94	-22.04	-94.53	-22.03	-94.46	-26	-10.19
14.61	-31.7	169.67	-22.05	-95.13	-22.03	-95.02	-25.87	-10.73
14.71	-31.56	168.93	-22.03	-95.66	-22.01	-95.5	-25.8	-11.29
14.81	-31.42	167.96	-22.02	-96.42	-22.01	-96.23	-25.73	-11.63
14.91	-31.19	167.42	-22.03	-97.03	-22.02	-96.86	-25.68	-11.76
15.01	-30.98	165.16	-22.01	-97.47	-22.02	-97.3	-25.57	-11.52
15.11	-30.82	162.87	-22	-98.03	-22	-97.95	-25.45	-12
15.21	-30.79	160.83	-21.99	-98.63	-21.99	-98.64	-25.31	-12.13
15.31	-30.83	158.95	-22	-99.31	-21.98	-99.2	-25.22	-12.71
15.41	-30.72	157.85	-22.01	-99.78	-21.98	-99.68	-25.16	-12.94
15.51	-30.62	156.81	-21.99	-100.33	-21.97	-100.2	-25.05	-13.43
15.61	-30.31	155.79	-21.98	-100.94	-21.96	-100.8	-25.03	-13.88
15.71	-30.04	154.33	-21.94	-101.62	-21.94	-101.4	-24.99	-13.84
15.81	-29.77	152.56	-21.95	-102.25	-21.95	-102.1	-24.91	-14.13
15.91	-29.54	150.61	-21.95	-102.75	-21.95	-102.66	-24.84	-14.5
16.01	-29.45	148.1	-21.94	-103.23	-21.93	-103.2	-24.78	-14.92
16.11	-29.38	146.54	-21.93	-103.63	-21.91	-103.62	-24.74	-15.26
16.21	-29.38	145.36	-21.9	-104.32	-21.87	-104.22	-24.74	-15.74
16.31	-29.33	145.4	-21.88	-104.96	-21.86	-104.81	-24.66	-15.65
16.41	-29.09	144.83	-21.86	-105.54	-21.84	-105.33	-24.61	-16.05
16.51	-28.81	143.57	-21.84	-106.23	-21.81	-106.06	-24.56	-16.5
16.61	-28.66	141.86	-21.82	-106.89	-21.8	-106.72	-24.55	-16.88
16.71	-28.58	140.63	-21.81	-107.36	-21.78	-107.38	-24.66	-16.89
16.81	-28.49	139.39	-21.8	-107.98	-21.77	-108.01	-24.57	-16.27
16.91	-28.48	138.2	-21.79	-108.46	-21.73	-108.45	-24.58	-15.51
17.01	-28.51	138.97	-21.76	-109.12	-21.7	-109.18	-24.29	-14.85
17.11	-28.31	139.03	-21.75	-109.73	-21.68	-109.76	-23.95	-15.26
17.21	-28.06	138.64	-21.72	-110.23	-21.66	-110.47	-23.76	-18.81
17.31	-27.81	137.32	-21.69	-110.76	-21.67	-111.08	-24.11	-20.52
17.41	-27.71	135.66	-21.61	-111.28	-21.62	-111.74	-24.62	-19.45
17.51	-27.65	134.39	-21.56	-112.17	-21.58	-112.58	-24.49	-15.42
17.61	-27.66	132.77	-21.52	-112.56	-21.55	-113.12	-24.01	-13.98
17.71	-27.76	131.93	-21.46	-113.62	-21.5	-113.85	-23.51	-16.06
17.81	-27.72	131.82	-21.46	-114.36	-21.48	-114.54	-23.46	-18.59
17.91	-27.61	131.48	-21.43	-115.34	-21.46	-115.32	-23.78	-19.56
18.01	-27.3	130.56	-21.41	-116.11	-21.45	-116	-23.94	-18.15
18.11	-27.18	128.66	-21.38	-116.87	-21.43	-116.65	-23.81	-16.36
18.21	-27.11	127.76	-21.36	-117.72	-21.39	-117.57	-23.51	-16.03
18.31	-27.02	126.83	-21.32	-118.53	-21.35	-118.42	-23.26	-15.94
18.41	-26.99	126.19	-21.32	-119.21	-21.34	-119.19	-23.11	-17.91
18.51	-26.99	126.22	-21.3	-120.2	-21.3	-120.14	-23.1	-18.11
18.61	-26.84	126.27	-21.33	-121.02	-21.31	-120.79	-23.1	-19.23
18.71	-26.8	126.77	-21.29	-121.73	-21.28	-121.53	-23.15	-19.25
18.81	-26.56	126.33	-21.24	-122.53	-21.26	-122.33	-23.18	-18.99
18.91	-26.47	125.37	-21.22	-123.5	-21.22	-123.31	-23.12	-17.99
19.01	-26.36	124.97	-21.2	-124.41	-21.23	-124.38	-22.88	-18.06
19.11	-26.27	124.94	-21.21	-125.19	-21.23	-125.18	-22.77	-18.65
19.21	-26.27	124.54	-21.22	-125.95	-21.2	-125.83	-22.7	-19.31
19.31	-26.18	124.8	-21.16	-126.95	-21.15	-126.9	-22.74	-19.12
19.41	-25.99	125.14	-21.2	-128.16	-21.2	-128.05	-22.58	-18.68
19.51	-25.88	125.07	-21.24	-129.09	-21.22	-128.89	-22.43	-18.64
19.61	-25.65	124.29	-21.25	-129.75	-21.26	-129.61	-22.28	-19.69
19.71	-25.58	123.59	-21.24	-130.42	-21.24	-130.28	-22.29	-20.13
19.81	-25.63	122.77	-21.18	-131.38	-21.19	-131.35	-22.14	-20.27
19.91	-25.62	123.1	-21.22	-132.42	-21.23	-132.38	-22.04	-20.57
20.01	-25.56	124.07	-21.28	-133.33	-21.25	-133.3	-21.85	-20.83