!s2p File: Measurements: S11, S21, S12, S22								
# GHz S dB R 50.0								
0.01	-25.36	-0.23	-27.53	-0.15	-27.53	-0.56	-22.75	-1.79
0.11	-25.55	-1.52	-27.67	-1.32	-27.66	-1.32	-23.64	-5.24
0.21	-25.61	-1.85	-27.7	-1.82	-27.71	-1.81	-23.93	-5.36
0.31	-25.63	-2.35	-27.72	-2.44	-27.71	-2.43	-24.02	-5.78
0.41	-25.63	-2.89	-27.73	-3.01	-27.74	-3	-24.08	-6.5
0.51	-25.62	-3.44	-27.74	-3.63	-27.73	-3.6	-24.1	-7.35
0.61	-25.63	-3.97	-27.74	-4.26	-27.74	-4.27	-24.13	-8.32
0.71	-25.62	-4.6	-27.74	-4.91	-27.73	-4.88	-24.14	-9.3
0.81	-25.62	-5.17	-27.75	-5.55	-27.74	-5.55	-24.15	-10.38
0.91	-25.63	-5.8	-27.75	-6.21	-27.74	-6.23	-24.18	-11.42
1.01	-25.64	-6.41	-27.75	-6.86	-27.75	-6.86	-24.18	-12.47
1.11	-25.65	-7.01	-27.75	-7.53	-27.75	-7.52	-24.21	-13.59
1.21	-25.66	-7.7	-27.76	-8.16	-27.76	-8.17	-24.22	-14.7
1.31	-25.66	-8.44	-27.77	-8.83	-27.76	-8.81	-24.23	-15.87
1.41	-25.68	-9.23	-27.77	-9.52	-27.77	-9.47	-24.27	-17.08
1.51	-25.7	-9.93	-27.78	-10.16	-27.78	-10.13	-24.3	-18.13
1.61	-25.7	-10.56	-27.78	-10.82	-27.78	-10.82	-24.31	-19.19
1.71	-25.68	-11.35	-27.79	-11.48	-27.78	-11.48	-24.32	-20.41
1.81	-25.68	-12.29	-27.79	-12.12	-27.79	-12.13	-24.33	-21.67
1.91	-25.7	-13.13	-27.8	-12.78	-27.8	-12.79	-24.36	-22.92
2.01	-25.72	-13.89	-27.8	-13.45	-27.8	-13.43	-24.4	-24.16
2.11	-25.73	-14.62	-27.81	-14.12	-27.81	-14.07	-24.44	-25.36
2.21	-25.74	-15.4	-27.82	-14.75	-27.81	-14.76	-24.47	-26.53
2.31	-25.76	-16.17	-27.83	-15.41	-27.82	-15.4	-24.5	-27.7
2.41	-25.76	-16.96	-27.83	-16.08	-27.83	-16.07	-24.54	-28.91
2.51	-25.8	-17.66	-27.84	-16.71	-27.84	-16.71	-24.58	-30.12
2.61	-25.83	-18.34	-27.85	-17.39	-27.85	-17.39	-24.63	-31.33
2.71	-25.86	-18.92	-27.85	-18.02	-27.85	-17.99	-24.67	-32.5
2.81	-25.9	-19.49	-27.87	-18.68	-27.87	-18.64	-24.73	-33.71
2.91	-25.92	-20.12	-27.87	-19.34	-27.87	-19.29	-24.78	-34.86
3.01	-25.94	-20.86	-27.88	-19.96	-27.88	-19.96	-24.83	-35.99
3.11	-25.97	-21.64	-27.89	-20.62	-27.89	-20.61	-24.87	-37.17
3.21	-26.02	-22.41	-27.89	-21.29	-27.9	-21.26	-24.92	-38.37
3.31	-26.07	-23.15	-27.91	-21.91	-27.91	-21.9	-24.98	-39.6
3.41	-26.11	-23.85	-27.91	-22.56	-27.91	-22.6	-25.05	-40.79
3.51	-26.13	-24.54	-27.93	-23.24	-27.92	-23.19	-25.11	-41.93
3.61	-26.17	-25.38	-27.93	-23.84	-27.93	-23.84	-25.17	-43.16
3.71	-26.22	-26.25	-27.95	-24.52	-27.95	-24.5	-25.22	-44.41
3.81	-26.28	-27.24	-27.96	-25.17	-27.96	-25.12	-25.27	-45.7
3.91	-26.34	-28.01	-27.97	-25.79	-27.97	-25.82	-25.35	-47.14
4.01	-26.41	-28.63	-27.99	-26.43	-27.98	-26.41	-25.44	-48.37
4.11	-26.42	-29.34	-27.99	-27.06	-27.99	-27.07	-25.52	-49.48
4.21	-26.45	-30.17	-28	-27.72	-28	-27.69	-25.58	-50.58
4.31	-26.49	-31.24	-28.01	-28.35	-28.02	-28.39	-25.63	-51.84
4.41	-26.56	-32.32	-28.03	-28.97	-28.03	-29	-25.68	-53.21
4.51	-26.65	-33.12	-28.05	-29.63	-28.05	-29.63	-25.75	-54.64
4.61	-26.73	-33.76	-28.07	-30.25	-28.06	-30.29	-25.84	-56.06
4.71	-26.75	-34.27	-28.07	-30.96	-28.07	-30.95	-25.94	-57.36
4.81	-26.76	-35.01	-28.09	-31.56	-28.08	-31.54	-26.05	-58.51
4.91	-26.77	-36.01	-28.1	-32.2	-28.1	-32.19	-26.12	-59.57
5.01	-26.79	-37.04	-28.11	-32.88	-28.11	-32.82	-26.2	-60.78
5.11	-26.88	-38.08	-28.12	-33.47	-28.13	-33.42	-26.25	-62.05
5.21	-26.98	-38.85	-28.14	-34.08	-28.15	-34.07	-26.33	-63.44
5.31	-27.07	-39.51	-28.16	-34.76	-28.16	-34.74	-26.43	-64.97
5.41	-27.15	-39.98	-28.17	-35.38	-28.18	-35.37	-26.55	-66.4
5.51	-27.2	-40.59	-28.2	-36.02	-28.19	-36.01	-26.69	-67.66
5.61	-27.26	-41.46	-28.21	-36.66	-28.21	-36.63	-26.81	-68.75
5.71	-27.33	-42.45	-28.22	-37.27	-28.23	-37.24	-26.9	-69.96
5.81	-27.44	-43.55	-28.24	-37.86	-28.24	-37.86	-26.98	-71.15
5.91	-27.56	-44.52	-28.27	-38.55	-28.26	-38.58	-27.05	-72.59
6.01	-27.68	-45.28	-28.28	-39.16	-28.29	-39.12	-27.14	-74.08
6.11	-27.78	-45.96	-28.31	-39.8	-28.3	-39.75	-27.25	-75.61
6.21	-27.84	-46.67	-28.33	-40.43	-28.32	-40.38	-27.37	-76.95
6.31	-27.89	-47.55	-28.34	-41.06	-28.35	-40.98	-27.5	-78.24
6.41	-27.95	-48.56	-28.38	-41.63	-28.37	-41.65	-27.64	-79.52
6.51	-28.03	-49.72	-28.4	-42.22	-28.4	-42.22	-27.74	-80.7
6.61	-28.15	-50.79	-28.42	-42.83	-28.42	-42.78	-27.83	-82.19
6.71	-28.27	-51.76	-28.44	-43.44	-28.44	-43.35	-27.94	-83.69
6.81	-28.36	-52.67	-28.47	-44.02	-28.47	-43.99	-28.06	-85.36
6.91	-28.44	-53.58	-28.49	-44.57	-28.49	-44.54	-28.19	-87.01
7.01	-28.49	-54.42	-28.51	-45.18	-28.52	-45.18	-28.33	-88.52
7.11	-28.57	-55.46	-28.54	-45.75	-28.54	-45.73	-28.48	-89.85
7.21	-28.65	-56.55	-28.56	-46.34	-28.55	-46.33	-28.6	-91.07
7.31	-28.74	-57.5	-28.58	-47.14	-28.58	-47.01	-28.67	-92.41
7.41	-28.85	-58.41	-28.64	-47.69	-28.64	-47.67	-28.74	-93.74
7.51	-28.94	-59.36	-28.67	-48.1	-28.67	-48.07	-28.82	-95.55
7.61	-29.03	-60.15	-28.69	-48.68	-28.7	-48.57	-28.96	-97.32
7.71	-29.11	-61.04	-28.72	-49.15	-28.73	-49.1	-29.1	-98.98
7.81	-29.2	-61.91	-28.75	-49.65	-28.76	-49.64	-29.25	-100.71
7.91	-29.33	-62.79	-28.79	-50.2	-28.79	-50.2	-29.39	-102.18
8.01	-29.48	-63.93	-28.83	-50.72	-28.83	-50.72	-29.5	-103.83
8.11	-29.61	-64.98	-28.85	-51.2	-28.86	-51.15	-29.58	-105.72
8.21	-29.78	-66.14	-28.89	-51.75	-28.88	-51.73	-29.66	-107.57
8.31	-29.95	-67.13	-28.92	-52.22	-28.92	-52.19	-29.75	-109.54
8.41	-30.03	-68.21	-28.94	-52.65	-28.96	-52.62	-29.86	-111.55
8.51	-30.14	-69.52	-29	-53.06	-29.01	-53.01	-29.96	-113.52
8.61	-30.22	-70.95	-29.04	-53.37	-29.03	-53.32	-30.05	-115.54
8.71	-30.3	-72.53	-29.05	-53.79	-29.06	-53.67	-30.15	-117.58
8.81	-30.4	-74.11	-29.09	-54.19	-29.08	-54.11	-30.23	-119.61
8.91	-30.53	-75.72	-29.1	-54.52	-29.1	-54.52	-30.28	-121.82
9.01	-30.7	-77.1	-29.13	-54.96	-29.13	-54.85	-30.34	-124.2
9.11	-30.84	-78.54	-29.17	-55.21	-29.17	-55.11	-30.42	-126.6
9.21	-30.96	-80.01	-29.18	-55.48	-29.18	-55.48	-30.5	-129.16
9.31	-31.06	-81.31	-29.19	-55.89	-29.19	-55.79	-30.56	-131.61
9.41	-31.14	-82.83	-29.2	-56.22	-29.21	-56.09	-30.63	-134.16
9.51	-31.21	-84.39	-29.22	-56.5	-29.22	-56.46	-30.7	-136.74
9.61	-31.34	-86.23	-29.22	-56.75	-29.21	-56.7	-30.8	-139.27
9.71	-31.46	-87.87	-29.24	-57.11	-29.24	-57.08	-30.85	-141.99
9.81	-31.58	-89.51	-29.24	-57.32	-29.24	-57.37	-30.89	-144.79
9.91	-31.68	-90.72	-29.23	-57.81	-29.23	-57.75	-30.94	-147.69
10.01	-31.78	-91.92	-29.24	-58.08	-29.25	-58.07	-30.98	-150.57
10.11	-31.88	-93.24	-29.24	-58.39	-29.24	-58.27	-30.99	-153.77
10.21	-31.98	-94.93	-29.24	-58.58	-29.23	-58.55	-31.02	-157.1
10.31	-32.08	-96.72	-29.21	-59.03	-29.21	-58.9	-31.06	-160.1
10.41	-32.21	-98.6	-29.19	-59.33	-29.2	-59.29	-31.14	-163.4
10.51	-32.41	-100.58	-29.19	-59.59	-29.19	-59.58	-31.19	-166.31
10.61	-32.56	-102.92	-29.18	-60.08	-29.17	-60.05	-31.18	-169.44
10.71	-32.76	-104.86	-29.16	-60.48	-29.15	-60.44	-31.14	-172.28
10.81	-32.89	-106.91	-29.14	-60.97	-29.14	-60.91	-31.1	-175.73
10.91	-32.99	-109.18	-29.14	-61.38	-29.13	-61.27	-31.02	-179.02
11.01	-33.12	-111.37	-29.11	-61.72	-29.12	-61.65	-30.96	177.33
11.11	-33.18	-113.52	-29.09	-62.21	-29.11	-62.19	-30.94	174.08
11.21	-33.27	-115.99	-29.1	-62.66	-29.09	-62.64	-30.9	170.89
11.31	-33.4	-117.88	-29.09	-63.07	-29.08	-63.01	-30.88	168.14
11.41	-33.47	-120.38	-29.08	-63.47	-29.07	-63.44	-30.79	165.54
11.51	-33.54	-122.15	-29.06	-63.95	-29.05	-63.81	-30.68	162.56
11.61	-33.57	-123.99	-29.04	-64.4	-29.02	-64.28	-30.53	159.76
11.71	-33.56	-126.3	-29.02	-64.82	-29.03	-64.79	-30.37	156.93
11.81	-33.59	-129.17	-28.99	-65.29	-29	-65.16	-30.23	153.59
11.91	-33.7	-131.68	-28.99	-65.78	-28.98	-65.73	-30.17	150.31
12.01	-33.67	-134.07	-28.96	-66.2	-28.97	-66.24	-30.09	148
12.11	-33.61	-135.95	-28.98	-66.92	-28.97	-66.92	-29.97	145.26
12.21	-33.62	-138.14	-28.99	-67.11	-28.96	-67.13	-29.88	142.97
12.31	-33.66	-140.4	-28.95	-67.6	-28.95	-67.54	-29.73	140.85
12.41	-33.56	-142.44	-28.92	-68.25	-28.93	-68.06	-29.61	138.85
12.51	-33.59	-145.19	-28.92	-68.62	-28.92	-68.56	-29.35	136.42
12.61	-33.53	-147.45	-28.89	-69.1	-28.9	-68.97	-29.16	133.83
12.71	-33.58	-150.35	-28.88	-69.59	-28.88	-69.53	-28.96	131.26
12.81	-33.64	-153.47	-28.89	-69.93	-28.9	-69.96	-28.89	127.99
12.91	-33.77	-156.07	-28.85	-70.44	-28.85	-70.39	-28.77	126.03
13.01	-33.73	-158.13	-28.86	-70.99	-28.86	-70.95	-28.67	123.37
13.11	-33.75	-160.83	-28.85	-71.51	-28.83	-71.45	-28.57	121.88
13.21	-33.7	-162.62	-28.88	-71.73	-28.88	-71.61	-28.41	120.24
13.31	-33.46	-165.27	-28.81	-72.1	-28.8	-71.98	-28.13	118.24
13.41	-33.33	-167.95	-28.77	-72.47	-28.78	-72.43	-28.01	116.01
13.51	-33.16	-170.74	-28.74	-73.13	-28.75	-73.04	-27.81	114.57
13.61	-33.02	-173	-28.74	-73.65	-28.74	-73.6	-27.66	112.2
13.71	-32.99	-175.62	-28.7	-74.08	-28.71	-74.06	-27.49	110.47
13.81	-32.89	-176.89	-28.68	-74.56	-28.68	-74.58	-27.36	108.55
13.91	-32.72	-178.84	-28.67	-75.06	-28.66	-75.05	-27.22	107.23
14.01	-32.54	179.92	-28.64	-75.84	-28.64	-75.73	-27.08	105.6
14.11	-32.28	177.73	-28.62	-76.27	-28.64	-76.2	-26.86	104.47
14.21	-32.08	175.47	-28.61	-76.49	-28.64	-76.33	-26.66	102.69
14.31	-31.91	172.52	-28.55	-77.01	-28.57	-76.91	-26.49	100.95
14.41	-31.85	171.07	-28.53	-77.59	-28.54	-77.69	-26.29	99.08
14.51	-31.71	168.58	-28.53	-78.26	-28.54	-78.14	-26.17	97.3
14.61	-31.69	167.35	-28.53	-78.74	-28.52	-78.67	-26.09	95.76
14.71	-31.55	166.51	-28.48	-79.23	-28.47	-79.08	-26.01	94.57
14.81	-31.43	165.69	-28.47	-79.97	-28.46	-79.76	-25.85	93.43
14.91	-31.18	165.18	-28.48	-80.54	-28.48	-80.3	-25.69	92.22
15.01	-30.96	162.93	-28.45	-80.66	-28.46	-80.5	-25.46	90.69
15.11	-30.8	160.78	-28.41	-81.18	-28.42	-81.1	-25.36	89.19
15.21	-30.74	158.73	-28.37	-81.79	-28.38	-81.77	-25.21	87.38
15.31	-30.78	156.63	-28.38	-82.39	-28.37	-82.34	-25.12	86.05
15.41	-30.69	155.41	-28.39	-82.63	-28.37	-82.52	-24.98	84.82
15.51	-30.59	154.39	-28.34	-83.1	-28.32	-82.86	-24.89	83.55
15.61	-30.29	153.44	-28.29	-83.5	-28.29	-83.38	-24.78	82.66
15.71	-30.01	152.22	-28.24	-84.26	-28.25	-84.07	-24.6	81.79
15.81	-29.75	150.53	-28.26	-84.88	-28.26	-84.73	-24.44	80.58
15.91	-29.5	148.69	-28.24	-85.17	-28.24	-85.07	-24.32	79.27
16.01	-29.38	146.09	-28.2	-85.49	-28.19	-85.4	-24.22	78.14
16.11	-29.32	144.46	-28.16	-85.71	-28.15	-85.74	-24.11	77.09
16.21	-29.31	143.14	-28.1	-86.42	-28.05	-86.23	-24.01	76.37
16.31	-29.28	143.11	-28.04	-87.01	-28.01	-86.79	-23.85	75.29
16.41	-29.04	142.67	-28	-87.6	-27.98	-87.32	-23.74	74.34
16.51	-28.76	141.54	-27.97	-88.26	-27.94	-88.04	-23.65	73.36
16.61	-28.62	139.82	-27.92	-88.89	-27.9	-88.62	-23.53	72.65
16.71	-28.5	138.52	-27.87	-89.33	-27.85	-89.25	-23.4	72.58
16.81	-28.44	137.11	-27.88	-89.94	-27.83	-89.86	-23.13	71.48
16.91	-28.4	135.87	-27.83	-90.13	-27.76	-90.06	-22.9	70.68
17.01	-28.47	136.57	-27.74	-90.89	-27.69	-90.95	-22.68	68.53
17.11	-28.3	136.67	-27.73	-91.55	-27.65	-91.59	-22.58	65.89
17.21	-28.03	136.36	-27.68	-92.07	-27.62	-92.3	-22.95	64.09
17.31	-27.8	135.13	-27.64	-92.38	-27.61	-92.73	-23.04	65.78
17.41	-27.67	133.44	-27.51	-92.94	-27.52	-93.28	-22.76	68.55
17.51	-27.63	132.05	-27.44	-93.96	-27.46	-94.37	-22.05	67.52
17.61	-27.63	130.37	-27.38	-94.17	-27.41	-94.71	-21.67	64.63
17.71	-27.72	129.46	-27.27	-95.37	-27.32	-95.57	-21.67	60.97
17.81	-27.69	129.29	-27.24	-96.14	-27.26	-96.29	-21.84	59.63
17.91	-27.59	128.87	-27.2	-97.16	-27.25	-97	-21.85	60.46
18.01	-27.29	128.06	-27.15	-97.9	-27.19	-97.71	-21.6	60.87
18.11	-27.18	126.11	-27.1	-98.55	-27.15	-98.33	-21.21	59.88
18.21	-27.11	125.16	-27.05	-99.6	-27.09	-99.41	-21.02	57.86
18.31	-27	124.12	-27	-100.51	-27.04	-100.35	-20.83	56.2
18.41	-26.99	123.31	-26.97	-100.98	-27	-100.97	-20.9	54.3
18.51	-27.01	123.23	-26.91	-102.21	-26.92	-102.09	-20.83	53.83
18.61	-26.9	123.25	-26.93	-103.01	-26.92	-102.68	-20.83	53.07
18.71	-26.87	123.63	-26.85	-103.67	-26.86	-103.43	-20.73	52.82
18.81	-26.65	123.33	-26.76	-104.53	-26.8	-104.28	-20.6	52.43
18.91	-26.57	122.12	-26.71	-105.52	-26.72	-105.29	-20.37	51.96
19.01	-26.5	121.68	-26.65	-106.62	-26.69	-106.53	-20.2	50.48
19.11	-26.46	121.6	-26.67	-107.62	-26.69	-107.55	-20.11	49.35
19.21	-26.45	121.11	-26.65	-108.13	-26.62	-107.97	-20.05	48.26
19.31	-26.39	121.27	-26.5	-109.42	-26.49	-109.28	-19.98	48.05
19.41	-26.28	121.62	-26.55	-110.97	-26.55	-110.78	-19.78	47.3
19.51	-26.21	121.52	-26.54	-111.98	-26.52	-111.63	-19.62	46.45
19.61	-26.02	121.11	-26.55	-112.69	-26.57	-112.48	-19.54	44.9
19.71	-25.97	120.3	-26.51	-113.28	-26.51	-113.04	-19.49	44.48
19.81	-26.07	119.32	-26.33	-114.47	-26.33	-114.37	-19.35	43.46
19.91	-26.13	119.74	-26.37	-116.16	-26.39	-116.08	-19.21	42.73
20.01	-26.16	121.01	-26.43	-117.53	-26.4	-117.4	-19.05	41.48