!s2p File: Measurements: S11, S21, S12, S22								
# GHz S dB R 50.0								
0.01	-14.43	-1.35	-3.39	-0.44	-3.38	-0.43	-17.49	-1.87
0.11	-14.87	-2.36	-3.51	-1.49	-3.5	-1.48	-18.15	-3.76
0.21	-14.98	-2.65	-3.54	-2.34	-3.53	-2.34	-18.32	-4.25
0.31	-15.02	-3.1	-3.55	-3.24	-3.54	-3.23	-18.37	-5
0.41	-15.04	-3.59	-3.55	-4.15	-3.55	-4.14	-18.4	-5.88
0.51	-15.05	-4.17	-3.56	-5.08	-3.55	-5.08	-18.42	-6.9
0.61	-15.06	-4.74	-3.56	-6.02	-3.56	-6.01	-18.44	-7.92
0.71	-15.06	-5.4	-3.56	-6.96	-3.56	-6.96	-18.44	-8.99
0.81	-15.06	-6	-3.57	-7.91	-3.57	-7.9	-18.45	-10.07
0.91	-15.06	-6.67	-3.57	-8.86	-3.57	-8.85	-18.46	-11.18
1.01	-15.07	-7.31	-3.58	-9.8	-3.57	-9.8	-18.47	-12.29
1.11	-15.07	-7.98	-3.58	-10.75	-3.58	-10.75	-18.47	-13.43
1.21	-15.08	-8.65	-3.58	-11.7	-3.58	-11.7	-18.48	-14.56
1.31	-15.08	-9.38	-3.59	-12.65	-3.59	-12.65	-18.48	-15.74
1.41	-15.09	-10.1	-3.59	-13.61	-3.59	-13.6	-18.5	-16.95
1.51	-15.09	-10.8	-3.6	-14.56	-3.59	-14.55	-18.51	-18.07
1.61	-15.09	-11.48	-3.6	-15.5	-3.6	-15.51	-18.53	-19.24
1.71	-15.09	-12.23	-3.61	-16.45	-3.6	-16.45	-18.53	-20.41
1.81	-15.09	-12.99	-3.61	-17.4	-3.61	-17.4	-18.54	-21.65
1.91	-15.09	-13.73	-3.62	-18.35	-3.62	-18.34	-18.56	-22.85
2.01	-15.1	-14.47	-3.62	-19.3	-3.62	-19.3	-18.58	-24.08
2.11	-15.1	-15.19	-3.63	-20.25	-3.63	-20.24	-18.6	-25.26
2.21	-15.11	-15.92	-3.64	-21.19	-3.63	-21.19	-18.61	-26.46
2.31	-15.12	-16.65	-3.64	-22.13	-3.64	-22.14	-18.64	-27.62
2.41	-15.12	-17.37	-3.65	-23.08	-3.65	-23.07	-18.66	-28.8
2.51	-15.13	-18.08	-3.65	-24.01	-3.65	-24.02	-18.68	-29.96
2.61	-15.14	-18.78	-3.66	-24.96	-3.66	-24.96	-18.71	-31.14
2.71	-15.15	-19.45	-3.67	-25.9	-3.67	-25.9	-18.73	-32.27
2.81	-15.17	-20.13	-3.67	-26.85	-3.67	-26.84	-18.76	-33.45
2.91	-15.17	-20.81	-3.68	-27.78	-3.68	-27.77	-18.79	-34.58
3.01	-15.18	-21.52	-3.69	-28.72	-3.69	-28.71	-18.81	-35.71
3.11	-15.19	-22.24	-3.7	-29.65	-3.69	-29.65	-18.84	-36.89
3.21	-15.21	-22.97	-3.7	-30.59	-3.7	-30.59	-18.86	-38.05
3.31	-15.22	-23.68	-3.71	-31.54	-3.71	-31.53	-18.9	-39.25
3.41	-15.24	-24.39	-3.72	-32.46	-3.71	-32.47	-18.93	-40.43
3.51	-15.25	-25.09	-3.72	-33.4	-3.72	-33.4	-18.96	-41.54
3.61	-15.26	-25.81	-3.73	-34.33	-3.73	-34.34	-18.99	-42.72
3.71	-15.27	-26.55	-3.74	-35.26	-3.74	-35.29	-19.02	-43.88
3.81	-15.29	-27.34	-3.75	-36.21	-3.75	-36.22	-19.05	-45.08
3.91	-15.31	-28.05	-3.76	-37.14	-3.76	-37.16	-19.09	-46.32
4.01	-15.33	-28.76	-3.76	-38.09	-3.76	-38.1	-19.13	-47.49
4.11	-15.33	-29.44	-3.77	-39.03	-3.77	-39.03	-19.18	-48.68
4.21	-15.35	-30.19	-3.78	-39.96	-3.78	-39.96	-19.21	-49.75
4.31	-15.36	-30.95	-3.79	-40.87	-3.79	-40.9	-19.24	-50.93
4.41	-15.38	-31.76	-3.8	-41.8	-3.8	-41.82	-19.27	-52.08
4.51	-15.4	-32.47	-3.81	-42.74	-3.81	-42.77	-19.31	-53.34
4.61	-15.42	-33.19	-3.82	-43.69	-3.82	-43.71	-19.36	-54.51
4.71	-15.43	-33.81	-3.83	-44.64	-3.83	-44.63	-19.41	-55.69
4.81	-15.44	-34.52	-3.84	-45.59	-3.84	-45.56	-19.47	-56.76
4.91	-15.44	-35.23	-3.85	-46.5	-3.85	-46.49	-19.51	-57.87
5.01	-15.45	-35.99	-3.85	-47.42	-3.86	-47.42	-19.55	-58.92
5.11	-15.47	-36.73	-3.86	-48.34	-3.87	-48.34	-19.58	-60.09
5.21	-15.49	-37.43	-3.88	-49.27	-3.88	-49.28	-19.63	-61.19
5.31	-15.51	-38.08	-3.89	-50.22	-3.89	-50.21	-19.67	-62.4
5.41	-15.53	-38.74	-3.9	-51.15	-3.9	-51.14	-19.73	-63.55
5.51	-15.54	-39.36	-3.91	-52.08	-3.91	-52.07	-19.79	-64.67
5.61	-15.55	-40.12	-3.92	-53.02	-3.92	-53	-19.84	-65.66
5.71	-15.57	-40.82	-3.93	-53.95	-3.93	-53.93	-19.89	-66.75
5.81	-15.59	-41.61	-3.94	-54.86	-3.94	-54.85	-19.93	-67.79
5.91	-15.62	-42.29	-3.95	-55.79	-3.95	-55.79	-19.96	-68.96
6.01	-15.64	-43.02	-3.96	-56.72	-3.97	-56.72	-20.01	-70.13
6.11	-15.66	-43.67	-3.98	-57.67	-3.98	-57.65	-20.05	-71.3
6.21	-15.67	-44.37	-3.99	-58.58	-3.99	-58.57	-20.11	-72.41
6.31	-15.68	-45.09	-4	-59.5	-4	-59.49	-20.16	-73.42
6.41	-15.68	-45.85	-4.02	-60.41	-4.02	-60.41	-20.22	-74.58
6.51	-15.69	-46.65	-4.03	-61.32	-4.03	-61.34	-20.27	-75.64
6.61	-15.72	-47.44	-4.04	-62.27	-4.04	-62.25	-20.32	-76.77
6.71	-15.73	-48.17	-4.05	-63.19	-4.06	-63.18	-20.37	-77.91
6.81	-15.74	-48.92	-4.07	-64.11	-4.07	-64.09	-20.43	-79.1
6.91	-15.75	-49.69	-4.08	-65.01	-4.09	-65	-20.48	-80.28
7.01	-15.76	-50.47	-4.1	-65.92	-4.1	-65.93	-20.54	-81.41
7.11	-15.77	-51.25	-4.11	-66.8	-4.11	-66.84	-20.6	-82.45
7.21	-15.78	-52.06	-4.12	-67.75	-4.13	-67.78	-20.66	-83.52
7.31	-15.79	-52.79	-4.14	-68.71	-4.14	-68.7	-20.69	-84.46
7.41	-15.8	-53.56	-4.16	-69.62	-4.16	-69.6	-20.7	-85.63
7.51	-15.8	-54.36	-4.17	-70.52	-4.17	-70.5	-20.76	-86.91
7.61	-15.81	-55.13	-4.18	-71.44	-4.19	-71.41	-20.83	-88.07
7.71	-15.82	-55.91	-4.2	-72.32	-4.2	-72.3	-20.88	-89.25
7.81	-15.82	-56.72	-4.21	-73.16	-4.22	-73.22	-20.94	-90.39
7.91	-15.84	-57.51	-4.23	-74.11	-4.24	-74.13	-20.99	-91.4
8.01	-15.86	-58.42	-4.25	-75.01	-4.25	-75.03	-21.03	-92.65
8.11	-15.88	-59.29	-4.27	-75.9	-4.27	-75.91	-21.08	-93.83
8.21	-15.91	-60.16	-4.29	-76.81	-4.29	-76.82	-21.1	-95.08
8.31	-15.93	-61	-4.29	-77.72	-4.3	-77.7	-21.16	-96.36
8.41	-15.94	-61.91	-4.31	-78.57	-4.32	-78.56	-21.19	-97.63
8.51	-15.96	-62.84	-4.33	-79.46	-4.34	-79.46	-21.25	-99.03
8.61	-15.97	-63.85	-4.35	-80.35	-4.36	-80.33	-21.29	-100.34
8.71	-15.99	-64.9	-4.36	-81.24	-4.37	-81.18	-21.35	-101.66
8.81	-16.02	-65.84	-4.39	-82.1	-4.39	-82.06	-21.39	-102.94
8.91	-16.06	-66.87	-4.4	-82.95	-4.4	-82.94	-21.44	-104.38
9.01	-16.09	-67.8	-4.41	-83.84	-4.42	-83.76	-21.49	-105.88
9.11	-16.12	-68.76	-4.42	-84.65	-4.43	-84.62	-21.56	-107.32
9.21	-16.16	-69.76	-4.44	-85.53	-4.44	-85.5	-21.63	-108.82
9.31	-16.2	-70.73	-4.45	-86.41	-4.46	-86.36	-21.7	-110.32
9.41	-16.23	-71.69	-4.46	-87.26	-4.47	-87.21	-21.77	-111.76
9.51	-16.27	-72.63	-4.48	-88.13	-4.48	-88.1	-21.86	-113.36
9.61	-16.32	-73.6	-4.5	-89.01	-4.49	-88.95	-21.95	-114.78
9.71	-16.36	-74.56	-4.5	-89.84	-4.51	-89.8	-22.03	-116.26
9.81	-16.4	-75.46	-4.51	-90.66	-4.52	-90.68	-22.14	-117.81
9.91	-16.45	-76.31	-4.52	-91.56	-4.53	-91.54	-22.24	-119.37
10.01	-16.49	-77.21	-4.53	-92.44	-4.54	-92.38	-22.31	-120.94
10.11	-16.53	-78.04	-4.55	-93.32	-4.55	-93.25	-22.43	-122.55
10.21	-16.58	-78.95	-4.56	-94.13	-4.56	-94.12	-22.55	-124.21
10.31	-16.64	-79.84	-4.56	-95.03	-4.57	-94.98	-22.66	-125.68
10.41	-16.69	-80.67	-4.57	-95.88	-4.58	-95.87	-22.81	-127.15
10.51	-16.76	-81.54	-4.59	-96.74	-4.59	-96.75	-22.93	-128.71
10.61	-16.82	-82.45	-4.59	-97.65	-4.59	-97.64	-23.06	-130.23
10.71	-16.88	-83.26	-4.6	-98.57	-4.61	-98.49	-23.16	-131.68
10.81	-16.92	-84.08	-4.61	-99.45	-4.61	-99.36	-23.28	-133.42
10.91	-16.98	-85.07	-4.62	-100.34	-4.62	-100.25	-23.39	-135.15
11.01	-17.05	-85.88	-4.62	-101.22	-4.64	-101.16	-23.55	-136.9
11.11	-17.1	-86.68	-4.63	-102.07	-4.65	-102.06	-23.69	-138.39
11.21	-17.15	-87.5	-4.65	-102.95	-4.66	-102.95	-23.83	-140.14
11.31	-17.2	-88.24	-4.67	-103.83	-4.66	-103.85	-23.98	-141.65
11.41	-17.24	-89.09	-4.67	-104.75	-4.67	-104.74	-24.11	-143.17
11.51	-17.29	-89.87	-4.69	-105.7	-4.68	-105.57	-24.25	-144.89
11.61	-17.33	-90.65	-4.69	-106.55	-4.69	-106.46	-24.37	-146.65
11.71	-17.37	-91.51	-4.69	-107.44	-4.72	-107.37	-24.48	-148.24
11.81	-17.42	-92.36	-4.7	-108.31	-4.73	-108.23	-24.66	-150.19
11.91	-17.48	-93.1	-4.72	-109.19	-4.73	-109.15	-24.85	-151.84
12.01	-17.51	-93.91	-4.73	-110.04	-4.75	-110.1	-25.02	-153.28
12.11	-17.54	-94.65	-4.75	-110.98	-4.75	-110.96	-25.16	-154.98
12.21	-17.55	-95.42	-4.77	-111.86	-4.76	-111.83	-25.28	-156.78
12.31	-17.59	-96.23	-4.78	-112.83	-4.78	-112.73	-25.43	-158.42
12.41	-17.62	-97.16	-4.78	-113.78	-4.79	-113.57	-25.56	-160.08
12.51	-17.67	-98.08	-4.8	-114.64	-4.81	-114.47	-25.68	-162.21
12.61	-17.7	-98.91	-4.8	-115.47	-4.82	-115.39	-25.84	-164.13
12.71	-17.77	-99.71	-4.81	-116.34	-4.83	-116.3	-26.03	-165.86
12.81	-17.82	-100.35	-4.82	-117.22	-4.84	-117.23	-26.24	-168.03
12.91	-17.87	-101.05	-4.85	-118.12	-4.85	-118.08	-26.41	-169.63
13.01	-17.9	-101.98	-4.85	-119.07	-4.86	-119	-26.6	-171.65
13.11	-17.96	-102.68	-4.87	-120.03	-4.87	-119.92	-26.73	-173.32
13.21	-17.96	-103.55	-4.9	-120.91	-4.9	-120.72	-26.81	-175.52
13.31	-18.01	-104.6	-4.89	-121.76	-4.9	-121.6	-26.99	-178.15
13.41	-18.03	-105.59	-4.9	-122.65	-4.92	-122.57	-27.19	179.9
13.51	-18.1	-106.59	-4.92	-123.52	-4.94	-123.42	-27.27	178.2
13.61	-18.11	-107.38	-4.93	-124.34	-4.95	-124.31	-27.45	175.79
13.71	-18.16	-108.4	-4.93	-125.25	-4.95	-125.23	-27.6	173.14
13.81	-18.2	-109.2	-4.97	-126.21	-4.97	-126.16	-27.79	171.16
13.91	-18.25	-110.03	-4.99	-127.16	-4.98	-126.97	-27.88	169.07
14.01	-18.26	-110.93	-5	-128.06	-4.99	-127.9	-28.05	166.79
14.11	-18.27	-111.98	-5	-128.95	-5.02	-128.76	-28.08	164.31
14.21	-18.32	-112.99	-5.01	-129.87	-5.04	-129.66	-28.17	161.42
14.31	-18.39	-114.02	-5.02	-130.7	-5.05	-130.57	-28.37	158.66
14.41	-18.43	-114.56	-5.04	-131.55	-5.06	-131.48	-28.54	156.22
14.51	-18.44	-115.43	-5.06	-132.5	-5.07	-132.4	-28.63	153.68
14.61	-18.45	-116.21	-5.09	-133.4	-5.08	-133.27	-28.8	151.21
14.71	-18.47	-117.2	-5.11	-134.29	-5.1	-134.1	-28.94	148.83
14.81	-18.48	-118.01	-5.12	-135.24	-5.12	-134.99	-28.99	146.47
14.91	-18.45	-119.08	-5.13	-136.14	-5.14	-135.91	-29.02	143.75
15.01	-18.5	-120.16	-5.13	-136.98	-5.15	-136.75	-29.05	140.46
15.11	-18.55	-121.18	-5.15	-137.86	-5.17	-137.71	-29.22	137.92
15.21	-18.62	-121.74	-5.17	-138.72	-5.18	-138.63	-29.37	134.86
15.31	-18.64	-122.47	-5.2	-139.61	-5.19	-139.47	-29.43	132.25
15.41	-18.64	-123.4	-5.22	-140.49	-5.21	-140.35	-29.45	129.2
15.51	-18.64	-124.36	-5.24	-141.38	-5.22	-141.21	-29.57	126.61
15.61	-18.67	-125.79	-5.25	-142.31	-5.25	-142.08	-29.53	124.18
15.71	-18.72	-127	-5.26	-143.21	-5.27	-142.92	-29.41	121.43
15.81	-18.76	-128.04	-5.28	-144.06	-5.29	-143.83	-29.42	118.83
15.91	-18.79	-129.03	-5.29	-144.92	-5.3	-144.77	-29.4	116.12
16.01	-18.85	-130.01	-5.31	-145.75	-5.32	-145.64	-29.38	113.18
16.11	-18.85	-131.03	-5.33	-146.57	-5.33	-146.49	-29.33	110.56
16.21	-18.9	-131.95	-5.36	-147.5	-5.34	-147.38	-29.26	108.07
16.31	-18.89	-132.86	-5.38	-148.37	-5.36	-148.14	-29.18	104.9
16.41	-18.89	-134.06	-5.39	-149.22	-5.38	-148.94	-29.14	102.57
16.51	-18.92	-135.34	-5.4	-150.13	-5.39	-149.9	-29.07	100.45
16.61	-18.98	-136.53	-5.42	-151.04	-5.41	-150.79	-28.96	98.42
16.71	-19	-137.56	-5.43	-151.77	-5.43	-151.67	-28.79	96.71
16.81	-19.05	-138.22	-5.45	-152.65	-5.43	-152.56	-28.5	93.44
16.91	-19.07	-139.16	-5.49	-153.49	-5.44	-153.4	-28.21	90.56
17.01	-19.05	-139.84	-5.5	-154.24	-5.46	-154.2	-28.02	85.95
17.11	-19.01	-140.87	-5.53	-155.08	-5.47	-155.02	-28.09	81.07
17.21	-19.01	-142.28	-5.53	-155.84	-5.49	-155.89	-28.66	78.96
17.31	-19.05	-143.64	-5.53	-156.68	-5.51	-156.81	-28.65	81.02
17.41	-19.13	-144.97	-5.51	-157.45	-5.53	-157.68	-28.18	83.2
17.51	-19.18	-145.76	-5.51	-158.39	-5.53	-158.59	-27.29	79.47
17.61	-19.24	-146.57	-5.5	-159.15	-5.54	-159.45	-26.92	74.19
17.71	-19.28	-147.17	-5.51	-160.22	-5.55	-160.3	-27.06	68.62
17.81	-19.25	-147.88	-5.53	-161.1	-5.56	-161.13	-27.29	66.61
17.91	-19.26	-148.87	-5.54	-162.17	-5.58	-162	-27.21	67.32
18.01	-19.3	-150.34	-5.56	-163.13	-5.6	-162.89	-26.78	66.65
18.11	-19.38	-151.4	-5.57	-164.05	-5.61	-163.75	-26.3	64.66
18.21	-19.42	-152.49	-5.59	-164.88	-5.62	-164.67	-26.08	60.97
18.31	-19.45	-153.52	-5.59	-165.76	-5.62	-165.56	-25.91	58.05
18.41	-19.48	-154.55	-5.61	-166.63	-5.64	-166.48	-25.95	55.15
18.51	-19.46	-155.54	-5.63	-167.47	-5.65	-167.3	-25.86	53.82
18.61	-19.46	-156.17	-5.67	-168.42	-5.66	-168.14	-25.83	52.11
18.71	-19.4	-157.24	-5.67	-169.3	-5.67	-169.05	-25.71	51.24
18.81	-19.41	-158.62	-5.68	-170.25	-5.7	-169.95	-25.46	50.48
18.91	-19.46	-159.74	-5.7	-171.18	-5.7	-170.87	-25.15	49.11
19.01	-19.51	-160.85	-5.7	-172.03	-5.72	-171.81	-24.98	46.51
19.11	-19.51	-161.58	-5.72	-172.84	-5.73	-172.69	-24.9	44.63
19.21	-19.52	-162.34	-5.74	-173.75	-5.73	-173.53	-24.78	42.91
19.31	-19.48	-163.46	-5.75	-174.61	-5.75	-174.43	-24.64	41.84
19.41	-19.45	-164.44	-5.77	-175.57	-5.77	-175.35	-24.41	40.43
19.51	-19.43	-165.59	-5.8	-176.54	-5.78	-176.24	-24.2	38.85
19.61	-19.51	-166.88	-5.81	-177.43	-5.81	-177.15	-24.08	36.81
19.71	-19.52	-167.78	-5.81	-178.31	-5.82	-178.04	-24.01	35.6
19.81	-19.59	-168.51	-5.83	-179.15	-5.83	-178.97	-23.88	33.57
19.91	-19.6	-168.96	-5.83	179.96	-5.84	-179.86	-23.78	32.62
20.01	-19.57	-169.79	-5.86	179.09	-5.85	179.29	-23.57	30.75