!s2p File: Measurements: S11, S21, S12, S22								
# GHz S dB R 50.0								
0.01	-14.05	-1.01	-8.32	-0.45	-8.32	-0.42	-19.92	-1.75
0.11	-14.38	-2.02	-8.44	-1.44	-8.44	-1.44	-20.54	-2.82
0.21	-14.46	-2.43	-8.47	-2.23	-8.47	-2.22	-20.68	-2.76
0.31	-14.5	-2.93	-8.48	-3.06	-8.48	-3.06	-20.73	-2.92
0.41	-14.51	-3.51	-8.49	-3.91	-8.49	-3.9	-20.76	-3.22
0.51	-14.52	-4.11	-8.5	-4.78	-8.49	-4.77	-20.77	-3.57
0.61	-14.53	-4.73	-8.5	-5.65	-8.5	-5.65	-20.79	-3.97
0.71	-14.53	-5.39	-8.5	-6.53	-8.5	-6.53	-20.79	-4.4
0.81	-14.53	-6.04	-8.51	-7.42	-8.5	-7.4	-20.79	-4.88
0.91	-14.54	-6.71	-8.51	-8.29	-8.51	-8.29	-20.8	-5.34
1.01	-14.54	-7.38	-8.51	-9.18	-8.51	-9.17	-20.79	-5.8
1.11	-14.54	-8.07	-8.52	-10.06	-8.51	-10.06	-20.79	-6.3
1.21	-14.55	-8.77	-8.52	-10.94	-8.52	-10.94	-20.79	-6.8
1.31	-14.55	-9.49	-8.53	-11.84	-8.52	-11.83	-20.79	-7.35
1.41	-14.56	-10.23	-8.53	-12.73	-8.53	-12.72	-20.8	-7.89
1.51	-14.56	-10.93	-8.53	-13.61	-8.53	-13.62	-20.8	-8.36
1.61	-14.56	-11.64	-8.54	-14.5	-8.53	-14.51	-20.8	-8.85
1.71	-14.56	-12.38	-8.54	-15.39	-8.54	-15.39	-20.79	-9.42
1.81	-14.56	-13.17	-8.55	-16.27	-8.55	-16.27	-20.79	-10.01
1.91	-14.56	-13.92	-8.55	-17.15	-8.55	-17.15	-20.79	-10.6
2.01	-14.57	-14.66	-8.56	-18.05	-8.55	-18.04	-20.8	-11.19
2.11	-14.57	-15.4	-8.56	-18.93	-8.56	-18.92	-20.81	-11.73
2.21	-14.58	-16.14	-8.57	-19.82	-8.57	-19.81	-20.81	-12.28
2.31	-14.58	-16.88	-8.57	-20.69	-8.57	-20.69	-20.81	-12.79
2.41	-14.59	-17.62	-8.58	-21.58	-8.58	-21.57	-20.81	-13.35
2.51	-14.6	-18.32	-8.58	-22.45	-8.58	-22.45	-20.82	-13.86
2.61	-14.61	-19.06	-8.59	-23.34	-8.59	-23.34	-20.83	-14.39
2.71	-14.62	-19.74	-8.6	-24.21	-8.59	-24.21	-20.84	-14.9
2.81	-14.63	-20.43	-8.6	-25.09	-8.6	-25.09	-20.85	-15.43
2.91	-14.64	-21.13	-8.61	-25.97	-8.61	-25.97	-20.86	-15.9
3.01	-14.65	-21.86	-8.62	-26.85	-8.61	-26.85	-20.86	-16.38
3.11	-14.66	-22.6	-8.62	-27.72	-8.62	-27.72	-20.86	-16.92
3.21	-14.67	-23.33	-8.63	-28.6	-8.62	-28.6	-20.87	-17.44
3.31	-14.68	-24.06	-8.63	-29.48	-8.63	-29.48	-20.88	-17.96
3.41	-14.7	-24.79	-8.64	-30.35	-8.64	-30.36	-20.89	-18.43
3.51	-14.7	-25.5	-8.65	-31.22	-8.64	-31.23	-20.9	-18.92
3.61	-14.72	-26.26	-8.65	-32.1	-8.65	-32.11	-20.9	-19.42
3.71	-14.73	-27.02	-8.66	-32.97	-8.66	-32.99	-20.9	-19.98
3.81	-14.74	-27.81	-8.67	-33.86	-8.67	-33.87	-20.91	-20.55
3.91	-14.76	-28.56	-8.68	-34.73	-8.68	-34.74	-20.93	-21.12
4.01	-14.78	-29.26	-8.68	-35.62	-8.68	-35.62	-20.95	-21.6
4.11	-14.79	-30	-8.69	-36.52	-8.69	-36.5	-20.96	-22.06
4.21	-14.8	-30.74	-8.7	-37.38	-8.7	-37.37	-20.96	-22.53
4.31	-14.82	-31.54	-8.7	-38.23	-8.71	-38.24	-20.96	-23.05
4.41	-14.83	-32.36	-8.71	-39.11	-8.72	-39.11	-20.95	-23.61
4.51	-14.85	-33.08	-8.72	-39.97	-8.72	-39.99	-20.97	-24.22
4.61	-14.88	-33.81	-8.73	-40.86	-8.73	-40.87	-20.98	-24.7
4.71	-14.88	-34.49	-8.74	-41.75	-8.74	-41.73	-21.01	-25.18
4.81	-14.89	-35.21	-8.75	-42.63	-8.75	-42.61	-21.02	-25.58
4.91	-14.9	-35.99	-8.76	-43.5	-8.76	-43.48	-21.02	-26
5.01	-14.91	-36.76	-8.76	-44.36	-8.77	-44.34	-21.02	-26.44
5.11	-14.93	-37.53	-8.77	-45.22	-8.78	-45.21	-21.01	-26.99
5.21	-14.95	-38.24	-8.78	-46.09	-8.79	-46.09	-21.02	-27.48
5.31	-14.97	-38.95	-8.8	-46.98	-8.8	-46.96	-21.03	-28.04
5.41	-15	-39.62	-8.8	-47.85	-8.8	-47.83	-21.05	-28.48
5.51	-15.01	-40.29	-8.81	-48.71	-8.81	-48.7	-21.07	-28.84
5.61	-15.02	-41.04	-8.82	-49.59	-8.82	-49.58	-21.07	-29.18
5.71	-15.05	-41.8	-8.83	-50.48	-8.83	-50.44	-21.07	-29.61
5.81	-15.07	-42.58	-8.84	-51.31	-8.84	-51.31	-21.06	-30.05
5.91	-15.1	-43.32	-8.85	-52.19	-8.86	-52.18	-21.06	-30.62
6.01	-15.13	-44.07	-8.86	-53.07	-8.87	-53.06	-21.06	-31.18
6.11	-15.15	-44.73	-8.88	-53.94	-8.88	-53.93	-21.07	-31.67
6.21	-15.16	-45.47	-8.89	-54.81	-8.89	-54.79	-21.08	-32.06
6.31	-15.18	-46.2	-8.9	-55.67	-8.9	-55.65	-21.08	-32.44
6.41	-15.19	-46.98	-8.91	-56.52	-8.91	-56.52	-21.09	-32.86
6.51	-15.2	-47.79	-8.92	-57.37	-8.93	-57.38	-21.08	-33.29
6.61	-15.23	-48.57	-8.94	-58.26	-8.94	-58.23	-21.08	-33.78
6.71	-15.25	-49.33	-8.95	-59.13	-8.95	-59.1	-21.08	-34.3
6.81	-15.27	-50.07	-8.96	-59.98	-8.96	-59.95	-21.09	-34.79
6.91	-15.29	-50.84	-8.97	-60.83	-8.98	-60.81	-21.11	-35.31
7.01	-15.3	-51.61	-8.98	-61.68	-8.99	-61.67	-21.12	-35.71
7.11	-15.32	-52.39	-9	-62.51	-9	-62.52	-21.11	-36.14
7.21	-15.34	-53.19	-9.01	-63.4	-9.02	-63.4	-21.1	-36.5
7.31	-15.35	-53.91	-9.03	-64.29	-9.03	-64.26	-21.08	-37.03
7.41	-15.37	-54.65	-9.04	-65.15	-9.04	-65.11	-21.05	-37.66
7.51	-15.38	-55.46	-9.06	-65.99	-9.06	-65.95	-21.06	-38.24
7.61	-15.4	-56.19	-9.07	-66.85	-9.07	-66.8	-21.08	-38.73
7.71	-15.41	-56.96	-9.08	-67.67	-9.09	-67.64	-21.08	-39.22
7.81	-15.43	-57.74	-9.09	-68.47	-9.1	-68.49	-21.09	-39.68
7.91	-15.45	-58.45	-9.11	-69.35	-9.12	-69.34	-21.08	-40.13
8.01	-15.48	-59.3	-9.13	-70.19	-9.13	-70.18	-21.08	-40.68
8.11	-15.5	-60.12	-9.14	-71.02	-9.15	-71	-21.08	-41.29
8.21	-15.53	-60.92	-9.16	-71.85	-9.16	-71.84	-21.09	-41.94
8.31	-15.56	-61.72	-9.17	-72.71	-9.18	-72.67	-21.1	-42.54
8.41	-15.58	-62.55	-9.18	-73.5	-9.2	-73.47	-21.11	-43.16
8.51	-15.6	-63.42	-9.2	-74.33	-9.21	-74.3	-21.13	-43.76
8.61	-15.61	-64.31	-9.22	-75.15	-9.23	-75.12	-21.14	-44.34
8.71	-15.63	-65.26	-9.23	-75.97	-9.24	-75.91	-21.16	-44.89
8.81	-15.66	-66.15	-9.26	-76.77	-9.26	-76.72	-21.17	-45.46
8.91	-15.69	-67.05	-9.27	-77.57	-9.27	-77.54	-21.19	-46.13
9.01	-15.72	-67.91	-9.28	-78.4	-9.28	-78.31	-21.22	-46.76
9.11	-15.75	-68.82	-9.29	-79.17	-9.3	-79.11	-21.25	-47.3
9.21	-15.78	-69.69	-9.3	-79.97	-9.31	-79.93	-21.29	-47.86
9.31	-15.81	-70.6	-9.32	-80.79	-9.32	-80.72	-21.32	-48.42
9.41	-15.83	-71.49	-9.32	-81.57	-9.33	-81.51	-21.36	-48.94
9.51	-15.86	-72.35	-9.34	-82.38	-9.34	-82.33	-21.4	-49.43
9.61	-15.9	-73.27	-9.35	-83.19	-9.35	-83.12	-21.43	-49.82
9.71	-15.93	-74.17	-9.36	-83.97	-9.36	-83.92	-21.47	-50.3
9.81	-15.97	-75.04	-9.36	-84.75	-9.37	-84.73	-21.52	-50.7
9.91	-16	-75.84	-9.37	-85.57	-9.38	-85.52	-21.57	-51.13
10.01	-16.03	-76.66	-9.38	-86.39	-9.39	-86.32	-21.61	-51.54
10.11	-16.06	-77.49	-9.39	-87.21	-9.4	-87.11	-21.67	-51.94
10.21	-16.09	-78.36	-9.4	-87.98	-9.4	-87.94	-21.73	-52.29
10.31	-16.14	-79.23	-9.41	-88.79	-9.41	-88.73	-21.77	-52.54
10.41	-16.18	-80.08	-9.41	-89.6	-9.42	-89.55	-21.81	-52.72
10.51	-16.23	-80.91	-9.43	-90.39	-9.43	-90.37	-21.85	-52.93
10.61	-16.28	-81.84	-9.43	-91.23	-9.43	-91.19	-21.89	-53.19
10.71	-16.33	-82.63	-9.43	-92.09	-9.44	-91.99	-21.92	-53.51
10.81	-16.37	-83.47	-9.44	-92.92	-9.44	-92.81	-21.97	-53.74
10.91	-16.41	-84.44	-9.45	-93.75	-9.45	-93.64	-22.02	-54.03
11.01	-16.47	-85.23	-9.45	-94.57	-9.46	-94.49	-22.08	-54.14
11.11	-16.5	-86.06	-9.46	-95.38	-9.47	-95.34	-22.11	-54.27
11.21	-16.55	-86.93	-9.48	-96.2	-9.48	-96.17	-22.14	-54.43
11.31	-16.59	-87.7	-9.49	-97.03	-9.48	-97	-22.15	-54.54
11.41	-16.62	-88.59	-9.49	-97.89	-9.49	-97.83	-22.17	-54.79
11.51	-16.65	-89.37	-9.5	-98.76	-9.5	-98.63	-22.2	-54.95
11.61	-16.69	-90.22	-9.51	-99.58	-9.5	-99.45	-22.24	-55.21
11.71	-16.72	-91.07	-9.5	-100.4	-9.52	-100.32	-22.27	-55.51
11.81	-16.76	-91.95	-9.51	-101.21	-9.53	-101.13	-22.32	-55.51
11.91	-16.82	-92.77	-9.53	-102.06	-9.53	-101.99	-22.33	-55.39
12.01	-16.84	-93.59	-9.54	-102.86	-9.54	-102.88	-22.32	-55.57
12.11	-16.86	-94.4	-9.55	-103.74	-9.55	-103.68	-22.33	-55.7
12.21	-16.89	-95.21	-9.57	-104.57	-9.55	-104.5	-22.33	-55.88
12.31	-16.92	-96.03	-9.57	-105.47	-9.57	-105.35	-22.34	-56.14
12.41	-16.94	-96.98	-9.57	-106.35	-9.58	-106.16	-22.35	-56.44
12.51	-16.99	-97.83	-9.59	-107.16	-9.6	-106.99	-22.4	-56.67
12.61	-17.01	-98.66	-9.59	-107.94	-9.61	-107.85	-22.42	-56.71
12.71	-17.07	-99.55	-9.6	-108.76	-9.61	-108.7	-22.44	-56.73
12.81	-17.13	-100.29	-9.61	-109.58	-9.62	-109.59	-22.44	-56.5
12.91	-17.18	-101.03	-9.63	-110.44	-9.63	-110.38	-22.41	-56.59
13.01	-17.2	-101.89	-9.64	-111.32	-9.63	-111.24	-22.4	-56.55
13.11	-17.26	-102.62	-9.65	-112.23	-9.65	-112.12	-22.38	-56.9
13.21	-17.26	-103.44	-9.68	-113.06	-9.68	-112.86	-22.4	-57.22
13.31	-17.3	-104.5	-9.67	-113.82	-9.68	-113.67	-22.45	-57.21
13.41	-17.33	-105.48	-9.68	-114.65	-9.69	-114.58	-22.43	-57.2
13.51	-17.38	-106.48	-9.69	-115.49	-9.71	-115.39	-22.44	-57.51
13.61	-17.41	-107.33	-9.7	-116.28	-9.71	-116.24	-22.43	-57.47
13.71	-17.45	-108.27	-9.7	-117.11	-9.71	-117.07	-22.43	-57.55
13.81	-17.47	-109.1	-9.73	-118.03	-9.73	-117.96	-22.41	-57.65
13.91	-17.52	-109.97	-9.74	-118.92	-9.74	-118.73	-22.4	-57.96
14.01	-17.53	-110.89	-9.75	-119.78	-9.75	-119.61	-22.39	-58.13
14.11	-17.55	-111.9	-9.76	-120.59	-9.77	-120.43	-22.44	-58.46
14.21	-17.59	-112.91	-9.77	-121.45	-9.79	-121.26	-22.46	-58.46
14.31	-17.65	-113.9	-9.78	-122.22	-9.79	-122.12	-22.45	-58.36
14.41	-17.69	-114.6	-9.79	-123.04	-9.8	-122.98	-22.44	-58.34
14.51	-17.72	-115.49	-9.81	-123.96	-9.81	-123.86	-22.41	-58.44
14.61	-17.73	-116.25	-9.83	-124.81	-9.82	-124.67	-22.38	-58.6
14.71	-17.75	-117.18	-9.84	-125.66	-9.83	-125.44	-22.33	-58.87
14.81	-17.75	-117.98	-9.85	-126.54	-9.85	-126.31	-22.33	-59.18
14.91	-17.74	-118.98	-9.87	-127.38	-9.87	-127.17	-22.35	-59.41
15.01	-17.79	-120	-9.87	-128.16	-9.89	-127.96	-22.36	-59.34
15.11	-17.83	-121.01	-9.88	-128.98	-9.89	-128.87	-22.33	-59.44
15.21	-17.89	-121.7	-9.9	-129.8	-9.9	-129.73	-22.29	-59.38
15.31	-17.92	-122.39	-9.93	-130.67	-9.91	-130.52	-22.25	-59.58
15.41	-17.93	-123.18	-9.95	-131.49	-9.93	-131.35	-22.25	-59.71
15.51	-17.94	-124.13	-9.97	-132.32	-9.94	-132.13	-22.21	-59.87
15.61	-17.95	-125.35	-9.98	-133.2	-9.97	-132.98	-22.2	-60.3
15.71	-17.98	-126.49	-9.98	-134.03	-9.98	-133.77	-22.23	-60.51
15.81	-18.02	-127.58	-10	-134.82	-10	-134.62	-22.22	-60.66
15.91	-18.06	-128.6	-10.01	-135.64	-10.01	-135.53	-22.21	-60.78
16.01	-18.12	-129.51	-10.03	-136.43	-10.02	-136.34	-22.2	-60.94
16.11	-18.14	-130.33	-10.05	-137.19	-10.04	-137.12	-22.18	-61.09
16.21	-18.15	-131.13	-10.07	-138.07	-10.04	-137.95	-22.18	-61.59
16.31	-18.13	-132	-10.09	-138.89	-10.07	-138.67	-22.18	-61.55
16.41	-18.12	-133.16	-10.09	-139.66	-10.08	-139.42	-22.16	-61.87
16.51	-18.14	-134.42	-10.11	-140.53	-10.09	-140.32	-22.16	-62.21
16.61	-18.19	-135.47	-10.12	-141.38	-10.11	-141.16	-22.16	-62.5
16.71	-18.19	-136.41	-10.14	-142.04	-10.12	-141.98	-22.23	-62.98
16.81	-18.24	-137.3	-10.15	-142.89	-10.12	-142.83	-22.29	-62.59
16.91	-18.25	-138.04	-10.19	-143.68	-10.13	-143.61	-22.36	-62.27
17.01	-18.21	-138.79	-10.2	-144.4	-10.15	-144.37	-22.28	-61.38
17.11	-18.17	-139.89	-10.22	-145.19	-10.16	-145.13	-22.12	-60.73
17.21	-18.15	-141.16	-10.22	-145.87	-10.18	-145.95	-21.8	-62.09
17.31	-18.18	-142.51	-10.22	-146.63	-10.2	-146.8	-21.89	-64.19
17.41	-18.22	-143.64	-10.19	-147.3	-10.21	-147.62	-22.21	-65.44
17.51	-18.27	-144.54	-10.19	-148.21	-10.21	-148.48	-22.47	-63.63
17.61	-18.32	-145.26	-10.18	-148.89	-10.21	-149.26	-22.38	-61.44
17.71	-18.33	-145.96	-10.18	-149.92	-10.22	-150.04	-22.02	-61.21
17.81	-18.31	-146.82	-10.2	-150.77	-10.22	-150.8	-21.83	-62.49
17.91	-18.32	-147.93	-10.2	-151.82	-10.24	-151.67	-21.98	-64.22
18.01	-18.35	-149.45	-10.22	-152.74	-10.26	-152.52	-22.19	-64.19
18.11	-18.42	-150.41	-10.23	-153.59	-10.27	-153.3	-22.31	-63.15
18.21	-18.44	-151.54	-10.25	-154.38	-10.28	-154.2	-22.25	-62.11
18.31	-18.47	-152.56	-10.24	-155.23	-10.27	-155.05	-22.15	-61.41
18.41	-18.48	-153.45	-10.27	-156.04	-10.28	-155.92	-21.96	-61.88
18.51	-18.45	-154.48	-10.29	-156.84	-10.29	-156.68	-21.97	-62.11
18.61	-18.44	-155.4	-10.32	-157.77	-10.31	-157.46	-21.92	-62.81
18.71	-18.38	-156.39	-10.32	-158.55	-10.31	-158.3	-21.96	-63.15
18.81	-18.38	-157.92	-10.31	-159.46	-10.33	-159.18	-22.03	-63.23
18.91	-18.42	-159.04	-10.33	-160.37	-10.33	-160.1	-22.12	-62.67
19.01	-18.45	-160.18	-10.33	-161.16	-10.35	-161.01	-22.03	-62.04
19.11	-18.46	-161.07	-10.34	-161.93	-10.36	-161.83	-21.96	-61.96
19.21	-18.47	-161.92	-10.37	-162.83	-10.36	-162.63	-21.87	-62.14
19.31	-18.43	-163.09	-10.38	-163.65	-10.36	-163.5	-21.92	-62.48
19.41	-18.43	-164.24	-10.4	-164.62	-10.39	-164.41	-21.94	-61.87
19.51	-18.41	-165.35	-10.43	-165.5	-10.41	-165.22	-21.9	-61.39
19.61	-18.46	-166.75	-10.43	-166.35	-10.44	-166.08	-21.76	-61.35
19.71	-18.5	-167.51	-10.44	-167.18	-10.45	-166.95	-21.74	-61.66
19.81	-18.55	-168.45	-10.45	-167.94	-10.45	-167.8	-21.65	-61.57
19.91	-18.56	-169.07	-10.45	-168.8	-10.46	-168.67	-21.63	-61.52
20.01	-18.55	-169.91	-10.48	-169.66	-10.46	-169.51	-21.53	-60.97