!s2p File: Measurements: S11, S21, S12, S22								
# GHz S dB R 50.0								
0.01	-25.37	-0.28	-33.37	-0.09	-33.38	-0.48	-49.99	-24.61
0.11	-25.55	-1.51	-33.5	-1.26	-33.49	-1.27	-47.61	-127.92
0.21	-25.61	-1.85	-33.54	-1.73	-33.53	-1.77	-46.57	-158.98
0.31	-25.62	-2.34	-33.56	-2.29	-33.56	-2.24	-46.18	-174.79
0.41	-25.62	-2.91	-33.58	-2.8	-33.57	-2.82	-45.8	174.2
0.51	-25.62	-3.43	-33.59	-3.28	-33.58	-3.37	-45.46	165.44
0.61	-25.62	-3.99	-33.58	-3.89	-33.59	-3.86	-45.01	158.67
0.71	-25.61	-4.58	-33.58	-4.41	-33.6	-4.48	-44.68	151.99
0.81	-25.62	-5.16	-33.59	-5.05	-33.59	-5.02	-44.33	146.68
0.91	-25.63	-5.79	-33.59	-5.57	-33.6	-5.56	-43.81	141.82
1.01	-25.63	-6.39	-33.6	-6.17	-33.6	-6.17	-43.4	137.04
1.11	-25.64	-7.01	-33.6	-6.77	-33.6	-6.76	-43.07	132.93
1.21	-25.65	-7.67	-33.6	-7.38	-33.61	-7.27	-42.66	129.18
1.31	-25.66	-8.43	-33.61	-7.96	-33.61	-7.89	-42.33	126
1.41	-25.68	-9.19	-33.62	-8.51	-33.62	-8.52	-41.94	123.64
1.51	-25.71	-9.9	-33.62	-9.13	-33.62	-9.08	-41.43	120.56
1.61	-25.69	-10.51	-33.63	-9.7	-33.63	-9.69	-41.03	117.52
1.71	-25.67	-11.31	-33.63	-10.24	-33.63	-10.31	-40.78	114.91
1.81	-25.67	-12.3	-33.63	-10.86	-33.62	-10.89	-40.58	112.7
1.91	-25.69	-13.09	-33.64	-11.53	-33.63	-11.42	-40.27	110.94
2.01	-25.71	-13.88	-33.65	-12.09	-33.64	-12.07	-39.96	109.43
2.11	-25.72	-14.59	-33.66	-12.69	-33.66	-12.62	-39.65	107.7
2.21	-25.73	-15.39	-33.66	-13.28	-33.66	-13.22	-39.32	105.85
2.31	-25.75	-16.13	-33.66	-13.82	-33.66	-13.83	-39.05	104.17
2.41	-25.76	-16.98	-33.68	-14.45	-33.67	-14.46	-38.74	102.48
2.51	-25.79	-17.65	-33.68	-14.93	-33.69	-14.97	-38.5	101.17
2.61	-25.83	-18.34	-33.7	-15.58	-33.69	-15.54	-38.17	100.08
2.71	-25.85	-18.89	-33.7	-16.16	-33.69	-16.15	-37.9	98.57
2.81	-25.89	-19.46	-33.71	-16.77	-33.7	-16.81	-37.57	97.6
2.91	-25.91	-20.1	-33.72	-17.4	-33.72	-17.33	-37.3	96.39
3.01	-25.93	-20.86	-33.73	-17.89	-33.72	-17.93	-37.01	94.9
3.11	-25.97	-21.6	-33.73	-18.54	-33.73	-18.52	-36.79	93.78
3.21	-26.01	-22.39	-33.74	-19.15	-33.74	-19.14	-36.51	92.6
3.31	-26.06	-23.13	-33.75	-19.72	-33.75	-19.67	-36.26	91.65
3.41	-26.1	-23.83	-33.76	-20.33	-33.76	-20.23	-36.01	90.52
3.51	-26.13	-24.54	-33.78	-20.88	-33.76	-20.87	-35.74	89.5
3.61	-26.16	-25.39	-33.78	-21.46	-33.78	-21.5	-35.54	88.37
3.71	-26.21	-26.22	-33.79	-22.12	-33.81	-22.04	-35.36	87.71
3.81	-26.27	-27.2	-33.81	-22.65	-33.8	-22.67	-35.21	86.69
3.91	-26.34	-27.97	-33.82	-23.23	-33.82	-23.24	-35.01	86.38
4.01	-26.4	-28.64	-33.82	-23.8	-33.82	-23.82	-34.75	85.47
4.11	-26.42	-29.33	-33.84	-24.41	-33.84	-24.37	-34.51	84.75
4.21	-26.44	-30.15	-33.85	-24.98	-33.85	-24.99	-34.29	83.31
4.31	-26.48	-31.23	-33.87	-25.58	-33.86	-25.64	-34.15	82.31
4.41	-26.56	-32.28	-33.87	-26.2	-33.89	-26.17	-34.03	81.48
4.51	-26.64	-33.09	-33.91	-26.68	-33.91	-26.7	-33.92	80.85
4.61	-26.73	-33.72	-33.92	-27.29	-33.91	-27.24	-33.75	80.49
4.71	-26.75	-34.24	-33.92	-27.85	-33.93	-27.91	-33.52	80.05
4.81	-26.75	-34.95	-33.95	-28.46	-33.95	-28.42	-33.29	79.19
4.91	-26.75	-35.96	-33.96	-29.04	-33.96	-29.07	-33.09	78.02
5.01	-26.79	-37.04	-33.96	-29.72	-33.97	-29.65	-32.91	77.05
5.11	-26.88	-38.06	-33.99	-30.14	-34	-30.22	-32.8	75.95
5.21	-26.98	-38.84	-34.01	-30.7	-34.01	-30.81	-32.67	75.37
5.31	-27.07	-39.47	-34.04	-31.34	-34.03	-31.37	-32.55	74.98
5.41	-27.15	-39.94	-34.04	-31.99	-34.05	-31.87	-32.36	74.7
5.51	-27.19	-40.53	-34.08	-32.55	-34.06	-32.58	-32.12	74.22
5.61	-27.25	-41.49	-34.1	-33.13	-34.11	-33.09	-31.91	73.22
5.71	-27.33	-42.49	-34.13	-33.71	-34.13	-33.68	-31.75	72.29
5.81	-27.44	-43.55	-34.13	-34.27	-34.13	-34.22	-31.6	71.21
5.91	-27.57	-44.46	-34.16	-34.84	-34.17	-34.84	-31.52	70.41
6.01	-27.69	-45.25	-34.19	-35.39	-34.21	-35.41	-31.43	69.84
6.11	-27.79	-45.93	-34.23	-36.01	-34.23	-36.03	-31.29	69.32
6.21	-27.84	-46.61	-34.25	-36.55	-34.26	-36.51	-31.12	68.7
6.31	-27.89	-47.52	-34.3	-37.1	-34.28	-37.1	-30.94	67.89
6.41	-27.96	-48.59	-34.33	-37.71	-34.32	-37.59	-30.77	67.22
6.51	-28.03	-49.68	-34.36	-38.07	-34.34	-38.06	-30.63	66.21
6.61	-28.16	-50.8	-34.37	-38.69	-34.38	-38.68	-30.52	65.5
6.71	-28.27	-51.77	-34.41	-39.18	-34.41	-39.11	-30.42	64.87
6.81	-28.37	-52.61	-34.44	-39.68	-34.44	-39.66	-30.31	64.33
6.91	-28.44	-53.52	-34.46	-40.19	-34.49	-40.1	-30.19	63.96
7.01	-28.51	-54.4	-34.49	-40.79	-34.51	-40.71	-30.04	63.3
7.11	-28.57	-55.52	-34.55	-41.21	-34.54	-41.15	-29.9	62.51
7.21	-28.67	-56.62	-34.56	-41.69	-34.57	-41.58	-29.75	61.44
7.31	-28.76	-57.57	-34.61	-42.49	-34.59	-42.47	-29.68	60.42
7.41	-28.86	-58.43	-34.72	-42.99	-34.7	-42.94	-29.61	59.39
7.51	-28.95	-59.3	-34.74	-43.13	-34.73	-43.12	-29.56	58.79
7.61	-29.05	-60.11	-34.77	-43.59	-34.78	-43.48	-29.45	58.37
7.71	-29.13	-61.03	-34.8	-43.97	-34.83	-43.83	-29.33	57.68
7.81	-29.22	-61.86	-34.85	-44.36	-34.87	-44.29	-29.22	57.11
7.91	-29.36	-62.79	-34.91	-44.77	-34.91	-44.68	-29.1	56.3
8.01	-29.51	-63.97	-34.95	-45.1	-34.96	-45.04	-29.01	55.5
8.11	-29.66	-64.95	-35	-45.45	-35.02	-45.32	-28.97	54.96
8.21	-29.83	-66.02	-35.05	-45.78	-35.04	-45.86	-28.93	54.28
8.31	-29.98	-67.01	-35.1	-46.11	-35.1	-46.03	-28.88	53.79
8.41	-30.07	-68.13	-35.13	-46.35	-35.17	-46.32	-28.8	53.25
8.51	-30.18	-69.39	-35.23	-46.47	-35.22	-46.46	-28.74	52.7
8.61	-30.25	-70.8	-35.26	-46.52	-35.27	-46.43	-28.68	52.12
8.71	-30.33	-72.52	-35.28	-46.59	-35.28	-46.56	-28.61	51.53
8.81	-30.46	-74.02	-35.32	-46.72	-35.32	-46.77	-28.55	50.99
8.91	-30.6	-75.7	-35.34	-46.91	-35.33	-46.86	-28.52	50.44
9.01	-30.77	-77.06	-35.37	-47.12	-35.38	-46.94	-28.49	50.13
9.11	-30.91	-78.56	-35.41	-47.09	-35.42	-46.89	-28.42	49.76
9.21	-31.04	-79.89	-35.42	-46.97	-35.43	-46.99	-28.37	49.41
9.31	-31.14	-81.2	-35.42	-47.1	-35.42	-47.05	-28.32	49.1
9.41	-31.21	-82.63	-35.44	-47.13	-35.44	-47.12	-28.26	48.75
9.51	-31.26	-84.27	-35.46	-47.05	-35.45	-47.06	-28.19	48.42
9.61	-31.42	-86.04	-35.43	-47.2	-35.42	-47.07	-28.12	48.04
9.71	-31.52	-87.72	-35.43	-47.23	-35.43	-47.04	-28.05	47.74
9.81	-31.67	-89.33	-35.38	-47.15	-35.4	-47.09	-27.98	47.51
9.91	-31.78	-90.48	-35.37	-47.31	-35.37	-47.23	-27.91	47.39
10.01	-31.86	-91.72	-35.37	-47.43	-35.38	-47.33	-27.84	47.14
10.11	-31.95	-92.94	-35.35	-47.38	-35.34	-47.34	-27.77	47.15
10.21	-32.04	-94.72	-35.33	-47.31	-35.31	-47.23	-27.67	47.11
10.31	-32.14	-96.46	-35.26	-47.57	-35.25	-47.47	-27.56	46.9
10.41	-32.28	-98.41	-35.23	-47.75	-35.23	-47.58	-27.44	46.65
10.51	-32.49	-100.49	-35.17	-47.73	-35.18	-47.68	-27.32	46.26
10.61	-32.66	-102.74	-35.11	-47.96	-35.11	-47.87	-27.23	45.98
10.71	-32.83	-104.62	-35.07	-48.39	-35.06	-48.33	-27.14	45.74
10.81	-32.95	-106.67	-35.03	-48.77	-35.02	-48.67	-27.04	45.66
10.91	-33.07	-109.08	-35.02	-49.01	-35	-48.9	-26.94	45.58
11.01	-33.21	-111.41	-34.94	-49.25	-34.93	-49.17	-26.79	45.58
11.11	-33.31	-113.61	-34.89	-49.57	-34.91	-49.56	-26.68	45.17
11.21	-33.41	-115.92	-34.87	-50	-34.86	-49.93	-26.57	44.77
11.31	-33.54	-117.69	-34.83	-50.34	-34.82	-50.2	-26.44	44.27
11.41	-33.64	-119.92	-34.8	-50.47	-34.79	-50.49	-26.37	43.72
11.51	-33.65	-121.78	-34.75	-51.09	-34.73	-50.83	-26.28	43.51
11.61	-33.64	-123.71	-34.7	-51.25	-34.66	-51.24	-26.18	43.32
11.71	-33.66	-126.19	-34.65	-51.68	-34.68	-51.58	-26.09	43.03
11.81	-33.69	-129.19	-34.6	-52.13	-34.62	-51.93	-25.95	42.87
11.91	-33.82	-131.85	-34.56	-52.57	-34.55	-52.39	-25.79	42.33
12.01	-33.81	-134.11	-34.51	-53.06	-34.5	-53.01	-25.72	41.61
12.11	-33.76	-135.91	-34.55	-53.6	-34.53	-53.73	-25.6	41.2
12.21	-33.76	-137.79	-34.54	-53.69	-34.49	-53.61	-25.51	40.56
12.31	-33.74	-140.03	-34.45	-54.12	-34.45	-53.99	-25.45	39.99
12.41	-33.62	-142.21	-34.39	-54.75	-34.41	-54.61	-25.38	39.49
12.51	-33.66	-145.28	-34.37	-55.13	-34.39	-54.86	-25.29	39.39
12.61	-33.59	-147.66	-34.31	-55.41	-34.32	-55.37	-25.19	39.13
12.71	-33.68	-150.94	-34.28	-56.04	-34.29	-55.89	-25.06	38.83
12.81	-33.78	-153.89	-34.3	-56.04	-34.29	-56.04	-24.87	38.02
12.91	-33.95	-156.31	-34.2	-56.64	-34.19	-56.67	-24.81	37.29
13.01	-33.9	-158.26	-34.23	-57.19	-34.24	-56.95	-24.67	36.58
13.11	-33.93	-160.74	-34.18	-57.65	-34.17	-57.45	-24.62	35.87
13.21	-33.87	-162.55	-34.2	-57.41	-34.2	-57.2	-24.57	35.39
13.31	-33.57	-165.32	-34.06	-57.9	-34.07	-57.7	-24.48	35.3
13.41	-33.43	-168.05	-33.99	-58.12	-34.01	-58	-24.35	34.67
13.51	-33.28	-171.15	-33.92	-59.06	-33.95	-58.77	-24.32	34.22
13.61	-33.16	-173.51	-33.92	-59.36	-33.93	-59.29	-24.18	33.54
13.71	-33.16	-176.07	-33.85	-59.73	-33.86	-59.64	-24.11	33.1
13.81	-33.05	-177.11	-33.81	-60.31	-33.81	-60.17	-24.03	32.41
13.91	-32.9	-178.9	-33.78	-60.82	-33.76	-60.63	-23.99	31.83
14.01	-32.65	179.9	-33.73	-61.6	-33.71	-61.46	-23.92	31.24
14.11	-32.35	177.58	-33.7	-61.99	-33.71	-61.7	-23.87	31.15
14.21	-32.12	175.24	-33.67	-62.03	-33.68	-61.67	-23.76	30.76
14.31	-31.97	171.91	-33.55	-62.49	-33.55	-62.33	-23.67	30.16
14.41	-31.95	170.21	-33.5	-63.35	-33.51	-63.3	-23.56	29.77
14.51	-31.85	167.78	-33.49	-63.82	-33.5	-63.73	-23.48	28.92
14.61	-31.85	166.75	-33.48	-64.34	-33.45	-64.16	-23.43	28.14
14.71	-31.7	166.18	-33.37	-64.78	-33.36	-64.7	-23.39	27.37
14.81	-31.55	165.57	-33.36	-65.71	-33.35	-65.39	-23.36	26.98
14.91	-31.28	164.91	-33.37	-66.23	-33.36	-66.01	-23.31	26.65
15.01	-31.04	162.43	-33.32	-66.22	-33.34	-65.95	-23.19	26.34
15.11	-30.9	159.99	-33.24	-66.68	-33.25	-66.6	-23.14	25.57
15.21	-30.86	157.88	-33.18	-67.4	-33.18	-67.14	-23.02	24.9
15.31	-30.94	155.98	-33.16	-67.9	-33.17	-67.69	-22.99	24.18
15.41	-30.86	154.87	-33.17	-67.95	-33.13	-67.79	-22.92	23.71
15.51	-30.73	154.25	-33.06	-68.44	-33.03	-68.16	-22.87	23.06
15.61	-30.41	153.36	-33	-68.77	-32.98	-68.48	-22.85	22.52
15.71	-30.07	151.9	-32.9	-69.75	-32.92	-69.41	-22.81	22.28
15.81	-29.77	150.01	-32.92	-70.2	-32.89	-70.14	-22.74	21.92
15.91	-29.52	147.86	-32.87	-70.48	-32.89	-70.33	-22.67	21.18
16.01	-29.47	145.21	-32.79	-70.56	-32.78	-70.55	-22.64	20.57
16.11	-29.44	143.56	-32.72	-70.66	-32.7	-70.61	-22.59	19.91
16.21	-29.46	142.33	-32.57	-71.5	-32.53	-71.33	-22.62	19.4
16.31	-29.41	142.67	-32.52	-72.28	-32.48	-71.99	-22.57	19.08
16.41	-29.14	142.28	-32.42	-72.91	-32.4	-72.61	-22.54	18.69
16.51	-28.83	140.98	-32.35	-73.61	-32.34	-73.4	-22.52	18.09
16.61	-28.68	139.07	-32.27	-74.34	-32.25	-74.13	-22.51	17.73
16.71	-28.6	137.66	-32.18	-74.9	-32.17	-74.9	-22.6	17.8
16.81	-28.57	136.31	-32.18	-75.42	-32.15	-75.33	-22.46	18.14
16.91	-28.59	135.21	-32.07	-75.52	-32	-75.39	-22.38	18.39
17.01	-28.65	136.25	-31.93	-76.6	-31.86	-76.72	-22.15	17.79
17.11	-28.42	136.63	-31.89	-77.53	-31.82	-77.49	-21.95	16.47
17.21	-28.11	136.29	-31.79	-78.22	-31.75	-78.31	-22.07	13.29
17.31	-27.83	134.86	-31.76	-78.38	-31.71	-78.67	-22.44	13.4
17.41	-27.73	132.85	-31.55	-78.94	-31.57	-79.4	-22.72	16.09
17.51	-27.69	131.31	-31.44	-80.41	-31.48	-80.8	-22.29	18.59
17.61	-27.74	129.61	-31.33	-80.56	-31.38	-80.98	-21.8	18.18
17.71	-27.88	128.9	-31.15	-81.97	-31.24	-82.26	-21.57	15.03
17.81	-27.86	128.97	-31.09	-83.06	-31.15	-83.3	-21.7	13.03
17.91	-27.73	128.76	-31.05	-84.3	-31.09	-84.18	-21.97	13.19
18.01	-27.39	127.85	-30.94	-85.28	-31	-85.13	-22	14.7
18.11	-27.25	125.62	-30.89	-86.14	-30.93	-85.84	-21.72	15.78
18.21	-27.21	124.53	-30.79	-87.59	-30.82	-87.29	-21.5	14.99
18.31	-27.13	123.38	-30.74	-88.77	-30.75	-88.56	-21.3	14.38
18.41	-27.19	122.76	-30.65	-89.23	-30.69	-89.22	-21.31	12.38
18.51	-27.23	122.99	-30.55	-91.04	-30.54	-90.85	-21.35	12.4
18.61	-27.09	123.39	-30.58	-92.05	-30.56	-91.75	-21.42	11.94
18.71	-27.04	124	-30.46	-92.98	-30.47	-92.63	-21.41	12.31
18.81	-26.78	123.57	-30.31	-94.14	-30.34	-93.78	-21.37	12.49
18.91	-26.69	122.28	-30.23	-95.33	-30.23	-95.02	-21.26	13.02
19.01	-26.63	121.68	-30.15	-97	-30.18	-96.77	-21.09	12.56
19.11	-26.6	121.53	-30.17	-98.32	-30.21	-98.34	-21.01	12.14
19.21	-26.62	121.22	-30.11	-98.86	-30.11	-98.72	-20.96	11.21
19.31	-26.58	121.62	-29.9	-100.82	-29.89	-100.72	-21.03	11.45
19.41	-26.41	122.19	-30	-103.02	-29.99	-102.78	-20.89	11.98
19.51	-26.32	122.25	-29.95	-104.26	-29.93	-103.96	-20.77	12.08
19.61	-26.1	121.51	-29.98	-105.3	-29.99	-104.95	-20.62	11.16
19.71	-26.07	120.54	-29.9	-105.92	-29.92	-105.65	-20.63	10.78
19.81	-26.17	119.52	-29.61	-107.7	-29.6	-107.51	-20.55	10.49
19.91	-26.27	119.99	-29.68	-110.24	-29.69	-110.15	-20.44	10.63
20.01	-26.31	121.61	-29.76	-112.4	-29.73	-112.27	-20.28	10.34
