!s2p File: Measurements: S11, S21, S12, S22								
# GHz S dB R 50.0								
0.01	-12.75	-1.35	-2.39	-0.49	-2.39	-0.48	-12.86	-1.53
0.11	-13.16	-2.37	-2.51	-1.47	-2.51	-1.47	-13.33	-2.65
0.21	-13.25	-2.94	-2.54	-2.34	-2.54	-2.34	-13.43	-3.32
0.31	-13.28	-3.66	-2.55	-3.26	-2.55	-3.25	-13.46	-4.12
0.41	-13.3	-4.41	-2.56	-4.19	-2.55	-4.18	-13.48	-5.02
0.51	-13.31	-5.23	-2.56	-5.13	-2.56	-5.13	-13.49	-5.98
0.61	-13.32	-6.04	-2.57	-6.08	-2.56	-6.08	-13.5	-6.94
0.71	-13.33	-6.92	-2.57	-7.04	-2.57	-7.03	-13.51	-7.94
0.81	-13.34	-7.76	-2.57	-8	-2.57	-7.99	-13.52	-8.94
0.91	-13.34	-8.64	-2.58	-8.95	-2.57	-8.94	-13.52	-9.96
1.01	-13.36	-9.51	-2.58	-9.91	-2.58	-9.9	-13.53	-10.98
1.11	-13.36	-10.4	-2.58	-10.86	-2.58	-10.86	-13.53	-12.01
1.21	-13.38	-11.29	-2.59	-11.82	-2.59	-11.82	-13.54	-13.06
1.31	-13.39	-12.22	-2.59	-12.78	-2.59	-12.78	-13.55	-14.12
1.41	-13.4	-13.14	-2.6	-13.75	-2.6	-13.75	-13.56	-15.19
1.51	-13.42	-14.07	-2.61	-14.72	-2.6	-14.71	-13.57	-16.21
1.61	-13.43	-14.97	-2.61	-15.67	-2.61	-15.67	-13.58	-17.27
1.71	-13.43	-15.89	-2.62	-16.63	-2.61	-16.62	-13.59	-18.32
1.81	-13.44	-16.86	-2.62	-17.58	-2.62	-17.58	-13.6	-19.42
1.91	-13.46	-17.79	-2.63	-18.54	-2.63	-18.54	-13.62	-20.49
2.01	-13.48	-18.74	-2.64	-19.51	-2.63	-19.5	-13.64	-21.58
2.11	-13.49	-19.64	-2.64	-20.46	-2.64	-20.45	-13.65	-22.63
2.21	-13.51	-20.58	-2.65	-21.41	-2.65	-21.41	-13.67	-23.7
2.31	-13.53	-21.49	-2.66	-22.36	-2.66	-22.36	-13.69	-24.74
2.41	-13.55	-22.42	-2.67	-23.31	-2.66	-23.31	-13.71	-25.8
2.51	-13.57	-23.32	-2.67	-24.26	-2.67	-24.26	-13.73	-26.83
2.61	-13.59	-24.23	-2.68	-25.22	-2.68	-25.21	-13.75	-27.88
2.71	-13.61	-25.09	-2.69	-26.16	-2.69	-26.16	-13.77	-28.9
2.81	-13.65	-25.96	-2.7	-27.11	-2.7	-27.1	-13.79	-29.94
2.91	-13.66	-26.84	-2.71	-28.05	-2.7	-28.04	-13.82	-30.95
3.01	-13.69	-27.74	-2.72	-29	-2.71	-28.99	-13.84	-31.97
3.11	-13.71	-28.64	-2.72	-29.94	-2.72	-29.94	-13.86	-33
3.21	-13.75	-29.55	-2.73	-30.88	-2.73	-30.88	-13.89	-34.04
3.31	-13.77	-30.46	-2.74	-31.83	-2.74	-31.82	-13.92	-35.08
3.41	-13.81	-31.36	-2.75	-32.77	-2.75	-32.77	-13.94	-36.11
3.51	-13.83	-32.23	-2.76	-33.7	-2.76	-33.71	-13.97	-37.13
3.61	-13.86	-33.16	-2.77	-34.65	-2.77	-34.66	-13.99	-38.14
3.71	-13.89	-34.05	-2.78	-35.59	-2.78	-35.59	-14.02	-39.17
3.81	-13.93	-35.01	-2.79	-36.53	-2.79	-36.54	-14.05	-40.21
3.91	-13.96	-35.9	-2.8	-37.48	-2.8	-37.48	-14.08	-41.27
4.01	-14	-36.79	-2.81	-38.42	-2.81	-38.42	-14.12	-42.3
4.11	-14.03	-37.66	-2.82	-39.36	-2.82	-39.35	-14.15	-43.33
4.21	-14.06	-38.57	-2.83	-40.29	-2.83	-40.29	-14.18	-44.31
4.31	-14.09	-39.48	-2.84	-41.2	-2.84	-41.23	-14.21	-45.31
4.41	-14.13	-40.46	-2.85	-42.14	-2.85	-42.16	-14.24	-46.33
4.51	-14.17	-41.32	-2.86	-43.08	-2.86	-43.1	-14.27	-47.39
4.61	-14.21	-42.23	-2.88	-44.03	-2.87	-44.04	-14.31	-48.38
4.71	-14.25	-43.02	-2.88	-44.98	-2.89	-44.97	-14.35	-49.39
4.81	-14.28	-43.86	-2.9	-45.93	-2.9	-45.9	-14.4	-50.35
4.91	-14.3	-44.73	-2.91	-46.85	-2.91	-46.82	-14.43	-51.31
5.01	-14.34	-45.63	-2.92	-47.75	-2.92	-47.76	-14.46	-52.24
5.11	-14.38	-46.52	-2.93	-48.67	-2.93	-48.67	-14.49	-53.24
5.21	-14.43	-47.38	-2.95	-49.61	-2.95	-49.61	-14.53	-54.21
5.31	-14.47	-48.19	-2.96	-50.56	-2.96	-50.55	-14.57	-55.23
5.41	-14.52	-49.01	-2.97	-51.5	-2.97	-51.47	-14.62	-56.2
5.51	-14.56	-49.77	-2.99	-52.42	-2.98	-52.39	-14.66	-57.13
5.61	-14.59	-50.65	-3	-53.35	-3	-53.33	-14.7	-58.02
5.71	-14.63	-51.5	-3.01	-54.28	-3.01	-54.25	-14.74	-58.97
5.81	-14.68	-52.42	-3.02	-55.18	-3.02	-55.17	-14.78	-59.88
5.91	-14.73	-53.27	-3.04	-56.12	-3.04	-56.1	-14.81	-60.88
6.01	-14.78	-54.12	-3.05	-57.05	-3.05	-57.03	-14.85	-61.86
6.11	-14.83	-54.91	-3.07	-57.99	-3.06	-57.95	-14.89	-62.85
6.21	-14.87	-55.74	-3.08	-58.89	-3.08	-58.88	-14.93	-63.78
6.31	-14.9	-56.54	-3.1	-59.8	-3.1	-59.79	-14.97	-64.67
6.41	-14.93	-57.43	-3.11	-60.71	-3.11	-60.7	-15.02	-65.62
6.51	-14.97	-58.33	-3.13	-61.62	-3.13	-61.62	-15.06	-66.54
6.61	-15.02	-59.22	-3.14	-62.56	-3.14	-62.53	-15.1	-67.5
6.71	-15.06	-60.08	-3.15	-63.49	-3.15	-63.45	-15.14	-68.44
6.81	-15.1	-60.89	-3.17	-64.39	-3.17	-64.36	-15.19	-69.44
6.91	-15.14	-61.78	-3.19	-65.29	-3.19	-65.26	-15.23	-70.41
7.01	-15.18	-62.66	-3.2	-66.18	-3.2	-66.18	-15.29	-71.33
7.11	-15.21	-63.51	-3.22	-67.06	-3.22	-67.09	-15.33	-72.24
7.21	-15.26	-64.43	-3.23	-68	-3.24	-68.01	-15.38	-73.1
7.31	-15.3	-65.23	-3.26	-68.95	-3.25	-68.92	-15.41	-73.96
7.41	-15.33	-66.09	-3.27	-69.85	-3.27	-69.81	-15.43	-74.95
7.51	-15.37	-66.96	-3.29	-70.74	-3.29	-70.7	-15.48	-75.95
7.61	-15.41	-67.82	-3.3	-71.65	-3.31	-71.6	-15.54	-76.91
7.71	-15.44	-68.65	-3.32	-72.52	-3.32	-72.48	-15.58	-77.83
7.81	-15.47	-69.53	-3.33	-73.34	-3.34	-73.4	-15.63	-78.77
7.91	-15.52	-70.42	-3.36	-74.29	-3.36	-74.3	-15.67	-79.61
8.01	-15.56	-71.39	-3.37	-75.18	-3.38	-75.18	-15.71	-80.61
8.11	-15.62	-72.34	-3.39	-76.07	-3.39	-76.06	-15.76	-81.58
8.21	-15.67	-73.31	-3.41	-76.96	-3.41	-76.95	-15.8	-82.56
8.31	-15.72	-74.2	-3.42	-77.86	-3.43	-77.82	-15.85	-83.56
8.41	-15.76	-75.16	-3.44	-78.69	-3.45	-78.68	-15.89	-84.56
8.51	-15.8	-76.18	-3.46	-79.58	-3.47	-79.57	-15.94	-85.6
8.61	-15.84	-77.21	-3.48	-80.46	-3.49	-80.43	-15.99	-86.63
8.71	-15.88	-78.36	-3.5	-81.34	-3.51	-81.27	-16.04	-87.62
8.81	-15.94	-79.35	-3.52	-82.19	-3.52	-82.13	-16.09	-88.63
8.91	-16	-80.47	-3.54	-83.04	-3.54	-83.01	-16.14	-89.67
9.01	-16.06	-81.5	-3.55	-83.91	-3.56	-83.81	-16.2	-90.76
9.11	-16.11	-82.53	-3.56	-84.71	-3.57	-84.66	-16.26	-91.82
9.21	-16.18	-83.62	-3.58	-85.58	-3.58	-85.53	-16.33	-92.87
9.31	-16.25	-84.68	-3.6	-86.45	-3.6	-86.38	-16.4	-93.94
9.41	-16.31	-85.7	-3.61	-87.28	-3.61	-87.23	-16.47	-94.97
9.51	-16.37	-86.7	-3.63	-88.14	-3.63	-88.1	-16.55	-96.02
9.61	-16.45	-87.78	-3.65	-89.02	-3.64	-88.93	-16.62	-96.99
9.71	-16.52	-88.82	-3.65	-89.84	-3.66	-89.78	-16.71	-98.03
9.81	-16.59	-89.8	-3.66	-90.65	-3.67	-90.64	-16.79	-99.03
9.91	-16.68	-90.73	-3.68	-91.53	-3.68	-91.49	-16.88	-100.04
10.01	-16.75	-91.7	-3.68	-92.4	-3.69	-92.32	-16.96	-101.06
10.11	-16.83	-92.6	-3.7	-93.27	-3.7	-93.17	-17.05	-102.05
10.21	-16.9	-93.58	-3.72	-94.07	-3.71	-94.04	-17.15	-103.12
10.31	-17.01	-94.6	-3.72	-94.94	-3.73	-94.88	-17.25	-104.02
10.41	-17.09	-95.48	-3.73	-95.78	-3.74	-95.76	-17.35	-104.89
10.51	-17.2	-96.46	-3.75	-96.63	-3.75	-96.63	-17.45	-105.79
10.61	-17.29	-97.45	-3.76	-97.52	-3.75	-97.5	-17.55	-106.71
10.71	-17.39	-98.32	-3.77	-98.42	-3.77	-98.33	-17.64	-107.66
10.81	-17.48	-99.22	-3.78	-99.29	-3.78	-99.18	-17.74	-108.63
10.91	-17.57	-100.27	-3.79	-100.16	-3.79	-100.07	-17.84	-109.66
11.01	-17.68	-101.2	-3.79	-101.03	-3.81	-100.96	-17.96	-110.62
11.11	-17.76	-102.04	-3.81	-101.87	-3.82	-101.84	-18.07	-111.44
11.21	-17.86	-102.88	-3.83	-102.73	-3.82	-102.73	-18.19	-112.36
11.31	-17.95	-103.72	-3.84	-103.59	-3.83	-103.61	-18.29	-113.19
11.41	-18.04	-104.59	-3.85	-104.5	-3.85	-104.48	-18.4	-114.02
11.51	-18.13	-105.37	-3.87	-105.42	-3.86	-105.29	-18.52	-114.89
11.61	-18.22	-106.17	-3.87	-106.27	-3.87	-106.16	-18.62	-115.78
11.71	-18.29	-107.03	-3.87	-107.13	-3.9	-107.06	-18.72	-116.73
11.81	-18.39	-107.91	-3.88	-107.98	-3.91	-107.9	-18.86	-117.63
11.91	-18.49	-108.69	-3.91	-108.83	-3.91	-108.81	-19	-118.3
12.01	-18.57	-109.51	-3.92	-109.67	-3.93	-109.73	-19.11	-119.01
12.11	-18.64	-110.17	-3.94	-110.59	-3.94	-110.56	-19.22	-119.8
12.21	-18.7	-110.88	-3.96	-111.44	-3.94	-111.43	-19.33	-120.71
12.31	-18.79	-111.67	-3.97	-112.39	-3.96	-112.29	-19.45	-121.43
12.41	-18.85	-112.55	-3.96	-113.32	-3.97	-113.11	-19.56	-122.25
12.51	-18.95	-113.41	-3.98	-114.16	-3.99	-114	-19.69	-123.25
12.61	-19.02	-114.25	-3.99	-114.98	-4	-114.89	-19.82	-123.99
12.71	-19.14	-115.08	-4	-115.83	-4.02	-115.79	-19.95	-124.61
12.81	-19.24	-115.67	-4.01	-116.67	-4.03	-116.71	-20.11	-125.43
12.91	-19.35	-116.38	-4.04	-117.56	-4.04	-117.53	-20.24	-126
13.01	-19.41	-117.21	-4.04	-118.47	-4.04	-118.43	-20.39	-126.66
13.11	-19.54	-117.9	-4.07	-119.41	-4.06	-119.33	-20.49	-127.39
13.21	-19.57	-118.55	-4.09	-120.28	-4.09	-120.1	-20.62	-128.4
13.31	-19.66	-119.61	-4.08	-121.1	-4.09	-120.96	-20.8	-129.24
13.41	-19.72	-120.56	-4.09	-121.98	-4.11	-121.91	-20.95	-129.83
13.51	-19.83	-121.54	-4.11	-122.83	-4.13	-122.75	-21.05	-130.56
13.61	-19.89	-122.22	-4.13	-123.62	-4.14	-123.61	-21.22	-131.21
13.71	-19.98	-123.27	-4.13	-124.5	-4.13	-124.52	-21.39	-132.09
13.81	-20.07	-123.94	-4.16	-125.45	-4.16	-125.43	-21.54	-132.62
13.91	-20.17	-124.7	-4.18	-126.37	-4.17	-126.2	-21.66	-133.32
14.01	-20.22	-125.38	-4.19	-127.24	-4.18	-127.12	-21.82	-133.93
14.11	-20.28	-126.32	-4.19	-128.12	-4.2	-127.96	-21.97	-134.95
14.21	-20.36	-127.21	-4.21	-129.01	-4.22	-128.83	-22.14	-135.8
14.31	-20.47	-128.26	-4.22	-129.82	-4.23	-129.73	-22.35	-136.34
14.41	-20.56	-128.63	-4.23	-130.65	-4.25	-130.61	-22.52	-136.78
14.51	-20.63	-129.36	-4.25	-131.59	-4.26	-131.5	-22.68	-137.48
14.61	-20.68	-129.9	-4.28	-132.45	-4.27	-132.36	-22.87	-137.89
14.71	-20.74	-130.72	-4.3	-133.33	-4.28	-133.16	-23.03	-138.33
14.81	-20.78	-131.21	-4.31	-134.25	-4.3	-134.05	-23.18	-139.05
14.91	-20.77	-132.11	-4.32	-135.13	-4.32	-134.93	-23.36	-139.8
15.01	-20.87	-133.16	-4.32	-135.95	-4.33	-135.75	-23.58	-140.51
15.11	-20.96	-134.07	-4.33	-136.81	-4.35	-136.7	-23.77	-140.74
15.21	-21.09	-134.44	-4.36	-137.64	-4.36	-137.59	-23.98	-141
15.31	-21.16	-134.86	-4.38	-138.51	-4.37	-138.42	-24.17	-141.43
15.41	-21.19	-135.58	-4.4	-139.37	-4.38	-139.28	-24.39	-142.08
15.51	-21.22	-136.35	-4.42	-140.23	-4.4	-140.1	-24.56	-142.24
15.61	-21.27	-137.69	-4.44	-141.16	-4.43	-140.96	-24.75	-142.95
15.71	-21.35	-138.82	-4.44	-142.03	-4.44	-141.78	-24.96	-143.82
15.81	-21.44	-139.69	-4.46	-142.86	-4.46	-142.68	-25.16	-144.16
15.91	-21.49	-140.52	-4.47	-143.69	-4.48	-143.59	-25.38	-144.72
16.01	-21.59	-141.38	-4.49	-144.51	-4.49	-144.45	-25.62	-145.09
16.11	-21.64	-142.17	-4.51	-145.3	-4.5	-145.27	-25.85	-145.64
16.21	-21.72	-142.96	-4.53	-146.22	-4.51	-146.14	-26.06	-146.25
16.31	-21.75	-143.54	-4.55	-147.07	-4.53	-146.9	-26.39	-146.51
16.41	-21.77	-144.55	-4.55	-147.9	-4.54	-147.68	-26.59	-146.68
16.51	-21.81	-145.71	-4.57	-148.81	-4.56	-148.61	-26.79	-147.09
16.61	-21.91	-146.8	-4.58	-149.7	-4.57	-149.5	-27	-147.68
16.71	-21.96	-147.6	-4.6	-150.41	-4.59	-150.35	-27.23	-148.68
16.81	-22.07	-147.93	-4.62	-151.27	-4.6	-151.24	-27.67	-149.72
16.91	-22.13	-148.67	-4.65	-152.08	-4.6	-152.05	-28.15	-151.03
17.01	-22.13	-148.85	-4.66	-152.84	-4.62	-152.84	-28.83	-150.1
17.11	-22.1	-149.5	-4.69	-153.64	-4.63	-153.65	-29.42	-147.02
17.21	-22.11	-150.77	-4.69	-154.39	-4.65	-154.5	-29.14	-142.7
17.31	-22.18	-152.14	-4.68	-155.22	-4.67	-155.4	-28.83	-145.05
17.41	-22.28	-153.39	-4.66	-155.97	-4.68	-156.27	-28.81	-149.73
17.51	-22.38	-153.91	-4.66	-156.9	-4.68	-157.16	-29.87	-153.51
17.61	-22.5	-154.43	-4.65	-157.65	-4.69	-158.01	-31.05	-151.94
17.71	-22.59	-154.53	-4.65	-158.71	-4.7	-158.85	-31.62	-145.21
17.81	-22.57	-154.8	-4.68	-159.57	-4.7	-159.66	-31.45	-142.36
17.91	-22.6	-155.37	-4.69	-160.62	-4.72	-160.52	-31.41	-145.57
18.01	-22.66	-156.82	-4.71	-161.57	-4.74	-161.38	-32.08	-148.29
18.11	-22.79	-157.59	-4.72	-162.48	-4.76	-162.22	-33.06	-150.18
18.21	-22.86	-158.55	-4.74	-163.3	-4.77	-163.13	-34.2	-145.84
18.31	-22.91	-159.26	-4.73	-164.16	-4.77	-164	-34.92	-141
18.41	-22.98	-160.09	-4.75	-165.02	-4.78	-164.91	-35.03	-135.07
18.51	-22.98	-160.74	-4.77	-165.86	-4.78	-165.72	-35.35	-133.16
18.61	-22.98	-160.85	-4.8	-166.78	-4.8	-166.57	-35.41	-130.25
18.71	-22.92	-161.49	-4.81	-167.64	-4.81	-167.45	-35.76	-130.01
18.81	-22.93	-162.69	-4.81	-168.59	-4.83	-168.33	-36.63	-129.6
18.91	-23	-163.62	-4.83	-169.49	-4.83	-169.25	-37.83	-126.28
19.01	-23.07	-164.46	-4.83	-170.34	-4.85	-170.17	-38.22	-116.22
19.11	-23.08	-164.73	-4.85	-171.13	-4.86	-171.02	-38.14	-110.05
19.21	-23.12	-164.99	-4.87	-172.02	-4.87	-171.86	-38.09	-104.96
19.31	-23.07	-165.79	-4.88	-172.87	-4.88	-172.75	-38.48	-100.59
19.41	-23.02	-166.38	-4.89	-173.8	-4.89	-173.64	-38.77	-92.58
19.51	-22.99	-167.16	-4.92	-174.76	-4.91	-174.52	-38.71	-84.96
19.61	-23.1	-168.32	-4.93	-175.65	-4.94	-175.41	-37.99	-77.96
19.71	-23.11	-168.71	-4.94	-176.5	-4.94	-176.28	-37.59	-75.63
19.81	-23.23	-169.09	-4.95	-177.34	-4.96	-177.21	-36.74	-71.2
19.91	-23.2	-168.83	-4.95	-178.21	-4.96	-178.08	-36.6	-68.78
20.01	-23.18	-169.36	-4.98	-179.07	-4.97	-178.92	-35.86	-63.11