!s2p File: Measurements: S11, S21, S12, S22								
# GHz S dB R 50.0								
0.01	-25.36	-0.21	-28.12	-0.42	-28.17	-0.34	-19.89	-1.57
0.11	-25.55	-1.52	-28.27	-1.21	-28.27	-1.23	-20.5	-2.92
0.21	-25.61	-1.86	-28.31	-1.76	-28.31	-1.71	-20.63	-3.1
0.31	-25.62	-2.35	-28.32	-2.28	-28.32	-2.31	-20.67	-3.49
0.41	-25.62	-2.88	-28.33	-2.82	-28.32	-2.86	-20.7	-4.06
0.51	-25.61	-3.46	-28.34	-3.45	-28.33	-3.49	-20.71	-4.65
0.61	-25.62	-4.03	-28.34	-4.08	-28.34	-4.1	-20.73	-5.28
0.71	-25.62	-4.63	-28.34	-4.76	-28.34	-4.71	-20.74	-5.95
0.81	-25.62	-5.17	-28.34	-5.34	-28.34	-5.36	-20.74	-6.67
0.91	-25.63	-5.81	-28.35	-5.98	-28.35	-5.96	-20.76	-7.34
1.01	-25.63	-6.4	-28.35	-6.64	-28.35	-6.61	-20.76	-8.03
1.11	-25.64	-7.05	-28.35	-7.24	-28.36	-7.21	-20.77	-8.75
1.21	-25.65	-7.69	-28.36	-7.91	-28.36	-7.89	-20.78	-9.47
1.31	-25.66	-8.45	-28.37	-8.51	-28.36	-8.51	-20.79	-10.23
1.41	-25.67	-9.25	-28.37	-9.2	-28.37	-9.13	-20.8	-11.01
1.51	-25.71	-9.9	-28.37	-9.83	-28.37	-9.8	-20.82	-11.67
1.61	-25.69	-10.56	-28.39	-10.43	-28.38	-10.43	-20.82	-12.34
1.71	-25.68	-11.36	-28.39	-11.03	-28.38	-11.06	-20.83	-13.13
1.81	-25.68	-12.35	-28.39	-11.73	-28.4	-11.71	-20.84	-13.97
1.91	-25.69	-13.17	-28.4	-12.32	-28.4	-12.3	-20.85	-14.74
2.01	-25.71	-13.89	-28.4	-12.99	-28.4	-12.94	-20.87	-15.51
2.11	-25.72	-14.62	-28.42	-13.59	-28.41	-13.57	-20.89	-16.25
2.21	-25.74	-15.41	-28.42	-14.23	-28.42	-14.2	-20.91	-17
2.31	-25.75	-16.19	-28.43	-14.86	-28.43	-14.85	-20.93	-17.73
2.41	-25.76	-16.98	-28.44	-15.5	-28.43	-15.45	-20.95	-18.47
2.51	-25.79	-17.64	-28.44	-16.08	-28.44	-16.11	-20.97	-19.23
2.61	-25.82	-18.38	-28.46	-16.74	-28.45	-16.71	-21	-19.94
2.71	-25.86	-18.92	-28.46	-17.37	-28.46	-17.36	-21.02	-20.65
2.81	-25.89	-19.51	-28.47	-17.98	-28.47	-17.96	-21.05	-21.38
2.91	-25.92	-20.18	-28.48	-18.62	-28.48	-18.6	-21.07	-22.06
3.01	-25.94	-20.88	-28.49	-19.21	-28.49	-19.22	-21.1	-22.7
3.11	-25.97	-21.67	-28.5	-19.85	-28.5	-19.86	-21.12	-23.44
3.21	-26.02	-22.4	-28.51	-20.48	-28.51	-20.49	-21.15	-24.13
3.31	-26.06	-23.15	-28.52	-21.12	-28.52	-21.07	-21.18	-24.84
3.41	-26.11	-23.88	-28.53	-21.7	-28.53	-21.71	-21.21	-25.49
3.51	-26.13	-24.59	-28.54	-22.36	-28.54	-22.34	-21.24	-26.14
3.61	-26.16	-25.4	-28.55	-22.98	-28.55	-22.96	-21.27	-26.83
3.71	-26.21	-26.33	-28.57	-23.55	-28.56	-23.58	-21.29	-27.55
3.81	-26.27	-27.25	-28.59	-24.17	-28.58	-24.18	-21.32	-28.29
3.91	-26.34	-28.02	-28.59	-24.79	-28.59	-24.81	-21.36	-29.06
4.01	-26.4	-28.7	-28.61	-25.43	-28.61	-25.43	-21.41	-29.69
4.11	-26.42	-29.39	-28.61	-26.05	-28.62	-26.06	-21.45	-30.33
4.21	-26.45	-30.23	-28.63	-26.67	-28.63	-26.66	-21.47	-30.9
4.31	-26.49	-31.29	-28.64	-27.27	-28.64	-27.27	-21.49	-31.58
4.41	-26.56	-32.37	-28.66	-27.86	-28.66	-27.87	-21.52	-32.32
4.51	-26.65	-33.17	-28.67	-28.47	-28.67	-28.46	-21.56	-33.09
4.61	-26.72	-33.82	-28.69	-29.06	-28.69	-29.12	-21.6	-33.79
4.71	-26.75	-34.39	-28.7	-29.68	-28.7	-29.7	-21.66	-34.4
4.81	-26.75	-35.02	-28.72	-30.31	-28.72	-30.27	-21.7	-34.95
4.91	-26.76	-36.06	-28.73	-30.94	-28.73	-30.89	-21.73	-35.48
5.01	-26.8	-37.12	-28.74	-31.53	-28.74	-31.51	-21.76	-36.04
5.11	-26.87	-38.11	-28.76	-32.14	-28.76	-32.11	-21.78	-36.73
5.21	-26.98	-38.91	-28.78	-32.73	-28.78	-32.72	-21.82	-37.39
5.31	-27.07	-39.56	-28.8	-33.31	-28.8	-33.32	-21.87	-38.08
5.41	-27.15	-40.05	-28.82	-33.94	-28.81	-33.88	-21.93	-38.71
5.51	-27.2	-40.65	-28.84	-34.56	-28.83	-34.54	-21.99	-39.18
5.61	-27.25	-41.49	-28.86	-35.16	-28.86	-35.15	-22.03	-39.6
5.71	-27.33	-42.53	-28.87	-35.7	-28.87	-35.7	-22.07	-40.14
5.81	-27.43	-43.62	-28.89	-36.31	-28.89	-36.27	-22.09	-40.65
5.91	-27.56	-44.5	-28.91	-37	-28.91	-36.92	-22.12	-41.32
6.01	-27.68	-45.38	-28.93	-37.64	-28.93	-37.49	-22.16	-41.98
6.11	-27.78	-46	-28.96	-38.16	-28.96	-38.11	-22.21	-42.58
6.21	-27.84	-46.77	-28.99	-38.7	-28.98	-38.65	-22.26	-43.08
6.31	-27.89	-47.63	-29	-39.33	-29	-39.27	-22.3	-43.51
6.41	-27.95	-48.6	-29.04	-39.84	-29.03	-39.85	-22.36	-43.95
6.51	-28.03	-49.77	-29.06	-40.33	-29.06	-40.32	-22.38	-44.39
6.61	-28.15	-50.84	-29.08	-40.93	-29.08	-40.95	-22.42	-45.01
6.71	-28.26	-51.84	-29.11	-41.49	-29.11	-41.46	-22.46	-45.55
6.81	-28.37	-52.73	-29.13	-42.07	-29.13	-41.99	-22.52	-46.14
6.91	-28.45	-53.59	-29.16	-42.58	-29.16	-42.53	-22.57	-46.72
7.01	-28.5	-54.52	-29.18	-43.15	-29.18	-43.08	-22.63	-47.17
7.11	-28.57	-55.52	-29.21	-43.65	-29.2	-43.63	-22.67	-47.56
7.21	-28.66	-56.63	-29.23	-44.18	-29.23	-44.15	-22.7	-47.91
7.31	-28.75	-57.63	-29.26	-44.88	-29.25	-44.85	-22.71	-48.44
7.41	-28.85	-58.46	-29.32	-45.42	-29.31	-45.41	-22.73	-49
7.51	-28.94	-59.42	-29.35	-45.77	-29.34	-45.74	-22.76	-49.64
7.61	-29.04	-60.21	-29.37	-46.24	-29.38	-46.19	-22.82	-50.16
7.71	-29.12	-61.06	-29.41	-46.8	-29.4	-46.67	-22.88	-50.63
7.81	-29.2	-62.08	-29.43	-47.18	-29.44	-47.16	-22.93	-51.05
7.91	-29.34	-62.85	-29.47	-47.66	-29.47	-47.58	-22.97	-51.46
8.01	-29.48	-64.08	-29.5	-48.11	-29.5	-48.05	-23.01	-51.94
8.11	-29.62	-65.16	-29.54	-48.49	-29.53	-48.42	-23.05	-52.59
8.21	-29.79	-66.21	-29.56	-48.95	-29.55	-48.87	-23.09	-53.17
8.31	-29.95	-67.29	-29.59	-49.34	-29.59	-49.35	-23.13	-53.77
8.41	-30.04	-68.3	-29.62	-49.79	-29.63	-49.75	-23.2	-54.27
8.51	-30.16	-69.53	-29.68	-50.08	-29.68	-50.02	-23.24	-54.82
8.61	-30.22	-71.01	-29.7	-50.36	-29.7	-50.3	-23.29	-55.32
8.71	-30.31	-72.64	-29.72	-50.7	-29.72	-50.58	-23.34	-55.88
8.81	-30.41	-74.24	-29.75	-51.04	-29.74	-50.92	-23.39	-56.37
8.91	-30.56	-75.82	-29.76	-51.32	-29.76	-51.26	-23.44	-57
9.01	-30.71	-77.18	-29.79	-51.7	-29.79	-51.55	-23.51	-57.64
9.11	-30.85	-78.79	-29.82	-51.85	-29.81	-51.81	-23.57	-58.12
9.21	-30.98	-80.01	-29.82	-52.1	-29.82	-52.05	-23.65	-58.69
9.31	-31.07	-81.39	-29.83	-52.42	-29.83	-52.29	-23.72	-59.22
9.41	-31.16	-82.98	-29.84	-52.62	-29.83	-52.59	-23.79	-59.73
9.51	-31.22	-84.52	-29.86	-52.89	-29.85	-52.84	-23.88	-60.18
9.61	-31.35	-86.43	-29.84	-53.23	-29.84	-53.11	-23.95	-60.51
9.71	-31.46	-87.97	-29.85	-53.35	-29.85	-53.36	-24.04	-60.95
9.81	-31.6	-89.61	-29.84	-53.68	-29.84	-53.62	-24.12	-61.34
9.91	-31.71	-90.9	-29.82	-53.98	-29.82	-53.98	-24.22	-61.78
10.01	-31.81	-92.13	-29.83	-54.37	-29.83	-54.23	-24.31	-62.22
10.11	-31.88	-93.39	-29.81	-54.54	-29.81	-54.47	-24.42	-62.56
10.21	-32	-94.97	-29.81	-54.75	-29.81	-54.73	-24.54	-62.86
10.31	-32.1	-96.76	-29.78	-55.14	-29.78	-55.08	-24.64	-63.09
10.41	-32.22	-98.81	-29.77	-55.42	-29.77	-55.37	-24.74	-63.08
10.51	-32.42	-100.74	-29.75	-55.71	-29.74	-55.64	-24.83	-63.2
10.61	-32.58	-103.16	-29.73	-56.14	-29.72	-56.08	-24.92	-63.29
10.71	-32.77	-105.06	-29.7	-56.56	-29.7	-56.49	-25.02	-63.51
10.81	-32.92	-106.99	-29.7	-56.99	-29.68	-56.9	-25.13	-63.69
10.91	-33	-109.31	-29.68	-57.4	-29.67	-57.32	-25.26	-63.86
11.01	-33.15	-111.51	-29.65	-57.85	-29.65	-57.65	-25.41	-63.75
11.11	-33.21	-113.82	-29.62	-58.16	-29.63	-58.21	-25.49	-63.58
11.21	-33.29	-116.26	-29.62	-58.67	-29.61	-58.65	-25.59	-63.45
11.31	-33.42	-118.16	-29.61	-59.06	-29.6	-59.04	-25.65	-63.25
11.41	-33.49	-120.6	-29.59	-59.44	-29.58	-59.48	-25.71	-63.33
11.51	-33.57	-122.32	-29.57	-59.9	-29.56	-59.75	-25.81	-63.26
11.61	-33.61	-124.21	-29.55	-60.27	-29.53	-60.15	-25.9	-63.34
11.71	-33.59	-126.6	-29.52	-60.66	-29.54	-60.71	-26.01	-63.35
11.81	-33.62	-129.35	-29.5	-61.11	-29.49	-61.04	-26.15	-62.98
11.91	-33.71	-132.12	-29.49	-61.56	-29.48	-61.54	-26.21	-62.28
12.01	-33.7	-134.34	-29.46	-62.07	-29.46	-62.08	-26.24	-62.14
12.11	-33.65	-136.23	-29.49	-62.78	-29.47	-62.73	-26.3	-61.77
12.21	-33.64	-138.41	-29.49	-62.92	-29.45	-62.88	-26.32	-61.6
12.31	-33.67	-140.52	-29.43	-63.37	-29.42	-63.3	-26.39	-61.59
12.41	-33.58	-142.7	-29.4	-63.94	-29.4	-63.78	-26.43	-61.55
12.51	-33.58	-145.4	-29.4	-64.33	-29.39	-64.25	-26.56	-61.45
12.61	-33.55	-147.55	-29.37	-64.79	-29.37	-64.74	-26.66	-61.01
12.71	-33.56	-150.78	-29.35	-65.28	-29.36	-65.26	-26.74	-60.41
12.81	-33.63	-153.62	-29.37	-65.58	-29.36	-65.64	-26.77	-59.26
12.91	-33.78	-156.4	-29.31	-66.09	-29.31	-66.09	-26.76	-58.92
13.01	-33.73	-158.46	-29.34	-66.65	-29.32	-66.58	-26.74	-58.13
13.11	-33.78	-161.07	-29.3	-67.15	-29.29	-67.06	-26.74	-58.2
13.21	-33.71	-162.87	-29.34	-67.29	-29.33	-67.17	-26.76	-58.17
13.31	-33.48	-165.53	-29.25	-67.66	-29.25	-67.52	-26.89	-57.7
13.41	-33.36	-168.08	-29.22	-68.05	-29.22	-67.95	-26.9	-57.08
13.51	-33.18	-171	-29.18	-68.67	-29.18	-68.61	-26.96	-57
13.61	-33.05	-173.25	-29.17	-69.07	-29.17	-69.14	-26.95	-56.11
13.71	-33.02	-175.85	-29.14	-69.57	-29.13	-69.59	-26.97	-55.72
13.81	-32.91	-177.08	-29.11	-70.11	-29.1	-70.09	-26.96	-55.16
13.91	-32.75	-179.05	-29.09	-70.7	-29.08	-70.42	-26.95	-55.14
14.01	-32.56	179.61	-29.06	-71.34	-29.05	-71.22	-26.94	-54.77
14.11	-32.29	177.55	-29.05	-71.83	-29.06	-71.67	-27.05	-54.61
14.21	-32.06	175.28	-29.04	-72	-29.05	-71.87	-27.08	-53.91
14.31	-31.91	172.22	-28.96	-72.43	-28.97	-72.38	-27.07	-53.21
14.41	-31.86	170.93	-28.93	-73.2	-28.94	-73.15	-27.09	-52.29
14.51	-31.7	168.38	-28.94	-73.72	-28.95	-73.62	-27.01	-51.78
14.61	-31.71	167.12	-28.95	-74.19	-28.93	-74.14	-26.93	-51.42
14.71	-31.56	166.23	-28.88	-74.6	-28.87	-74.49	-26.87	-51.49
14.81	-31.44	165.58	-28.87	-75.4	-28.86	-75.26	-26.87	-51.34
14.91	-31.2	164.99	-28.88	-75.89	-28.88	-75.67	-26.89	-51.09
15.01	-30.98	162.74	-28.85	-76.04	-28.85	-75.86	-26.9	-50.2
15.11	-30.82	160.53	-28.8	-76.53	-28.81	-76.46	-26.84	-49.84
15.21	-30.76	158.44	-28.77	-77.1	-28.77	-77.05	-26.75	-49.04
15.31	-30.8	156.4	-28.76	-77.67	-28.75	-77.59	-26.66	-48.8
15.41	-30.72	155.17	-28.77	-77.89	-28.74	-77.78	-26.64	-48.53
15.51	-30.59	154.29	-28.72	-78.28	-28.68	-78.15	-26.54	-48.37
15.61	-30.32	153.31	-28.65	-78.79	-28.65	-78.59	-26.54	-48.43
15.71	-30.03	151.99	-28.6	-79.5	-28.61	-79.33	-26.58	-48.07
15.81	-29.75	150.51	-28.61	-80.04	-28.62	-79.89	-26.54	-47.61
15.91	-29.49	148.55	-28.59	-80.35	-28.58	-80.27	-26.49	-47.27
16.01	-29.39	145.94	-28.54	-80.75	-28.53	-80.68	-26.45	-47.08
16.11	-29.32	144.15	-28.49	-80.93	-28.47	-80.86	-26.39	-46.87
16.21	-29.35	142.86	-28.42	-81.58	-28.39	-81.59	-26.39	-47.1
16.31	-29.28	142.95	-28.38	-82.27	-28.35	-82.12	-26.37	-46.49
16.41	-29.06	142.46	-28.32	-82.86	-28.3	-82.6	-26.32	-46.4
16.51	-28.79	141.33	-28.28	-83.51	-28.26	-83.35	-26.27	-46.34
16.61	-28.63	139.67	-28.22	-84.07	-28.21	-83.94	-26.26	-46.23
16.71	-28.52	138.44	-28.18	-84.56	-28.16	-84.55	-26.41	-46.32
16.81	-28.44	136.94	-28.17	-85.13	-28.14	-85.14	-26.42	-44.85
16.91	-28.44	135.74	-28.12	-85.33	-28.05	-85.36	-26.48	-43.48
17.01	-28.5	136.3	-28.03	-86.27	-27.98	-86.29	-26.21	-41.55
17.11	-28.33	136.53	-28.01	-86.85	-27.93	-86.88	-25.8	-40.49
17.21	-28.08	136.16	-27.95	-87.38	-27.89	-87.65	-25.3	-43.71
17.31	-27.82	134.99	-27.91	-87.69	-27.89	-88.07	-25.61	-46.63
17.41	-27.7	133.28	-27.77	-88.28	-27.78	-88.75	-26.31	-47.16
17.51	-27.64	131.98	-27.69	-89.35	-27.72	-89.79	-26.57	-41.72
17.61	-27.64	130.2	-27.61	-89.52	-27.64	-90.11	-26.1	-37.9
17.71	-27.76	129.3	-27.51	-90.84	-27.54	-91.03	-25.4	-38.49
17.81	-27.74	129.1	-27.47	-91.67	-27.49	-91.84	-25.15	-40.95
17.91	-27.65	128.83	-27.42	-92.71	-27.47	-92.66	-25.47	-42.83
18.01	-27.33	128.04	-27.37	-93.53	-27.41	-93.37	-25.78	-41.52
18.11	-27.22	126.17	-27.31	-94.26	-27.35	-93.99	-25.78	-38.65
18.21	-27.15	125.04	-27.24	-95.36	-27.28	-95.17	-25.5	-37.04
18.31	-27.05	124.09	-27.2	-96.36	-27.23	-96.24	-25.21	-35.79
18.41	-27.04	123.32	-27.15	-96.91	-27.18	-96.87	-24.88	-37.43
18.51	-27.09	123.19	-27.1	-98.27	-27.09	-98.16	-24.88	-37.37
18.61	-26.96	123.35	-27.12	-99.12	-27.1	-98.87	-24.83	-38.4
18.71	-26.94	123.84	-27.04	-99.95	-27.04	-99.81	-24.89	-38.26
18.81	-26.73	123.46	-26.94	-100.85	-26.96	-100.62	-24.93	-37.8
18.91	-26.64	122.4	-26.88	-101.99	-26.87	-101.8	-24.96	-36.33
19.01	-26.57	122	-26.82	-103.36	-26.85	-103.24	-24.71	-35.27
19.11	-26.51	122	-26.85	-104.42	-26.88	-104.41	-24.55	-35.17
19.21	-26.5	121.5	-26.81	-105.01	-26.8	-104.93	-24.39	-35.74
19.31	-26.46	121.67	-26.67	-106.56	-26.66	-106.49	-24.5	-35.63
19.41	-26.31	122.19	-26.76	-108.36	-26.75	-108.17	-24.41	-34.19
19.51	-26.27	122.2	-26.77	-109.5	-26.75	-109.27	-24.28	-33.15
19.61	-26.06	121.71	-26.79	-110.34	-26.81	-110.15	-23.98	-33.25
19.71	-26	121.04	-26.75	-110.95	-26.77	-110.7	-23.97	-33.64
19.81	-26.1	120.17	-26.57	-112.43	-26.58	-112.36	-23.84	-33.1
19.91	-26.13	120.66	-26.66	-114.33	-26.68	-114.24	-23.7	-32.37
20.01	-26.12	121.93	-26.76	-115.83	-26.73	-115.77	-23.42	-31.62