!s2p File: Measurements: S11, S21, S12, S22								
# GHz S dB R 50.0								
0.01	-25.18	-0.15	-22.51	-0.36	-22.51	-0.22	-17.14	-1.24
0.11	-25.36	-1.53	-22.64	-1.36	-22.63	-1.34	-17.64	-2.82
0.21	-25.43	-1.88	-22.67	-1.96	-22.67	-1.93	-17.78	-3.11
0.31	-25.44	-2.35	-22.69	-2.59	-22.69	-2.62	-17.83	-3.51
0.41	-25.44	-2.92	-22.69	-3.29	-22.69	-3.27	-17.85	-4.08
0.51	-25.43	-3.44	-22.7	-3.96	-22.7	-3.99	-17.87	-4.72
0.61	-25.44	-4.01	-22.71	-4.7	-22.7	-4.68	-17.88	-5.4
0.71	-25.43	-4.62	-22.71	-5.42	-22.7	-5.42	-17.89	-6.07
0.81	-25.43	-5.19	-22.71	-6.16	-22.71	-6.14	-17.89	-6.81
0.91	-25.44	-5.83	-22.72	-6.86	-22.71	-6.87	-17.9	-7.52
1.01	-25.45	-6.43	-22.72	-7.59	-22.72	-7.59	-17.91	-8.23
1.11	-25.46	-7.03	-22.72	-8.31	-22.72	-8.31	-17.91	-8.99
1.21	-25.47	-7.69	-22.73	-9.05	-22.73	-9.05	-17.92	-9.73
1.31	-25.48	-8.46	-22.73	-9.78	-22.73	-9.75	-17.93	-10.51
1.41	-25.49	-9.22	-22.74	-10.52	-22.74	-10.51	-17.94	-11.31
1.51	-25.52	-9.91	-22.75	-11.25	-22.74	-11.25	-17.95	-12.01
1.61	-25.51	-10.56	-22.75	-11.98	-22.75	-11.96	-17.96	-12.74
1.71	-25.49	-11.38	-22.76	-12.71	-22.75	-12.69	-17.96	-13.54
1.81	-25.49	-12.31	-22.76	-13.42	-22.76	-13.41	-17.97	-14.37
1.91	-25.51	-13.11	-22.77	-14.16	-22.77	-14.15	-17.98	-15.17
2.01	-25.53	-13.87	-22.78	-14.89	-22.78	-14.88	-18	-15.97
2.11	-25.54	-14.59	-22.79	-15.61	-22.78	-15.59	-18.02	-16.74
2.21	-25.55	-15.38	-22.79	-16.35	-22.79	-16.34	-18.03	-17.49
2.31	-25.57	-16.16	-22.8	-17.07	-22.8	-17.05	-18.05	-18.27
2.41	-25.58	-16.95	-22.81	-17.78	-22.81	-17.76	-18.06	-19.05
2.51	-25.61	-17.65	-22.82	-18.51	-22.81	-18.49	-18.08	-19.82
2.61	-25.64	-18.35	-22.83	-19.21	-22.82	-19.19	-18.1	-20.58
2.71	-25.67	-18.89	-22.83	-19.93	-22.83	-19.93	-18.13	-21.34
2.81	-25.7	-19.48	-22.85	-20.66	-22.84	-20.64	-18.15	-22.1
2.91	-25.72	-20.13	-22.86	-21.36	-22.85	-21.35	-18.17	-22.82
3.01	-25.75	-20.85	-22.87	-22.06	-22.86	-22.08	-18.19	-23.53
3.11	-25.78	-21.61	-22.87	-22.8	-22.87	-22.78	-18.21	-24.3
3.21	-25.83	-22.4	-22.88	-23.52	-22.88	-23.53	-18.23	-25.04
3.31	-25.87	-23.1	-22.89	-24.24	-22.89	-24.22	-18.26	-25.78
3.41	-25.92	-23.83	-22.9	-24.94	-22.9	-24.93	-18.28	-26.52
3.51	-25.94	-24.56	-22.91	-25.65	-22.91	-25.64	-18.31	-27.23
3.61	-25.97	-25.37	-22.93	-26.36	-22.92	-26.34	-18.33	-27.95
3.71	-26.02	-26.21	-22.94	-27.07	-22.93	-27.08	-18.36	-28.73
3.81	-26.08	-27.13	-22.95	-27.78	-22.95	-27.77	-18.38	-29.49
3.91	-26.14	-27.94	-22.96	-28.47	-22.96	-28.5	-18.41	-30.28
4.01	-26.2	-28.57	-22.97	-29.2	-22.97	-29.19	-18.45	-30.99
4.11	-26.22	-29.29	-22.98	-29.93	-22.98	-29.89	-18.48	-31.69
4.21	-26.25	-30.1	-23	-30.64	-22.99	-30.6	-18.5	-32.34
4.31	-26.29	-31.2	-23.01	-31.3	-23.01	-31.31	-18.52	-33.1
4.41	-26.36	-32.25	-23.02	-32.02	-23.02	-32	-18.54	-33.88
4.51	-26.44	-32.97	-23.04	-32.69	-23.04	-32.71	-18.57	-34.68
4.61	-26.51	-33.63	-23.05	-33.41	-23.05	-33.42	-18.61	-35.4
4.71	-26.53	-34.16	-23.06	-34.14	-23.06	-34.11	-18.66	-36.11
4.81	-26.54	-34.96	-23.08	-34.83	-23.08	-34.81	-18.69	-36.76
4.91	-26.55	-35.91	-23.09	-35.53	-23.09	-35.5	-18.72	-37.38
5.01	-26.59	-36.88	-23.1	-36.22	-23.11	-36.2	-18.75	-38.06
5.11	-26.67	-37.88	-23.12	-36.9	-23.12	-36.86	-18.76	-38.8
5.21	-26.77	-38.66	-23.13	-37.6	-23.13	-37.55	-18.8	-39.51
5.31	-26.85	-39.29	-23.16	-38.29	-23.15	-38.25	-18.84	-40.28
5.41	-26.93	-39.8	-23.17	-38.99	-23.17	-38.93	-18.89	-40.96
5.51	-26.97	-40.39	-23.18	-39.67	-23.18	-39.65	-18.93	-41.58
5.61	-27.03	-41.32	-23.2	-40.38	-23.2	-40.35	-18.97	-42.14
5.71	-27.11	-42.26	-23.22	-41.07	-23.21	-41.02	-19	-42.78
5.81	-27.21	-43.32	-23.23	-41.73	-23.23	-41.69	-19.02	-43.41
5.91	-27.33	-44.18	-23.25	-42.43	-23.25	-42.4	-19.05	-44.15
6.01	-27.44	-45.01	-23.27	-43.11	-23.27	-43.1	-19.08	-44.89
6.11	-27.54	-45.66	-23.3	-43.8	-23.29	-43.76	-19.12	-45.58
6.21	-27.59	-46.39	-23.31	-44.46	-23.3	-44.43	-19.16	-46.19
6.31	-27.66	-47.27	-23.33	-45.14	-23.33	-45.1	-19.2	-46.79
6.41	-27.71	-48.26	-23.35	-45.8	-23.35	-45.78	-19.24	-47.37
6.51	-27.78	-49.36	-23.37	-46.45	-23.37	-46.43	-19.27	-47.97
6.61	-27.9	-50.42	-23.39	-47.11	-23.39	-47.08	-19.3	-48.63
6.71	-28	-51.4	-23.41	-47.77	-23.41	-47.75	-19.33	-49.31
6.81	-28.09	-52.24	-23.43	-48.44	-23.43	-48.42	-19.37	-50.02
6.91	-28.17	-53.16	-23.45	-49.1	-23.45	-49.05	-19.42	-50.7
7.01	-28.23	-54.01	-23.47	-49.74	-23.47	-49.7	-19.47	-51.29
7.11	-28.29	-55.01	-23.49	-50.36	-23.49	-50.36	-19.5	-51.86
7.21	-28.38	-56.11	-23.51	-51.03	-23.51	-51.04	-19.53	-52.38
7.31	-28.46	-57.03	-23.54	-51.76	-23.53	-51.71	-19.54	-53.03
7.41	-28.56	-57.86	-23.58	-52.44	-23.57	-52.4	-19.55	-53.71
7.51	-28.64	-58.79	-23.61	-52.97	-23.59	-52.94	-19.59	-54.46
7.61	-28.73	-59.58	-23.62	-53.62	-23.62	-53.57	-19.63	-55.1
7.71	-28.8	-60.44	-23.64	-54.21	-23.64	-54.16	-19.68	-55.72
7.81	-28.89	-61.32	-23.67	-54.79	-23.67	-54.77	-19.72	-56.34
7.91	-29.02	-62.17	-23.7	-55.41	-23.7	-55.41	-19.75	-56.92
8.01	-29.15	-63.3	-23.73	-56	-23.72	-56	-19.78	-57.56
8.11	-29.29	-64.29	-23.75	-56.53	-23.75	-56.54	-19.81	-58.31
8.21	-29.46	-65.45	-23.78	-57.14	-23.77	-57.17	-19.85	-59.03
8.31	-29.59	-66.43	-23.8	-57.75	-23.8	-57.75	-19.88	-59.73
8.41	-29.67	-67.48	-23.82	-58.32	-23.83	-58.28	-19.93	-60.43
8.51	-29.78	-68.76	-23.86	-58.87	-23.86	-58.81	-19.97	-61.15
8.61	-29.85	-70.16	-23.88	-59.34	-23.88	-59.33	-20	-61.84
8.71	-29.94	-71.81	-23.91	-59.88	-23.9	-59.79	-20.04	-62.5
8.81	-30.03	-73.27	-23.93	-60.4	-23.92	-60.34	-20.08	-63.22
8.91	-30.16	-74.84	-23.95	-60.91	-23.94	-60.87	-20.12	-63.99
9.01	-30.31	-76.23	-23.97	-61.41	-23.97	-61.34	-20.17	-64.75
9.11	-30.45	-77.64	-23.99	-61.88	-23.99	-61.81	-20.22	-65.46
9.21	-30.56	-78.96	-24.01	-62.32	-24	-62.31	-20.28	-66.23
9.31	-30.66	-80.42	-24.02	-62.85	-24.02	-62.79	-20.33	-66.92
9.41	-30.75	-81.87	-24.03	-63.32	-24.02	-63.25	-20.38	-67.65
9.51	-30.8	-83.36	-24.05	-63.76	-24.04	-63.75	-20.44	-68.33
9.61	-30.93	-85.11	-24.06	-64.25	-24.05	-64.16	-20.5	-68.97
9.71	-31.04	-86.79	-24.06	-64.71	-24.06	-64.69	-20.56	-69.62
9.81	-31.16	-88.25	-24.07	-65.19	-24.07	-65.17	-20.62	-70.34
9.91	-31.26	-89.41	-24.08	-65.69	-24.07	-65.65	-20.69	-71
10.01	-31.34	-90.8	-24.08	-66.22	-24.08	-66.15	-20.76	-71.7
10.11	-31.43	-92	-24.1	-66.66	-24.09	-66.57	-20.84	-72.36
10.21	-31.53	-93.63	-24.1	-67.06	-24.09	-67.05	-20.92	-73.01
10.31	-31.66	-95.41	-24.09	-67.58	-24.08	-67.55	-20.99	-73.58
10.41	-31.78	-97.29	-24.09	-68.09	-24.08	-68.05	-21.07	-74.1
10.51	-31.98	-99.16	-24.1	-68.56	-24.08	-68.52	-21.13	-74.6
10.61	-32.12	-101.37	-24.09	-69.05	-24.08	-69.02	-21.21	-75.15
10.71	-32.3	-103.23	-24.08	-69.64	-24.08	-69.55	-21.28	-75.78
10.81	-32.43	-105.14	-24.08	-70.22	-24.07	-70.15	-21.36	-76.36
10.91	-32.54	-107.47	-24.08	-70.73	-24.08	-70.64	-21.45	-77
11.01	-32.69	-109.61	-24.07	-71.22	-24.07	-71.13	-21.56	-77.53
11.11	-32.77	-111.67	-24.07	-71.76	-24.07	-71.75	-21.63	-77.93
11.21	-32.86	-113.93	-24.08	-72.3	-24.07	-72.28	-21.71	-78.4
11.31	-32.98	-115.65	-24.08	-72.8	-24.06	-72.84	-21.77	-78.78
11.41	-33.06	-117.93	-24.07	-73.37	-24.06	-73.35	-21.82	-79.4
11.51	-33.1	-119.79	-24.07	-73.97	-24.06	-73.86	-21.91	-79.89
11.61	-33.15	-121.65	-24.07	-74.47	-24.05	-74.41	-21.98	-80.5
11.71	-33.15	-123.93	-24.06	-74.97	-24.07	-74.99	-22.06	-81.1
11.81	-33.21	-126.71	-24.04	-75.54	-24.05	-75.49	-22.17	-81.55
11.91	-33.33	-129.16	-24.05	-76.13	-24.04	-76.06	-22.25	-81.74
12.01	-33.32	-131.29	-24.04	-76.64	-24.04	-76.68	-22.3	-82.18
12.11	-33.29	-133.08	-24.06	-77.3	-24.04	-77.3	-22.37	-82.55
12.21	-33.26	-135.14	-24.06	-77.71	-24.04	-77.76	-22.42	-83.07
12.31	-33.3	-137.35	-24.05	-78.34	-24.04	-78.26	-22.49	-83.6
12.41	-33.23	-139.51	-24.03	-78.97	-24.03	-78.83	-22.53	-84.11
12.51	-33.26	-142.09	-24.04	-79.49	-24.03	-79.38	-22.64	-84.8
12.61	-33.23	-144.44	-24.03	-79.98	-24.03	-79.95	-22.73	-85.23
12.71	-33.3	-147.35	-24.01	-80.52	-24.03	-80.54	-22.83	-85.57
12.81	-33.39	-150.18	-24.03	-81.07	-24.03	-81.11	-22.92	-85.54
12.91	-33.55	-152.53	-24.02	-81.63	-24	-81.63	-22.97	-85.94
13.01	-33.52	-154.51	-24.03	-82.27	-24.01	-82.28	-23.04	-86.05
13.11	-33.55	-157.12	-24.02	-82.86	-24.01	-82.81	-23.06	-86.66
13.21	-33.5	-158.93	-24.05	-83.32	-24.05	-83.17	-23.13	-87.21
13.31	-33.29	-161.72	-24.01	-83.75	-24	-83.67	-23.25	-87.75
13.41	-33.18	-164.42	-24	-84.23	-24.01	-84.24	-23.33	-88
13.51	-33.03	-167.18	-23.98	-84.87	-23.99	-84.86	-23.39	-88.66
13.61	-32.93	-169.38	-23.98	-85.37	-23.98	-85.47	-23.47	-88.78
13.71	-32.9	-171.96	-23.96	-85.95	-23.96	-85.97	-23.55	-89.23
13.81	-32.8	-173.31	-23.97	-86.56	-23.95	-86.6	-23.62	-89.51
13.91	-32.66	-175.26	-23.96	-87.21	-23.94	-87.09	-23.65	-90.1
14.01	-32.47	-176.59	-23.94	-87.89	-23.93	-87.79	-23.72	-90.51
14.11	-32.21	-178.97	-23.94	-88.37	-23.94	-88.35	-23.83	-91.25
14.21	-32.03	178.92	-23.94	-88.88	-23.95	-88.76	-23.94	-91.7
14.31	-31.9	175.69	-23.91	-89.35	-23.91	-89.34	-24.04	-91.94
14.41	-31.84	174.24	-23.89	-90.02	-23.89	-90.05	-24.14	-92.13
14.51	-31.73	171.9	-23.9	-90.65	-23.89	-90.63	-24.19	-92.36
14.61	-31.72	170.67	-23.91	-91.25	-23.89	-91.19	-24.23	-92.68
14.71	-31.56	169.86	-23.88	-91.79	-23.86	-91.69	-24.25	-93.13
14.81	-31.44	168.97	-23.87	-92.47	-23.87	-92.37	-24.32	-93.78
14.91	-31.19	168.29	-23.88	-93.12	-23.88	-92.96	-24.41	-94.38
15.01	-30.99	165.91	-23.86	-93.51	-23.87	-93.41	-24.56	-94.66
15.11	-30.84	163.69	-23.85	-94.02	-23.85	-94.02	-24.61	-94.98
15.21	-30.81	161.64	-23.84	-94.65	-23.83	-94.66	-24.69	-94.94
15.31	-30.88	159.68	-23.84	-95.27	-23.82	-95.21	-24.72	-95.33
15.41	-30.77	158.65	-23.85	-95.72	-23.83	-95.66	-24.83	-95.86
15.51	-30.66	157.66	-23.83	-96.22	-23.8	-96.14	-24.87	-96.13
15.61	-30.35	156.65	-23.82	-96.83	-23.8	-96.7	-24.93	-96.81
15.71	-30.05	155.12	-23.78	-97.5	-23.78	-97.34	-25.05	-97.44
15.81	-29.81	153.2	-23.78	-98.1	-23.79	-97.98	-25.15	-97.91
15.91	-29.59	151.16	-23.78	-98.55	-23.77	-98.56	-25.23	-98.3
16.01	-29.5	148.66	-23.77	-99.03	-23.76	-99.04	-25.3	-98.78
16.11	-29.44	147.02	-23.75	-99.42	-23.73	-99.44	-25.38	-99.27
16.21	-29.45	145.93	-23.72	-100.04	-23.68	-100.01	-25.44	-100.14
16.31	-29.38	145.93	-23.7	-100.71	-23.67	-100.54	-25.59	-100.44
16.41	-29.14	145.42	-23.67	-101.25	-23.64	-101.13	-25.65	-101.05
16.51	-28.85	144.2	-23.64	-101.95	-23.63	-101.83	-25.72	-101.59
16.61	-28.72	142.41	-23.62	-102.61	-23.61	-102.46	-25.79	-102.42
16.71	-28.63	141.07	-23.6	-103.03	-23.58	-103.07	-25.95	-104.1
16.81	-28.57	139.74	-23.6	-103.66	-23.56	-103.72	-26.23	-104.52
16.91	-28.57	138.6	-23.59	-104.06	-23.53	-104.09	-26.57	-105.19
17.01	-28.59	139.53	-23.54	-104.7	-23.48	-104.83	-26.8	-103.55
17.11	-28.38	139.56	-23.53	-105.33	-23.46	-105.42	-26.87	-101.04
17.21	-28.11	139.28	-23.49	-105.9	-23.44	-106.16	-26.16	-100.64
17.31	-27.87	137.82	-23.47	-106.3	-23.45	-106.71	-26.04	-105.2
17.41	-27.76	136.16	-23.38	-106.81	-23.39	-107.35	-26.39	-110.77
17.51	-27.71	134.72	-23.32	-107.76	-23.36	-108.24	-27.39	-111.56
17.61	-27.74	133.18	-23.28	-108.06	-23.32	-108.7	-28	-108.15
17.71	-27.86	132.46	-23.21	-109.13	-23.26	-109.45	-27.7	-104.2
17.81	-27.81	132.43	-23.21	-109.93	-23.23	-110.16	-27.29	-104.9
17.91	-27.68	132.17	-23.17	-110.92	-23.21	-110.9	-27.32	-109.58
18.01	-27.37	131.15	-23.14	-111.72	-23.19	-111.62	-27.87	-112.45
18.11	-27.27	129.16	-23.11	-112.43	-23.16	-112.3	-28.62	-112.68
18.21	-27.19	128.31	-23.08	-113.36	-23.12	-113.26	-29.04	-110.17
18.31	-27.1	127.42	-23.04	-114.23	-23.08	-114.14	-29.32	-108.13
18.41	-27.09	126.71	-23.04	-114.86	-23.07	-114.86	-29	-107.06
18.51	-27.1	127.04	-23.02	-115.92	-23.03	-115.87	-29.19	-107.9
18.61	-26.93	127.07	-23.06	-116.7	-23.04	-116.54	-29.14	-109.34
18.71	-26.88	127.67	-23.01	-117.43	-23.01	-117.26	-29.43	-111.14
18.81	-26.63	127.28	-22.95	-118.24	-22.98	-118.03	-29.81	-112.53
18.91	-26.56	126.21	-22.93	-119.24	-22.93	-119.06	-30.48	-113.31
19.01	-26.45	125.86	-22.9	-120.23	-22.94	-120.13	-30.87	-110.67
19.11	-26.37	125.71	-22.93	-121.02	-22.95	-121.02	-31	-109.79
19.21	-26.36	125.45	-22.93	-121.74	-22.92	-121.62	-31.06	-109.68
19.31	-26.26	125.84	-22.87	-122.78	-22.85	-122.77	-31.48	-111.64
19.41	-26.06	126.17	-22.91	-124.11	-22.91	-123.98	-32.12	-110.36
19.51	-25.94	126.19	-22.95	-125.02	-22.94	-124.8	-32.59	-108.86
19.61	-25.71	125.25	-22.97	-125.64	-22.99	-125.45	-32.61	-106.06
19.71	-25.65	124.52	-22.96	-126.32	-22.97	-126.14	-32.83	-107.62
19.81	-25.7	123.84	-22.9	-127.23	-22.89	-127.21	-33.24	-105.14
19.91	-25.69	124.15	-22.93	-128.33	-22.95	-128.34	-33.62	-103.81
20.01	-25.6	125.21	-23	-129.34	-22.98	-129.32	-33.91	-99.67