!s2p File: Measurements: S11, S21, S12, S22								
# GHz S dB R 50.0								
0.01	-15.61	-0.77	-12.41	-0.38	-12.42	-0.4	-19.63	-1.6
0.11	-15.88	-1.85	-12.54	-1.39	-12.54	-1.37	-20.25	-2.93
0.21	-15.95	-2.35	-12.57	-2.1	-12.57	-2.1	-20.38	-3.13
0.31	-15.98	-2.92	-12.58	-2.88	-12.58	-2.87	-20.42	-3.53
0.41	-15.99	-3.53	-12.59	-3.67	-12.59	-3.66	-20.45	-4.09
0.51	-16	-4.18	-12.59	-4.47	-12.59	-4.48	-20.47	-4.72
0.61	-16.01	-4.83	-12.6	-5.3	-12.59	-5.29	-20.48	-5.35
0.71	-16.01	-5.52	-12.6	-6.13	-12.6	-6.12	-20.48	-6.02
0.81	-16.01	-6.21	-12.6	-6.95	-12.6	-6.95	-20.49	-6.72
0.91	-16.02	-6.91	-12.61	-7.78	-12.6	-7.77	-20.51	-7.43
1.01	-16.02	-7.62	-12.61	-8.6	-12.61	-8.6	-20.51	-8.13
1.11	-16.03	-8.31	-12.61	-9.43	-12.61	-9.43	-20.52	-8.85
1.21	-16.03	-9.07	-12.62	-10.27	-12.61	-10.25	-20.53	-9.57
1.31	-16.04	-9.82	-12.62	-11.09	-12.62	-11.09	-20.53	-10.35
1.41	-16.04	-10.59	-12.63	-11.94	-12.62	-11.92	-20.55	-11.13
1.51	-16.05	-11.33	-12.63	-12.76	-12.63	-12.76	-20.56	-11.81
1.61	-16.05	-12.07	-12.63	-13.59	-12.63	-13.59	-20.57	-12.53
1.71	-16.05	-12.86	-12.64	-14.42	-12.64	-14.42	-20.57	-13.32
1.81	-16.05	-13.68	-12.64	-15.26	-12.64	-15.24	-20.58	-14.14
1.91	-16.06	-14.46	-12.65	-16.08	-12.64	-16.08	-20.59	-14.92
2.01	-16.07	-15.25	-12.65	-16.91	-12.65	-16.91	-20.61	-15.71
2.11	-16.07	-16.03	-12.66	-17.74	-12.66	-17.74	-20.63	-16.49
2.21	-16.08	-16.8	-12.67	-18.56	-12.66	-18.57	-20.65	-17.23
2.31	-16.09	-17.58	-12.67	-19.39	-12.67	-19.39	-20.67	-17.98
2.41	-16.1	-18.35	-12.68	-20.22	-12.67	-20.21	-20.68	-18.74
2.51	-16.11	-19.11	-12.68	-21.03	-12.68	-21.04	-20.71	-19.46
2.61	-16.12	-19.86	-12.69	-21.87	-12.69	-21.86	-20.73	-20.21
2.71	-16.14	-20.57	-12.69	-22.68	-12.69	-22.68	-20.75	-20.92
2.81	-16.15	-21.29	-12.7	-23.5	-12.7	-23.5	-20.78	-21.66
2.91	-16.17	-22.01	-12.71	-24.33	-12.7	-24.32	-20.81	-22.37
3.01	-16.18	-22.78	-12.71	-25.16	-12.71	-25.13	-20.82	-23.02
3.11	-16.19	-23.55	-12.72	-25.97	-12.72	-25.97	-20.85	-23.78
3.21	-16.21	-24.31	-12.73	-26.79	-12.72	-26.79	-20.87	-24.49
3.31	-16.23	-25.09	-12.73	-27.61	-12.73	-27.61	-20.9	-25.21
3.41	-16.25	-25.84	-12.74	-28.43	-12.74	-28.43	-20.93	-25.89
3.51	-16.26	-26.6	-12.75	-29.24	-12.74	-29.25	-20.96	-26.58
3.61	-16.28	-27.4	-12.75	-30.06	-12.75	-30.07	-20.99	-27.29
3.71	-16.3	-28.2	-12.76	-30.87	-12.76	-30.89	-21.01	-28.01
3.81	-16.32	-29.04	-12.77	-31.7	-12.77	-31.72	-21.04	-28.76
3.91	-16.34	-29.81	-12.78	-32.53	-12.77	-32.54	-21.08	-29.52
4.01	-16.37	-30.57	-12.78	-33.34	-12.78	-33.37	-21.11	-30.2
4.11	-16.38	-31.34	-12.79	-34.19	-12.79	-34.18	-21.15	-30.87
4.21	-16.39	-32.12	-12.79	-34.99	-12.8	-34.99	-21.18	-31.48
4.31	-16.42	-32.98	-12.8	-35.79	-12.81	-35.8	-21.2	-32.18
4.41	-16.44	-33.82	-12.81	-36.61	-12.82	-36.62	-21.22	-32.93
4.51	-16.47	-34.61	-12.83	-37.42	-12.83	-37.43	-21.26	-33.71
4.61	-16.5	-35.37	-12.83	-38.25	-12.83	-38.26	-21.3	-34.38
4.71	-16.52	-36.08	-12.84	-39.07	-12.84	-39.07	-21.35	-35.08
4.81	-16.53	-36.85	-12.85	-39.91	-12.85	-39.89	-21.39	-35.67
4.91	-16.54	-37.66	-12.86	-40.71	-12.86	-40.69	-21.42	-36.23
5.01	-16.56	-38.47	-12.86	-41.52	-12.87	-41.51	-21.45	-36.85
5.11	-16.59	-39.3	-12.88	-42.31	-12.88	-42.32	-21.47	-37.53
5.21	-16.62	-40.07	-12.89	-43.13	-12.89	-43.13	-21.51	-38.18
5.31	-16.65	-40.81	-12.9	-43.95	-12.9	-43.95	-21.55	-38.89
5.41	-16.69	-41.5	-12.91	-44.77	-12.91	-44.76	-21.6	-39.56
5.51	-16.71	-42.22	-12.92	-45.57	-12.92	-45.57	-21.67	-40.09
5.61	-16.74	-42.99	-12.93	-46.4	-12.93	-46.39	-21.7	-40.55
5.71	-16.76	-43.79	-12.94	-47.22	-12.94	-47.2	-21.73	-41.13
5.81	-16.8	-44.65	-12.95	-48.01	-12.95	-48.01	-21.76	-41.66
5.91	-16.84	-45.44	-12.96	-48.83	-12.96	-48.82	-21.78	-42.34
6.01	-16.88	-46.21	-12.97	-49.64	-12.97	-49.64	-21.82	-43.05
6.11	-16.92	-46.96	-12.99	-50.46	-12.98	-50.46	-21.86	-43.65
6.21	-16.94	-47.7	-13	-51.25	-13	-51.26	-21.92	-44.19
6.31	-16.97	-48.46	-13.01	-52.05	-13.01	-52.06	-21.95	-44.7
6.41	-16.99	-49.29	-13.02	-52.85	-13.02	-52.87	-22	-45.23
6.51	-17.02	-50.13	-13.04	-53.64	-13.04	-53.66	-22.03	-45.72
6.61	-17.06	-50.99	-13.05	-54.47	-13.05	-54.46	-22.07	-46.33
6.71	-17.1	-51.8	-13.06	-55.28	-13.06	-55.26	-22.11	-46.95
6.81	-17.13	-52.57	-13.08	-56.08	-13.07	-56.06	-22.16	-47.56
6.91	-17.16	-53.38	-13.09	-56.86	-13.09	-56.84	-22.21	-48.2
7.01	-17.19	-54.16	-13.1	-57.65	-13.1	-57.65	-22.26	-48.72
7.11	-17.21	-54.98	-13.11	-58.42	-13.12	-58.44	-22.3	-49.23
7.21	-17.25	-55.8	-13.13	-59.24	-13.13	-59.24	-22.33	-49.62
7.31	-17.27	-56.58	-13.14	-60.07	-13.14	-60.06	-22.34	-50.19
7.41	-17.3	-57.39	-13.16	-60.88	-13.16	-60.86	-22.35	-50.83
7.51	-17.33	-58.2	-13.18	-61.65	-13.18	-61.63	-22.39	-51.52
7.61	-17.36	-58.96	-13.19	-62.44	-13.19	-62.4	-22.45	-52.11
7.71	-17.4	-59.75	-13.2	-63.19	-13.21	-63.16	-22.5	-52.66
7.81	-17.42	-60.53	-13.22	-63.93	-13.23	-63.97	-22.55	-53.2
7.91	-17.46	-61.31	-13.24	-64.74	-13.24	-64.75	-22.59	-53.63
8.01	-17.51	-62.16	-13.25	-65.51	-13.26	-65.51	-22.63	-54.24
8.11	-17.55	-63.02	-13.27	-66.26	-13.27	-66.26	-22.67	-54.95
8.21	-17.6	-63.85	-13.29	-67.04	-13.29	-67.04	-22.71	-55.58
8.31	-17.65	-64.67	-13.3	-67.84	-13.31	-67.8	-22.76	-56.26
8.41	-17.68	-65.52	-13.31	-68.56	-13.32	-68.55	-22.8	-56.89
8.51	-17.72	-66.4	-13.33	-69.32	-13.34	-69.3	-22.86	-57.54
8.61	-17.74	-67.32	-13.35	-70.06	-13.36	-70.04	-22.91	-58.19
8.71	-17.78	-68.3	-13.37	-70.81	-13.37	-70.75	-22.96	-58.75
8.81	-17.82	-69.21	-13.39	-71.53	-13.39	-71.49	-23.01	-59.39
8.91	-17.87	-70.15	-13.4	-72.26	-13.4	-72.24	-23.07	-60.12
9.01	-17.91	-71.05	-13.41	-73.01	-13.42	-72.94	-23.14	-60.83
9.11	-17.95	-71.98	-13.42	-73.7	-13.43	-73.66	-23.21	-61.48
9.21	-18	-72.91	-13.44	-74.42	-13.44	-74.39	-23.3	-62.11
9.31	-18.04	-73.8	-13.45	-75.15	-13.45	-75.11	-23.38	-62.74
9.41	-18.08	-74.73	-13.46	-75.87	-13.46	-75.83	-23.45	-63.32
9.51	-18.12	-75.66	-13.48	-76.6	-13.48	-76.57	-23.55	-63.89
9.61	-18.17	-76.59	-13.49	-77.33	-13.48	-77.27	-23.63	-64.38
9.71	-18.22	-77.56	-13.49	-78.04	-13.49	-78	-23.73	-64.86
9.81	-18.27	-78.46	-13.5	-78.73	-13.5	-78.73	-23.82	-65.41
9.91	-18.31	-79.28	-13.51	-79.47	-13.51	-79.44	-23.93	-65.89
10.01	-18.36	-80.15	-13.51	-80.22	-13.52	-80.18	-24.03	-66.37
10.11	-18.4	-80.99	-13.52	-80.96	-13.52	-80.89	-24.15	-66.88
10.21	-18.46	-81.89	-13.53	-81.64	-13.53	-81.62	-24.28	-67.28
10.31	-18.52	-82.78	-13.53	-82.38	-13.54	-82.33	-24.39	-67.57
10.41	-18.57	-83.7	-13.54	-83.11	-13.54	-83.08	-24.52	-67.74
10.51	-18.64	-84.62	-13.55	-83.81	-13.55	-83.82	-24.61	-67.89
10.61	-18.71	-85.62	-13.55	-84.57	-13.55	-84.55	-24.73	-68.15
10.71	-18.78	-86.48	-13.55	-85.36	-13.56	-85.29	-24.83	-68.46
10.81	-18.84	-87.37	-13.56	-86.13	-13.56	-86.04	-24.97	-68.68
10.91	-18.9	-88.37	-13.56	-86.87	-13.57	-86.8	-25.1	-68.99
11.01	-18.97	-89.25	-13.56	-87.61	-13.57	-87.55	-25.27	-69
11.11	-19.02	-90.15	-13.57	-88.35	-13.58	-88.33	-25.37	-69
11.21	-19.08	-91.1	-13.59	-89.11	-13.58	-89.11	-25.49	-68.97
11.31	-19.14	-91.96	-13.6	-89.86	-13.59	-89.86	-25.58	-68.97
11.41	-19.2	-92.94	-13.59	-90.64	-13.59	-90.61	-25.67	-69.03
11.51	-19.25	-93.79	-13.6	-91.44	-13.6	-91.33	-25.79	-69.05
11.61	-19.31	-94.64	-13.61	-92.19	-13.6	-92.07	-25.9	-69.16
11.71	-19.35	-95.53	-13.6	-92.92	-13.62	-92.88	-26.03	-69.25
11.81	-19.41	-96.54	-13.61	-93.66	-13.62	-93.61	-26.19	-69.02
11.91	-19.48	-97.45	-13.62	-94.43	-13.62	-94.41	-26.29	-68.46
12.01	-19.52	-98.42	-13.63	-95.18	-13.63	-95.23	-26.34	-68.28
12.11	-19.57	-99.3	-13.64	-96.02	-13.64	-95.99	-26.43	-67.99
12.21	-19.62	-100.18	-13.66	-96.73	-13.64	-96.7	-26.51	-67.84
12.31	-19.68	-101.05	-13.66	-97.56	-13.66	-97.48	-26.58	-67.84
12.41	-19.73	-101.97	-13.66	-98.36	-13.66	-98.19	-26.65	-67.82
12.51	-19.79	-102.9	-13.67	-99.09	-13.67	-98.98	-26.8	-67.84
12.61	-19.83	-103.78	-13.67	-99.8	-13.68	-99.74	-26.94	-67.41
12.71	-19.91	-104.76	-13.67	-100.56	-13.69	-100.53	-27.05	-66.89
12.81	-19.99	-105.7	-13.69	-101.3	-13.7	-101.35	-27.13	-65.76
12.91	-20.08	-106.51	-13.7	-102.09	-13.7	-102.06	-27.16	-65.31
13.01	-20.13	-107.48	-13.71	-102.91	-13.7	-102.84	-27.2	-64.52
13.11	-20.23	-108.31	-13.72	-103.72	-13.71	-103.66	-27.21	-64.49
13.21	-20.27	-109.06	-13.75	-104.47	-13.75	-104.32	-27.29	-64.42
13.31	-20.32	-110.26	-13.73	-105.15	-13.74	-105.03	-27.45	-63.86
13.41	-20.37	-111.29	-13.74	-105.89	-13.75	-105.86	-27.5	-63.16
13.51	-20.43	-112.44	-13.74	-106.66	-13.76	-106.6	-27.57	-63.06
13.61	-20.48	-113.47	-13.75	-107.38	-13.76	-107.4	-27.6	-62.1
13.71	-20.56	-114.47	-13.75	-108.15	-13.75	-108.14	-27.67	-61.56
13.81	-20.6	-115.41	-13.77	-108.97	-13.77	-108.94	-27.69	-60.89
13.91	-20.68	-116.38	-13.78	-109.8	-13.78	-109.64	-27.7	-60.65
14.01	-20.72	-117.33	-13.79	-110.58	-13.78	-110.47	-27.72	-60.18
14.11	-20.75	-118.38	-13.79	-111.33	-13.8	-111.22	-27.85	-59.93
14.21	-20.81	-119.46	-13.8	-112.08	-13.82	-111.95	-27.95	-59.11
14.31	-20.89	-120.69	-13.8	-112.79	-13.82	-112.72	-27.97	-58.18
14.41	-20.93	-121.45	-13.81	-113.54	-13.82	-113.54	-28.02	-57.1
14.51	-21.01	-122.57	-13.82	-114.4	-13.83	-114.34	-27.99	-56.39
14.61	-21.05	-123.4	-13.85	-115.19	-13.84	-115.08	-27.91	-55.76
14.71	-21.09	-124.35	-13.85	-115.93	-13.84	-115.78	-27.87	-55.53
14.81	-21.12	-125.15	-13.86	-116.76	-13.85	-116.57	-27.89	-55.21
14.91	-21.11	-126.18	-13.87	-117.54	-13.87	-117.38	-27.93	-54.76
15.01	-21.19	-127.26	-13.87	-118.21	-13.88	-118.07	-27.98	-53.58
15.11	-21.25	-128.47	-13.88	-118.96	-13.89	-118.89	-27.92	-52.95
15.21	-21.34	-129.32	-13.89	-119.7	-13.89	-119.68	-27.85	-51.89
15.31	-21.43	-130.02	-13.91	-120.52	-13.9	-120.42	-27.79	-51.41
15.41	-21.48	-130.99	-13.93	-121.25	-13.92	-121.13	-27.77	-50.68
15.51	-21.52	-131.85	-13.94	-121.99	-13.92	-121.84	-27.68	-50.25
15.61	-21.55	-133.18	-13.95	-122.77	-13.94	-122.59	-27.69	-50.17
15.71	-21.58	-134.4	-13.94	-123.54	-13.95	-123.33	-27.74	-49.59
15.81	-21.64	-135.59	-13.96	-124.28	-13.96	-124.12	-27.71	-48.92
15.91	-21.68	-136.87	-13.97	-125	-13.97	-124.94	-27.68	-48.27
16.01	-21.78	-137.92	-13.98	-125.7	-13.98	-125.66	-27.63	-47.79
16.11	-21.86	-138.99	-14	-126.36	-13.98	-126.34	-27.59	-47.25
16.21	-21.92	-139.68	-14.01	-127.16	-13.98	-127.09	-27.58	-47.19
16.31	-21.91	-140.4	-14.01	-127.92	-13.99	-127.73	-27.54	-46.21
16.41	-21.9	-141.64	-14.01	-128.63	-14	-128.41	-27.49	-45.91
16.51	-21.93	-143	-14.02	-129.42	-14	-129.25	-27.45	-45.61
16.61	-21.99	-144.09	-14.02	-130.2	-14.01	-130.02	-27.43	-45.25
16.71	-22	-145.13	-14.03	-130.78	-14.01	-130.78	-27.56	-45.03
16.81	-22.08	-146.16	-14.04	-131.58	-14.01	-131.56	-27.58	-43.16
16.91	-22.12	-147.05	-14.07	-132.26	-14.01	-132.22	-27.6	-41.47
17.01	-22.08	-147.45	-14.07	-132.93	-14.02	-132.95	-27.31	-39.37
17.11	-22.06	-148.55	-14.09	-133.67	-14.02	-133.68	-26.87	-38.24
17.21	-22.02	-149.81	-14.08	-134.28	-14.03	-134.43	-26.39	-41.37
17.31	-22.05	-151.1	-14.07	-134.94	-14.05	-135.22	-26.69	-43.76
17.41	-22.09	-152.35	-14.03	-135.56	-14.04	-135.94	-27.34	-43.81
17.51	-22.14	-153.38	-14.01	-136.45	-14.03	-136.79	-27.53	-38.11
17.61	-22.24	-154.2	-13.99	-137.03	-14.03	-137.49	-27.03	-34.24
17.71	-22.28	-154.84	-13.98	-138.05	-14.02	-138.24	-26.3	-34.85
17.81	-22.28	-155.49	-13.99	-138.87	-14.01	-138.97	-26.06	-37.11
17.91	-22.28	-156.56	-13.99	-139.87	-14.02	-139.78	-26.36	-38.46
18.01	-22.27	-158.34	-14	-140.76	-14.03	-140.58	-26.6	-36.8
18.11	-22.39	-159.31	-13.99	-141.54	-14.04	-141.29	-26.53	-33.93
18.21	-22.37	-160.64	-14	-142.33	-14.03	-142.19	-26.2	-32.31
18.31	-22.38	-161.83	-13.99	-143.14	-14.02	-143.05	-25.89	-31.08
18.41	-22.42	-162.9	-14	-143.9	-14.02	-143.84	-25.56	-32.49
18.51	-22.38	-163.94	-14.01	-144.71	-14.01	-144.59	-25.5	-32.36
18.61	-22.38	-164.82	-14.04	-145.6	-14.03	-145.36	-25.41	-33.23
18.71	-22.3	-165.6	-14.03	-146.35	-14.02	-146.15	-25.42	-33.08
18.81	-22.23	-167.16	-14.01	-147.22	-14.03	-146.98	-25.42	-32.52
18.91	-22.26	-168.26	-14.02	-148.11	-14.02	-147.87	-25.39	-30.91
19.01	-22.23	-169.64	-14	-148.92	-14.03	-148.82	-25.1	-30.1
19.11	-22.21	-170.68	-14.02	-149.69	-14.03	-149.66	-24.9	-30
19.21	-22.21	-171.7	-14.04	-150.53	-14.03	-150.39	-24.72	-30.49
19.31	-22.14	-172.87	-14.02	-151.37	-14.01	-151.27	-24.76	-30.32
19.41	-22.11	-174.18	-14.04	-152.41	-14.04	-152.27	-24.62	-29.07
19.51	-22.05	-175.31	-14.07	-153.3	-14.05	-153.07	-24.43	-28.3
19.61	-22.07	-176.91	-14.08	-154.1	-14.08	-153.88	-24.14	-28.61
19.71	-22.08	-177.87	-14.08	-154.9	-14.08	-154.71	-24.08	-28.88
19.81	-22.09	-178.88	-14.07	-155.67	-14.07	-155.58	-23.9	-28.75
19.91	-22.07	-179.84	-14.07	-156.63	-14.08	-156.56	-23.75	-28.25
20.01	-22.02	179.03	-14.11	-157.54	-14.08	-157.43	-23.48	-27.81