! Device:      ADRF5025					
! Description: Silicon SPDT Switch, Reflective			
! Frequency:   9kHz -  44.00 GHz						
! Ports:       										
!        RFC = Port 1
!        RF1 = Port 2
!        RF2 = Port 3
!						
! VDD   =  +3.30 Volts
! VSS   =  -3.30 Volts
! CTRL  =  +3.30 Volts
!				
	
! Data:  Data was collected using an calibrated 4 port network analyzer 						
!	      using G-S-G Probes on Probe Matrix Board. 
!             The reference plane is the package pins of ADRF5025 switch.
! Notes: Analog Devices supplies this data as a sample of measured data						
!             for this product.  Your particular data for this product may vary.						
!             Data was taken at 25 degrees C.						
!             Analog Devices reserves the right to change this data at anytime.	
!
# GHz S  dB   R 50
0.26 -24.367 -2.566 -0.488 -2.630 -72.640 54.468  
-0.496 -2.661 -29.111 -12.177 -79.064 23.184   
-72.693 60.025 -79.276 43.672 -1.011 177.962   
0.51 -23.788 -8.507 -0.504 -4.959 -67.819 68.760  
-0.514 -5.037 -28.945 -23.208 -77.371 49.431   
-68.008 68.195 -76.397 46.580 -1.081 176.307   
0.76 -24.032 -14.881 -0.527 -7.415 -65.080 75.495  
-0.558 -7.415 -28.759 -32.978 -75.533 63.560   
-64.629 75.577 -74.120 55.027 -1.093 174.395   
1.01 -24.124 -19.964 -0.546 -9.548 -62.713 74.669  
-0.566 -9.510 -28.408 -42.499 -72.359 67.132   
-62.225 74.849 -72.662 65.993 -1.083 172.667   
1.26 -24.084 -24.773 -0.547 -11.777 -60.611 75.231  
-0.558 -11.848 -28.051 -50.482 -70.436 69.936   
-60.498 75.539 -70.552 67.046 -1.087 170.843   
1.51 -24.325 -30.016 -0.561 -14.182 -59.070 74.690  
-0.570 -14.089 -27.599 -57.665 -69.043 67.105   
-58.975 74.598 -69.306 68.443 -1.102 169.154   
1.76 -24.471 -34.542 -0.570 -16.450 -57.720 73.096  
-0.565 -16.381 -27.111 -64.237 -67.903 67.830   
-57.707 73.771 -67.873 69.972 -1.110 167.402   
2.01 -24.499 -37.877 -0.584 -18.680 -56.633 72.468  
-0.559 -18.639 -26.657 -70.558 -66.777 68.590   
-56.725 72.590 -66.745 67.198 -1.113 165.605   
2.26 -24.543 -43.163 -0.583 -21.101 -55.588 70.131  
-0.568 -21.067 -26.157 -76.361 -65.855 66.947   
-55.631 71.489 -66.063 66.369 -1.121 163.909   
2.51 -24.466 -48.547 -0.588 -23.241 -54.693 69.656  
-0.598 -23.246 -25.706 -81.370 -64.747 64.916   
-54.676 69.519 -64.759 67.570 -1.129 162.142   
2.76 -24.569 -53.079 -0.588 -25.630 -53.852 68.068  
-0.592 -25.551 -25.241 -86.237 -64.272 66.450   
-53.867 68.247 -64.391 66.046 -1.129 160.351   
3.01 -24.595 -57.570 -0.611 -27.854 -53.106 66.387  
-0.626 -27.872 -24.866 -90.589 -63.309 63.619   
-53.282 66.711 -63.363 64.159 -1.132 158.610   
3.26 -24.741 -63.052 -0.620 -30.121 -52.462 64.981  
-0.616 -30.060 -24.435 -94.695 -62.875 63.629   
-52.513 65.111 -62.713 61.525 -1.140 156.888   
3.51 -24.687 -66.720 -0.638 -32.344 -51.890 63.361  
-0.648 -32.309 -24.087 -98.881 -62.279 60.746   
-51.970 63.254 -62.114 62.021 -1.145 155.092   
3.76 -24.915 -71.192 -0.616 -34.514 -51.441 61.672  
-0.618 -34.555 -23.765 -102.472 -61.822 60.301   
-51.407 61.801 -61.528 59.798 -1.149 153.316   
4.01 -24.900 -75.469 -0.628 -36.848 -50.931 59.978  
-0.628 -36.873 -23.456 -106.170 -61.128 59.224   
-50.951 60.217 -61.010 60.644 -1.154 151.537   
4.26 -24.742 -79.245 -0.616 -39.224 -50.422 58.755  
-0.642 -39.239 -23.151 -109.671 -60.711 57.921   
-50.420 58.593 -60.831 58.520 -1.160 149.751   
4.51 -24.830 -86.332 -0.642 -41.373 -50.001 57.386  
-0.650 -41.229 -22.906 -112.802 -60.358 57.668   
-50.005 57.555 -60.226 57.922 -1.163 147.966   
4.76 -24.938 -89.717 -0.655 -43.899 -49.550 55.627  
-0.642 -43.755 -22.624 -116.334 -59.749 57.304   
-49.558 55.866 -59.816 57.431 -1.167 146.167   
5.01 -25.021 -94.381 -0.672 -46.165 -49.100 54.190  
-0.662 -46.035 -22.413 -119.186 -59.343 55.051   
-49.072 54.239 -59.286 55.138 -1.169 144.347   
5.26 -24.803 -98.546 -0.672 -48.148 -48.711 52.872  
-0.675 -48.071 -22.245 -122.165 -58.795 51.218   
-48.682 52.677 -58.996 51.651 -1.178 142.534   
5.51 -24.748 -102.795 -0.673 -50.607 -48.333 50.685  
-0.677 -50.476 -22.016 -125.097 -58.736 51.784   
-48.366 50.785 -58.549 50.541 -1.182 140.734   
5.76 -24.791 -108.421 -0.666 -52.840 -47.989 48.689  
-0.654 -52.676 -21.806 -127.834 -58.390 49.520   
-47.980 48.776 -58.405 51.386 -1.190 138.917   
6.01 -25.355 -109.571 -0.694 -55.056 -47.712 47.026  
-0.666 -55.206 -21.685 -130.504 -57.971 46.866   
-47.671 46.769 -58.089 47.814 -1.198 137.087   
6.26 -24.546 -111.866 -0.679 -57.224 -47.462 45.166  
-0.686 -57.221 -21.518 -133.103 -58.147 45.822   
-47.438 45.281 -57.888 46.813 -1.202 135.246   
6.51 -24.601 -119.542 -0.690 -59.641 -47.182 43.713  
-0.682 -59.613 -21.406 -135.938 -57.690 46.798   
-47.217 43.652 -57.744 47.631 -1.211 133.403   
6.76 -24.458 -121.414 -0.703 -61.790 -46.863 42.125  
-0.708 -61.783 -21.302 -138.220 -57.233 45.981   
-46.894 42.670 -57.294 45.761 -1.222 131.559   
7.01 -24.405 -126.181 -0.689 -64.094 -46.639 40.642  
-0.692 -64.042 -21.185 -140.804 -57.055 43.655   
-46.589 40.872 -56.978 44.431 -1.231 129.723   
7.26 -24.369 -129.829 -0.721 -66.420 -46.379 38.593  
-0.723 -66.369 -21.116 -143.098 -56.253 41.768   
-46.416 39.059 -56.349 42.108 -1.243 127.872   
7.51 -24.357 -135.019 -0.732 -68.556 -46.174 37.070  
-0.720 -68.525 -21.056 -145.489 -56.253 39.206   
-46.195 37.142 -56.092 38.671 -1.249 126.032   
7.76 -24.403 -139.475 -0.717 -70.861 -45.991 34.916  
-0.702 -70.927 -20.962 -147.861 -56.260 35.801   
-45.941 35.304 -56.288 36.242 -1.261 124.180   
8.01 -24.311 -143.313 -0.731 -73.117 -45.814 33.393  
-0.714 -73.155 -20.922 -149.980 -56.143 36.199   
-45.785 33.789 -56.043 35.322 -1.272 122.347   
8.26 -23.883 -145.492 -0.744 -75.429 -45.640 31.737  
-0.739 -75.327 -20.879 -152.213 -55.895 34.261   
-45.611 31.852 -55.923 33.409 -1.278 120.505   
8.51 -23.967 -150.367 -0.729 -77.646 -45.461 30.003  
-0.716 -77.636 -20.831 -154.494 -55.887 31.940   
-45.495 29.903 -55.778 32.030 -1.288 118.640   
8.76 -24.054 -154.982 -0.750 -79.928 -45.342 28.022  
-0.733 -79.975 -20.811 -156.404 -55.820 30.730   
-45.287 28.063 -55.864 30.775 -1.297 116.794   
9.01 -23.840 -158.321 -0.757 -82.121 -45.209 26.042  
-0.742 -82.162 -20.786 -158.481 -55.706 28.364   
-45.190 26.098 -55.885 29.246 -1.306 114.931   
9.26 -24.181 -158.926 -0.752 -84.366 -45.074 24.362  
-0.762 -84.462 -20.768 -160.453 -55.844 28.086   
-45.108 24.365 -55.667 27.799 -1.315 113.074   
9.51 -23.988 -162.025 -0.771 -86.656 -45.137 22.311  
-0.780 -86.701 -20.776 -162.535 -56.026 28.419   
-45.107 21.862 -56.121 28.106 -1.322 111.217   
9.76 -23.570 -168.829 -0.780 -89.037 -45.149 21.219  
-0.763 -89.101 -20.776 -164.314 -55.932 29.677   
-45.135 21.409 -55.865 29.643 -1.330 109.337   
10.01 -23.888 -172.326 -0.768 -91.155 -44.968 20.703  
-0.761 -91.312 -20.783 -166.443 -55.329 28.242   
-44.994 20.709 -55.472 29.072 -1.337 107.453   
10.26 -23.575 -171.879 -0.767 -93.494 -44.827 19.753  
-0.770 -93.510 -20.803 -168.258 -55.191 30.059   
-44.852 19.760 -55.321 29.430 -1.349 105.586   
10.51 -23.188 -176.605 -0.777 -95.896 -44.698 18.278  
-0.765 -95.930 -20.839 -169.927 -55.184 26.642   
-44.730 17.839 -55.019 27.106 -1.359 103.705   
10.76 -23.221 179.646 -0.784 -97.907 -44.635 16.960  
-0.772 -98.015 -20.827 -171.851 -55.000 27.363   
-44.616 16.767 -54.889 26.749 -1.363 101.845   
11.01 -23.010 178.249 -0.773 -100.250 -44.575 15.622  
-0.761 -100.337 -20.880 -173.636 -54.971 26.510   
-44.545 15.281 -54.943 26.726 -1.376 99.947   
11.26 -23.093 173.307 -0.791 -102.648 -44.553 14.774  
-0.778 -102.853 -20.889 -174.817 -54.764 27.280   
-44.518 14.706 -54.781 27.525 -1.386 98.084   
11.51 -23.107 173.081 -0.805 -104.719 -44.373 13.826  
-0.804 -104.831 -20.878 -176.747 -54.266 26.468   
-44.340 13.491 -54.330 26.435 -1.393 96.205   
11.76 -22.793 169.770 -0.784 -107.140 -44.233 12.290  
-0.772 -107.250 -20.949 -178.382 -53.974 25.893   
-44.224 12.109 -53.907 25.945 -1.402 94.321   
12.01 -23.179 166.657 -0.812 -109.561 -44.148 11.275  
-0.820 -109.669 -20.861 -179.596 -53.512 25.250   
-44.158 11.220 -53.504 24.680 -1.412 92.445   
12.26 -22.763 166.735 -0.817 -111.608 -44.016 10.215  
-0.818 -111.659 -20.924 178.465 -53.264 23.586   
-44.005 10.109 -53.283 23.961 -1.419 90.576   
12.51 -22.660 159.480 -0.802 -113.893 -43.866 8.531  
-0.803 -114.200 -20.952 176.999 -52.878 21.577   
-43.891 8.188 -52.831 22.143 -1.423 88.704   
12.76 -22.773 160.853 -0.803 -116.375 -43.780 7.408  
-0.817 -116.433 -20.940 175.745 -52.458 19.382   
-43.789 7.340 -52.453 19.027 -1.432 86.822   
13.01 -22.512 157.373 -0.814 -118.486 -43.621 6.254  
-0.829 -118.668 -20.950 173.858 -52.561 17.597   
-43.609 6.122 -52.587 18.101 -1.439 84.907   
13.26 -22.694 153.741 -0.811 -120.775 -43.480 3.586  
-0.832 -120.985 -20.957 172.224 -52.595 15.496   
-43.489 3.101 -52.721 15.268 -1.451 83.050   
13.51 -22.447 153.736 -0.821 -123.247 -43.504 2.515  
-0.828 -123.299 -20.956 171.349 -51.993 16.301   
-43.466 2.288 -51.911 16.241 -1.461 81.160   
13.76 -22.241 150.988 -0.841 -125.391 -43.407 1.252  
-0.851 -125.536 -20.920 169.428 -51.949 14.726   
-43.422 0.997 -51.945 14.832 -1.473 79.281   
14.01 -22.578 148.686 -0.827 -127.673 -43.327 0.487  
-0.861 -127.734 -20.922 168.005 -51.385 16.074   
-43.385 0.238 -51.441 15.105 -1.482 77.436   
14.26 -22.079 148.629 -0.829 -130.041 -43.128 -0.848  
-0.833 -130.063 -20.912 166.728 -50.793 11.443   
-43.107 -0.936 -50.819 11.759 -1.490 75.593   
14.51 -22.033 145.376 -0.858 -132.227 -43.027 -2.353  
-0.873 -132.339 -20.918 164.898 -50.641 10.217   
-43.063 -2.521 -50.630 10.153 -1.501 73.745   
14.76 -22.206 144.131 -0.840 -134.443 -42.847 -3.521  
-0.860 -134.438 -20.826 163.623 -50.077 6.522   
-42.869 -3.629 -50.058 6.438 -1.502 71.908   
15.01 -21.954 141.816 -0.843 -136.871 -42.647 -5.962  
-0.854 -136.958 -20.783 162.192 -49.991 2.008   
-42.683 -6.356 -50.010 1.785 -1.511 70.028   
15.26 -21.999 139.252 -0.870 -139.136 -42.651 -7.706  
-0.889 -139.190 -20.786 160.062 -49.961 -0.068   
-42.703 -7.811 -50.011 -0.125 -1.519 68.164   
15.51 -22.065 139.005 -0.858 -141.325 -42.532 -8.622  
-0.872 -141.259 -20.760 158.829 -49.625 -0.781   
-42.547 -8.478 -49.646 -0.596 -1.530 66.314   
15.76 -21.935 136.466 -0.851 -143.703 -42.280 -10.809  
-0.873 -143.753 -20.695 157.361 -49.276 -4.131   
-42.354 -10.798 -49.319 -4.459 -1.538 64.475   
16.01 -21.901 134.600 -0.882 -145.978 -42.187 -12.827  
-0.909 -145.953 -20.658 155.652 -49.099 -6.436   
-42.213 -12.759 -49.127 -6.128 -1.544 62.659   
16.26 -21.783 133.623 -0.869 -148.189 -41.995 -15.323  
-0.887 -148.198 -20.554 153.979 -48.680 -9.528   
-42.043 -15.257 -48.703 -9.550 -1.551 60.820   
16.51 -21.714 131.299 -0.873 -150.656 -42.001 -17.844  
-0.900 -150.637 -20.476 152.159 -48.482 -13.351   
-42.038 -17.818 -48.528 -13.927 -1.557 58.992   
16.76 -21.732 129.701 -0.891 -152.917 -41.962 -19.566  
-0.907 -152.738 -20.461 150.381 -48.322 -16.004   
-41.988 -19.681 -48.296 -16.187 -1.561 57.158   
17.01 -21.661 127.920 -0.895 -155.037 -41.908 -21.637  
-0.904 -155.045 -20.383 148.511 -47.984 -19.093   
-41.928 -21.730 -48.049 -19.038 -1.569 55.321   
17.26 -21.677 126.455 -0.877 -157.443 -41.775 -23.557  
-0.894 -157.367 -20.316 146.713 -47.633 -23.437   
-41.809 -23.528 -47.685 -23.505 -1.575 53.490   
17.51 -21.607 124.638 -0.902 -159.838 -41.684 -25.699  
-0.913 -159.732 -20.253 144.610 -47.555 -27.950   
-41.688 -25.881 -47.598 -27.861 -1.580 51.695   
17.76 -21.626 122.924 -0.911 -162.026 -41.563 -28.786  
-0.916 -161.990 -20.191 142.745 -47.280 -32.871   
-41.603 -28.597 -47.357 -32.797 -1.582 49.868   
18.01 -21.560 121.431 -0.890 -164.452 -41.643 -31.505  
-0.890 -164.347 -20.136 140.743 -47.331 -36.578   
-41.615 -31.772 -47.224 -36.851 -1.587 48.017   
18.26 -21.716 119.466 -0.924 -166.762 -41.618 -33.400  
-0.926 -166.794 -20.125 138.235 -47.170 -40.044   
-41.654 -33.591 -47.217 -40.447 -1.593 46.192   
18.51 -21.631 118.661 -0.931 -168.932 -41.568 -35.964  
-0.947 -168.920 -20.101 136.421 -46.961 -45.517   
-41.564 -35.951 -46.963 -45.933 -1.597 44.372   
18.76 -21.448 116.366 -0.910 -171.316 -41.505 -38.583  
-0.907 -171.183 -20.042 134.630 -46.859 -50.086   
-41.512 -38.621 -46.859 -49.998 -1.603 42.535   
19.01 -21.715 114.306 -0.944 -173.777 -41.519 -41.267  
-0.952 -173.751 -20.011 131.959 -46.893 -54.525   
-41.570 -41.244 -46.929 -54.560 -1.612 40.730   
19.26 -21.647 113.904 -0.952 -175.833 -41.648 -43.884  
-0.965 -175.621 -20.016 130.349 -47.017 -59.752   
-41.693 -43.821 -47.037 -59.849 -1.621 38.880   
19.51 -21.760 110.958 -0.940 -178.160 -41.630 -45.433  
-0.932 -178.133 -19.968 128.555 -47.040 -62.761   
-41.671 -45.702 -47.092 -63.020 -1.638 37.085   
19.76 -21.900 111.212 -0.955 179.377 -41.657 -47.978  
-0.968 179.442 -19.939 126.093 -47.105 -68.110   
-41.702 -47.622 -47.097 -67.585 -1.652 35.359   
20.01 -21.726 107.397 -0.985 177.236 -41.630 -49.823  
-0.968 177.373 -19.896 124.115 -46.955 -72.419   
-41.634 -49.931 -46.954 -72.863 -1.654 33.601   
20.26 -22.147 105.324 -0.965 174.959 -41.640 -52.605  
-0.952 174.875 -19.885 121.940 -47.139 -78.915   
-41.680 -52.572 -47.185 -79.010 -1.663 31.826   
20.51 -22.227 106.423 -0.977 172.440 -41.733 -55.947  
-0.984 172.501 -19.896 119.519 -47.457 -84.294   
-41.746 -55.792 -47.436 -84.076 -1.666 30.004   
20.76 -22.181 102.081 -1.001 170.275 -41.923 -57.980  
-0.982 170.249 -19.920 117.341 -48.330 -86.826   
-41.928 -58.053 -48.372 -86.842 -1.680 28.265   
21.01 -22.538 103.121 -0.975 168.129 -41.883 -60.111  
-0.979 168.070 -19.964 115.617 -48.189 -84.921   
-41.925 -59.971 -48.160 -84.758 -1.682 26.520   
21.26 -22.200 102.625 -0.976 165.660 -42.159 -60.813  
-0.969 165.760 -19.953 113.595 -48.013 -87.361   
-42.180 -60.856 -48.037 -87.585 -1.687 24.714   
21.51 -22.817 99.085 -1.007 163.426 -42.137 -62.517  
-1.006 163.358 -20.020 111.244 -47.807 -93.661   
-42.178 -62.580 -47.856 -93.366 -1.696 22.967   
21.76 -22.977 100.204 -0.996 161.262 -42.156 -64.037  
-1.002 161.274 -20.080 109.262 -47.850 -96.994   
-42.154 -63.984 -47.922 -96.808 -1.704 21.186   
22.01 -22.697 96.230 -0.995 158.778 -42.055 -64.793  
-0.982 158.818 -20.087 107.441 -48.121 -100.328   
-42.077 -64.628 -48.163 -100.430 -1.708 19.430   
22.26 -23.927 94.084 -1.027 156.504 -41.625 -66.760  
-1.035 156.351 -20.238 105.004 -47.964 -102.064   
-41.698 -66.900 -47.906 -102.018 -1.715 17.661   
22.51 -23.683 96.306 -1.019 154.304 -41.646 -71.797  
-1.017 154.300 -20.309 103.463 -47.341 -109.016   
-41.684 -71.933 -47.350 -109.015 -1.714 15.895   
22.76 -23.732 90.042 -1.028 151.937 -41.897 -74.254  
-1.009 151.741 -20.343 101.601 -48.054 -116.527   
-41.919 -74.623 -48.079 -116.797 -1.718 14.070   
23.01 -24.388 90.697 -1.039 149.595 -41.876 -76.433  
-1.040 149.385 -20.507 99.694 -48.638 -119.413   
-41.954 -76.299 -48.688 -119.613 -1.735 12.249   
23.26 -24.653 92.106 -1.037 147.402 -42.053 -78.316  
-1.039 147.283 -20.545 98.420 -49.018 -119.843   
-42.080 -78.511 -49.067 -119.867 -1.747 10.441   
23.51 -25.108 89.367 -1.040 145.039 -42.129 -80.117  
-1.048 144.850 -20.606 96.294 -49.001 -116.063   
-42.217 -80.412 -49.102 -116.026 -1.770 8.695   
23.76 -25.434 94.508 -1.043 142.583 -42.121 -81.825  
-1.066 142.553 -20.802 94.548 -47.692 -118.990   
-42.168 -81.498 -47.722 -118.696 -1.779 6.920   
24.01 -25.339 93.800 -1.078 140.456 -42.023 -82.702  
-1.088 140.438 -20.877 93.243 -47.189 -126.545   
-42.080 -82.445 -47.257 -126.523 -1.791 5.148   
24.26 -27.438 91.366 -1.063 138.181 -41.747 -85.013  
-1.100 138.013 -21.019 91.637 -47.142 -132.569   
-41.823 -85.032 -47.154 -132.148 -1.807 3.354   
24.51 -27.207 99.290 -1.066 135.670 -41.787 -87.329  
-1.104 135.688 -21.166 89.944 -47.078 -139.293   
-41.826 -87.139 -47.065 -138.954 -1.825 1.623   
24.76 -27.230 96.060 -1.100 133.459 -41.525 -89.157  
-1.125 133.416 -21.258 88.241 -46.856 -143.478   
-41.560 -88.774 -46.910 -143.126 -1.840 -0.079   
25.01 -28.413 100.701 -1.081 131.194 -41.201 -92.969  
-1.123 131.176 -21.527 86.055 -46.948 -150.395   
-41.239 -92.737 -46.980 -149.725 -1.845 -1.857   
25.26 -27.581 98.993 -1.088 128.890 -41.256 -96.742  
-1.111 128.896 -21.736 84.609 -47.259 -155.276   
-41.268 -96.504 -47.275 -155.161 -1.856 -3.603   
25.51 -28.184 100.886 -1.117 126.706 -41.165 -100.892  
-1.138 126.726 -21.954 83.487 -48.170 -155.633   
-41.231 -100.715 -48.155 -155.855 -1.863 -5.407   
25.76 -27.567 107.349 -1.091 124.451 -41.441 -103.352  
-1.110 124.509 -22.144 82.296 -47.016 -153.888   
-41.461 -103.379 -47.103 -154.021 -1.870 -7.180   
26.01 -28.017 98.784 -1.097 122.166 -41.575 -106.259  
-1.112 122.082 -22.354 80.688 -46.675 -165.154   
-41.591 -106.218 -46.726 -165.006 -1.883 -8.945   
26.26 -29.098 100.786 -1.110 119.905 -41.223 -107.468  
-1.131 119.828 -22.638 79.761 -47.220 -171.099   
-41.245 -107.359 -47.245 -170.977 -1.886 -10.744   
26.51 -27.883 112.311 -1.087 117.553 -41.336 -113.334  
-1.100 117.603 -22.846 78.625 -47.587 -168.971   
-41.276 -113.320 -47.617 -169.186 -1.895 -12.495   
26.76 -30.517 113.739 -1.080 115.225 -41.447 -114.699  
-1.116 115.112 -23.184 77.316 -46.299 -171.973   
-41.534 -115.171 -46.563 -172.533 -1.896 -14.367   
27.01 -31.751 119.132 -1.107 112.833 -42.089 -118.040  
-1.148 112.835 -23.559 76.602 -45.970 175.733   
-42.264 -117.231 -45.835 175.898 -1.921 -16.309   
27.26 -30.337 122.258 -1.088 110.533 -41.897 -114.343  
-1.132 110.533 -23.964 76.013 -46.098 168.599   
-42.013 -114.175 -46.166 168.963 -1.940 -18.069   
27.51 -32.724 127.217 -1.074 108.365 -41.249 -118.937  
-1.139 108.213 -24.335 75.323 -47.859 162.145   
-41.439 -119.065 -48.039 162.415 -1.960 -19.870   
27.76 -31.751 147.053 -1.086 105.903 -42.019 -121.263  
-1.152 106.008 -24.732 75.377 -47.155 173.351   
-42.125 -120.052 -46.905 173.199 -1.952 -21.667   
28.01 -30.128 140.675 -1.083 103.567 -41.353 -120.287  
-1.133 103.590 -25.171 75.616 -46.662 162.118   
-41.352 -118.994 -46.547 163.539 -1.973 -23.589   
28.26 -28.441 145.675 -1.089 101.325 -41.191 -122.342  
-1.125 101.390 -25.593 75.332 -46.483 164.286   
-41.311 -122.267 -46.658 162.955 -1.986 -25.462   
28.51 -25.998 155.819 -1.115 98.640 -40.969 -125.217  
-1.143 99.077 -26.230 76.458 -46.003 155.797   
-41.002 -124.468 -46.151 156.847 -2.012 -27.298   
28.76 -25.433 151.165 -1.113 96.269 -40.654 -129.307  
-1.128 96.690 -26.763 78.918 -46.720 150.857   
-40.643 -128.396 -46.718 150.029 -2.031 -29.194   
29.01 -24.420 150.525 -1.110 93.815 -40.672 -132.339  
-1.118 94.367 -27.194 81.089 -47.046 148.080   
-40.599 -131.249 -47.105 146.626 -2.052 -30.999   
29.26 -23.104 153.131 -1.149 91.078 -40.473 -133.798  
-1.130 91.910 -27.628 83.661 -46.590 145.815   
-40.483 -133.390 -46.589 146.007 -2.060 -32.817   
29.51 -23.440 151.924 -1.121 88.925 -40.043 -137.510  
-1.126 89.510 -28.010 86.359 -46.402 143.423   
-39.965 -136.210 -46.470 143.670 -2.094 -34.662   
29.76 -23.858 148.482 -1.137 87.006 -40.222 -141.579  
-1.139 87.323 -28.088 89.527 -46.058 142.231   
-40.197 -140.585 -46.028 143.127 -2.095 -36.429   
30.01 -22.783 139.792 -1.161 84.368 -40.305 -143.503  
-1.128 84.750 -28.357 94.400 -45.683 135.386   
-40.220 -142.505 -45.713 135.260 -2.099 -38.320   
30.26 -23.827 144.487 -1.160 82.248 -40.144 -146.088  
-1.153 82.504 -28.318 96.635 -46.115 128.798   
-40.163 -144.887 -46.150 130.822 -2.101 -40.243   
30.51 -23.585 138.888 -1.186 80.111 -40.104 -146.731  
-1.170 80.241 -28.355 99.427 -46.312 123.997   
-40.139 -147.371 -46.256 126.584 -2.105 -42.226   
30.76 -22.896 130.999 -1.210 77.575 -39.890 -149.848  
-1.165 77.666 -28.245 104.453 -46.736 119.213   
