! Device:      ADRF5025					
! Description: Silicon SPDT Switch, Reflective			
! Frequency:   9kHz -  44.00 GHz						
! Ports:       										
!    RFC = Port 1
!    RF1 = Port 2
!    RF2 = Port 3
!						
! VDD  = 0 Volts
! VSS  = 0 Volts
! VCTL = 0 Volts
!			
! Data:	Data was collected using a calibrated network analyzer.
!	Fixture effects were calibrated out using InSitu software to generate
!	this Deembedded S Parameter data of ADRF5025.					
!						
! Note:	Analog Devices supplies this data as a sample of measured data at the package pin					
!	for this product.  Your particular data for this product may vary.					
!	Data was taken at 25 degrees C.					
!	Analog Devices reserves the right to change this data at anytime.					
!						
# GHZ  S  DB  R  50
0.01  -0.00365621521628  3.2787348677  -47.6854670547  5.25671416072  -48.9839738397  1.02609636944
       -47.6854670547  5.25671416072  -1.23995844957  -4.03838548763  -52.2675749697  -143.45894476
       -48.9839738397  1.02609636943  -52.2675749697  -143.45894476  -0.368775592794  1.37603118519
0.25995  -0.0580128978988  -4.18247764881  -38.1506923877  69.5085980755  -44.1314186649  53.6471892141
       -38.1506923877  69.5085980755  -0.463568192692  0.951415165733  -47.0797883328  82.8653782199
       -44.1314186649  53.6471892141  -47.0797883328  82.8653782199  -0.329579145244  -3.67161011459
0.5099  -0.0858555316847  -6.26054797326  -34.8930802463  69.2834292054  -39.8969081601  65.5064299017
       -34.8930802463  69.2834292054  -0.533161736582  -2.02724133079  -46.0015090925  72.0324297555
       -39.8969081601  65.5064299017  -46.0015090925  72.0324297555  -0.348797520773  -6.09441438097
0.75985  -0.0832039584525  -6.29991697485  -35.5230348722  64.9415545887  -37.2211527729  69.7162811302
       -35.5230348722  64.9415545887  -0.553471766287  -9.66188456501  -57.1720708471  28.6423866319
       -37.2211527729  69.7162811302  -57.1720708471  28.6423866319  -0.368081734207  -7.9019230629
1.0098  -0.113904235663  -8.58785736281  -34.9595724265  68.5750585457  -34.658469118  70.763874365
       -34.9595724265  68.5750585457  -0.532016198489  -12.8726997562  -63.2181323674  -92.8614835885
       -34.658469118  70.763874365  -63.2181323674  -92.8614835885  -0.403342938462  -10.2791415704
1.25975  -0.0958428746335  -12.8391916997  -31.9248800111  69.9563621918  -32.5335714056  69.1991346548
       -31.9248800111  69.9563621918  -0.553369854953  -11.8892715932  -55.3349810592  75.3790698876
       -32.5335714056  69.1991346548  -55.3349810592  75.3790698877  -0.397195495441  -13.4756387083
1.5097  -0.0910822057619  -14.2730984108  -30.7846644224  65.5779323489  -31.2386307557  68.6104136631
       -30.7846644224  65.5779323489  -0.604357181225  -16.4216036817  -58.6032429331  30.6224278306
       -31.2386307557  68.6104136631  -58.6032429331  30.6224278306  -0.387195890179  -15.7017430587
1.75965  -0.114234159635  -15.0792506827  -30.6105615166  63.6057005014  -29.9528634672  67.6872896952
       -30.6105615166  63.6057005014  -0.578252549772  -21.8560156764  -56.524001817  -94.616294704
       -29.9528634672  67.6872896952  -56.524001817  -94.616294704  -0.419002732831  -17.6571681
2.0096  -0.123180757956  -19.1688226969  -28.9458132433  64.4732256208  -28.6265777181  65.0996785134
       -28.9458132433  64.4732256208  -0.575396888125  -21.2968750678  -65.6706870652  109.403602616
       -28.6265777181  65.0996785134  -65.6706870652  109.403602616  -0.428764145676  -20.7847009615
2.25955  -0.0830671575202  -21.7152996896  -27.6286922309  61.4101282231  -27.7213909842  63.0139462741
       -27.6286922309  61.4101282231  -0.643154292292  -23.7442295917  -60.2370940026  56.1291218629
       -27.7213909842  63.0139462741  -60.2370940026  56.1291218629  -0.406710393181  -23.3353115989
2.5095  -0.11074605798  -22.0140922905  -27.5493507304  57.6745235298  -26.9246249336  61.9047549297
       -27.5493507304  57.6745235298  -0.670122453481  -30.1628141113  -55.1712165779  -107.417584648
       -26.9246249336  61.9047549297  -55.1712165779  -107.417584648  -0.408320994129  -25.1802965424
2.75945  -0.118623868904  -25.5801006259  -26.6439267787  57.7832430784  -25.9223678959  58.9110137183
       -26.6439267787  57.7832430784  -0.607723843497  -30.3251822136  -60.2043431501  -169.101616628
       -25.9223678959  58.9110137183  -60.2043431501  -169.101616628  -0.427901597984  -28.135957205
3.0094  -0.102793771443  -28.6890022424  -25.3971711054  56.2580001723  -25.2956782609  56.6284003731
       -25.3971711054  56.2580001723  -0.691279178993  -30.8054305559  -56.4474321978  94.8988122084
       -25.2956782609  56.6284003731  -56.4474321978  94.8988122084  -0.413457702194  -30.8504637433
3.25935  -0.0945295173213  -28.8271641404  -25.2011722896  52.4447875179  -24.7347536315  55.8277827462
       -25.2011722896  52.4447875179  -0.724631149137  -37.045491697  -57.3704986364  -139.454499131
       -24.7347536315  55.8277827462  -57.3704986364  -139.454499131  -0.416184866272  -32.3957289164
3.5093  -0.134529709615  -31.555704777  -24.81816207  50.9787623274  -23.9650919864  53.089292954
       -24.81816207  50.9787623274  -0.647954095117  -38.809944626  -53.440872986  -158.929522427
       -23.9650919864  53.089292954  -53.440872986  -158.929522427  -0.441604865658  -35.1796349849
3.75925  -0.145671051209  -35.7069334099  -23.8165627324  49.9835424569  -23.4512483675  49.845859975
       -23.8165627324  49.9835424569  -0.704598821909  -38.1440185486  -53.8702416978  121.588939202
       -23.4512483675  49.845859975  -53.8702416978  121.588939202  -0.45480811398  -38.2845350077
4.0092  -0.142195001084  -36.4636333345  -23.509810555  46.3775162292  -23.0726213764  48.5001825568
       -23.509810555  46.3775162292  -0.765616526185  -43.9828044166  -55.4777155791  166.314478362
       -23.0726213764  48.5001825568  -55.4777155791  166.314478362  -0.463586913348  -40.3204884818
4.25915  -0.193669976894  -38.1067458805  -23.3453668553  43.9611091232  -22.4848743766  46.6510976134
       -23.3453668553  43.9611091232  -0.675609243772  -47.5372392373  -50.2697484759  -170.297210261
       -22.4848743766  46.6510976134  -50.2697484759  -170.297210261  -0.483565516028  -42.5940980894
4.5091  -0.222178555217  -42.2991170591  -22.5325153657  43.3225947092  -22.0304022217  43.2491894113
       -22.5325153657  43.3225947092  -0.721526492576  -46.1138181838  -50.872716658  136.76306099
       -22.0304022217  43.2491894113  -50.872716658  136.76306099  -0.519970147685  -45.6552444049
4.75905  -0.201249460442  -43.378936143  -22.055844873  40.634644138  -21.7460115039  41.8829177462
       -22.055844873  40.634644138  -0.785393831125  -50.1974029001  -51.0973163998  132.484948439
       -21.7460115039  41.8829177462  -51.0973163998  132.484948439  -0.504592856549  -47.5768153903
5.009  -0.256600747057  -44.4229523627  -22.0687976254  37.4359014505  -21.2411823146  40.2656568911
       -22.0687976254  37.4359014505  -0.71290461583  -55.1820864924  -49.5994001587  165.338540689
       -21.2411823146  40.2656568911  -49.5994001587  165.338540689  -0.53080818397  -49.5875450785
5.25895  -0.307387337788  -48.2859331319  -21.4939553917  36.7780233393  -20.8065791825  37.2573464454
       -21.4939553917  36.7780233393  -0.687695567078  -54.0706548308  -48.703232084  134.661821014
       -20.8065791825  37.2573464454  -48.703232084  134.661821014  -0.565014141962  -52.6216303099
5.5089  -0.288400400966  -50.4242291598  -20.9483635738  34.2886542055  -20.6082363086  35.0268645694
       -20.9483635738  34.2886542055  -0.804225992055  -57.0653384085  -47.9794602683  119.546269664
       -20.6082363086  35.0268645694  -47.9794602683  119.546269664  -0.572238966416  -55.1094501073
5.75885  -0.305986764481  -50.7040773157  -20.8895441537  31.1356961806  -20.2468411077  33.9916777399
       -20.8895441537  31.1356961806  -0.748206828804  -62.7147606034  -47.9355888805  144.904628881
       -20.2468411077  33.9916777399  -47.9355888805  144.904628881  -0.579489299404  -56.7572114695
6.0088  -0.346018480361  -54.2478377558  -20.510907934  29.9239385064  -19.793565714  31.104939977
       -20.510907934  29.9239385064  -0.687087306135  -62.4211585092  -46.9517871471  130.199279471
       -19.793565714  31.104939977  -46.9517871471  130.199279471  -0.593308247843  -59.7247619167
6.25875  -0.308225442264  -56.9067395727  -19.9536426138  28.3080075594  -19.5881477002  28.7987119698
       -19.9536426138  28.3080075594  -0.791281753505  -63.7318622664  -45.9281546926  113.993192691
       -19.5881477002  28.7987119698  -45.9281546926  113.993192691  -0.58146496668  -62.2686353585
6.5087  -0.29814145199  -57.2997530386  -19.8686378693  24.7907324156  -19.2803565467  27.4631704186
       -19.8686378693  24.7907324156  -0.775205046222  -69.8524586616  -45.9281017993  130.809091521
       -19.2803565467  27.4631704186  -45.9281017993  130.809091521  -0.574588889525  -63.990070687
6.75865  -0.352095438052  -60.181070721  -19.627148491  23.1240580554  -18.8603856247  24.8736977901
       -19.627148491  23.1240580554  -0.68825237401  -70.5983716325  -45.3330017234  122.369509392
       -18.8603856247  24.8736977901  -45.3330017234  122.369509392  -0.596457945215  -66.7473772773
7.0086  -0.320093169622  -63.5130482165  -19.0519964552  21.758583882  -18.6650743811  22.1082595213
       -19.0519964552  21.758583882  -0.76432172518  -70.6247188901  -44.1893954742  102.241368539
       -18.6650743811  22.1082595213  -44.1893954742  102.241368539  -0.558683191578  -69.6553579648
7.25855  -0.292315083544  -63.9965815571  -18.9375188136  18.2672919654  -18.4592744168  20.7155456582
       -18.9375188136  18.2672919654  -0.791360463188  -76.5066222581  -44.3438456144  116.141579971
       -18.4592744168  20.7155456582  -44.3438456144  116.141579971  -0.580329374199  -71.4870022409
7.5085  -0.337486573532  -66.1657271726  -18.8578982634  16.0930028136  -18.024242064  18.5077899286
       -18.8578982634  16.0930028136  -0.702606202405  -78.8087237869  -43.6706676603  118.733993796
       -18.024242064  18.5077899286  -43.6706676603  118.733993796  -0.617061109186  -73.9721559458
7.75845  -0.305904691666  -69.9127812086  -18.3056173924  14.9758640537  -17.7598254694  15.6355915107
       -18.3056173924  14.9758640537  -0.744608492304  -77.6954594247  -42.5403967131  96.0729491693
       -17.7598254694  15.6355915107  -42.5403967131  96.0729491693  -0.591857782018  -76.7378215987
8.0084  -0.289048630437  -71.0195704905  -18.1506026996  11.4001127384  -17.6611842011  13.6341882615
       -18.1506026996  11.4001127384  -0.852332124692  -82.7531723138  -42.8829389885  98.163959925
       -17.6611842011  13.6341882615  -42.8829389885  98.163959925  -0.580079403255  -78.8079888526
8.25835  -0.316275255886  -72.3707399108  -18.1784020239  9.09271578192  -17.3006723663  11.8281348252
       -18.1784020239  9.09271578192  -0.724565570813  -86.3236148163  -42.5137522889  109.627231048
       -17.3006723663  11.8281348252  -42.5137522889  109.627231048  -0.617314751519  -81.0593520075
8.5083  -0.330489076683  -76.6480053657  -17.7558119453  7.88401216197  -17.0542198347  8.42163299041
       -17.7558119453  7.88401216197  -0.744155009895  -85.1940737537  -41.3626650233  92.6941643545
       -17.0542198347  8.42163299041  -41.3626650233  92.6941643545  -0.616229989365  -84.2677177965
8.75825  -0.323975799988  -78.3450628525  -17.4787330542  4.90181996883  -17.010843713  6.32956975131
       -17.4787330542  4.90181996883  -0.89527800822  -89.1214137423  -41.307633797  85.0771842544
       -17.010843713  6.32956975131  -41.307633797  85.0771842544  -0.622934307088  -86.4514542797
9.0082  -0.354280959112  -79.1488559406  -17.5346042464  1.9960171815  -16.7241079307  4.62453445303
       -17.5346042464  1.9960171815  -0.80086537852  -93.5160829759  -41.8222015214  95.7436426893
       -16.7241079307  4.62453445303  -41.8222015214  95.7436426893  -0.652098636519  -88.5432021582
9.25815  -0.406270684483  -82.93017058  -17.2698416396  0.828837268873  -16.4612792673  1.5973570424
       -17.2698416396  0.828837268873  -0.75533926888  -92.525268661  -40.6771987954  88.0094685297
       -16.4612792673  1.5973570424  -40.6771987954  88.0094685297  -0.673055323671  -91.4423258213
9.5081  -0.391842517129  -85.1736357066  -16.9257190552  -1.3007537246  -16.4552007089  -0.580988614087
       -16.9257190552  -1.3007537246  -0.899774393211  -94.8451664707  -40.0867424882  78.9889383834
       -16.4552007089  -0.580988614087  -40.0867424882  78.9889383834  -0.671415994462  -93.7225906411
9.75805  -0.435890468511  -85.5395254022  -16.9947192055  -4.73146109997  -16.266574857  -2.05065257538
       -16.9947192055  -4.73146109997  -0.865679459484  -100.316816208  -40.908520514  85.4379023111
       -16.266574857  -2.05065257538  -40.908520514  85.4379023111  -0.718909991233  -95.7631792382
10.008  -0.490910752659  -89.0821380882  -16.8834826702  -6.07456218549  -15.9605443174  -4.93780217513
       -16.8834826702  -6.07456218549  -0.805291036688  -99.9147647889  -40.1545687633  81.5978247422
       -15.9605443174  -4.93780217513  -40.1545687633  81.5978247422  -0.758843930737  -98.6224743074
10.25795  -0.464334262637  -91.951004569  -16.4933415021  -7.25212581815  -15.9300253384  -7.28588655072
       -16.4933415021  -7.25212581815  -0.917763746713  -100.782472116  -38.8695173273  73.0532135103
       -15.9300253384  -7.28588655072  -38.8695173273  73.0532135103  -0.733148114444  -100.984374753
10.5079  -0.489271095635  -91.8660223323  -16.4527634277  -10.3345970452  -15.8054823301  -8.50576756959
       -16.4527634277  -10.3345970452  -0.905391226036  -106.287897578  -39.3602856206  77.5811097961
       -15.8054823301  -8.50576756959  -39.3602856206  77.5811097961  -0.771682816662  -102.627610513
10.75785  -0.558554794148  -94.8034926117  -16.4093100723  -12.5122717426  -15.4611861868  -11.2018930539
       -16.4093100723  -12.5122717426  -0.77975900697  -107.009110363  -39.2496886091  77.3072643715
       -15.4611861868  -11.2018930539  -39.2496886091  77.3072643715  -0.771185655187  -105.250683929
11.0078  -0.534689085686  -98.3165050896  -16.0866680067  -13.3419198707  -15.4237177872  -14.0229905544
       -16.0866680067  -13.3419198707  -0.894625061917  -106.794548314  -37.9504393789  67.8478213132
       -15.4237177872  -14.0229905544  -37.9504393789  67.8478213132  -0.745113800115  -108.242981913
11.25775  -0.519118445529  -98.2067034813  -15.9290640524  -15.8606604771  -15.3575342842  -15.0678158691
       -15.9290640524  -15.8606604771  -0.926228217881  -112.226621179  -37.6131210742  68.4682476798
       -15.3575342842  -15.0678158691  -37.6131210742  68.4682476798  -0.785291815009  -109.821902154
11.5077  -0.568857196856  -100.280859577  -15.9155015316  -18.4167658508  -15.02375009  -17.2921689204
       -15.9155015316  -18.4167658508  -0.778663588004  -113.999582042  -37.8091522355  70.5150913695
       -15.02375009  -17.2921689204  -37.8091522355  70.5150913695  -0.808576790144  -112.097293421
11.75765  -0.567917210693  -104.63574446  -15.6465627687  -20.020775566  -14.9283554072  -20.8057349308
       -15.6465627687  -20.020775566  -0.81271883089  -113.191625654  -37.0388722857  63.0640081069
       -14.9283554072  -20.8057349308  -37.0388722857  63.0640081069  -0.775461975355  -115.396339472
12.0076  -0.542046246126  -105.070214762  -15.4868811011  -21.9658952264  -14.9123702067  -21.9152949401
       -15.4868811011  -21.9658952264  -0.935594313235  -118.04247925  -36.3630820689  62.4812070266
       -14.9123702067  -21.9152949401  -36.3630820689  62.4812070266  -0.791768117433  -116.986589482
12.25755  -0.600824385963  -105.889412608  -15.4866621325  -24.6097592029  -14.6633028797  -23.7329552509
       -15.4866621325  -24.6097592029  -0.806213802616  -121.341482249  -36.3534659861  62.2230272996
       -14.6633028797  -23.7329552509  -36.3534659861  62.2230272996  -0.83746045244  -119.278038487
12.5075  -0.607028847552  -110.300871884  -15.2222335743  -25.9336374603  -14.4940217069  -26.7071537118
       -15.2222335743  -25.9336374603  -0.81843703673  -119.659470999  -35.9061044658  54.0763238154
       -14.4940217069  -26.7071537118  -35.9061044658  54.0763238154  -0.834323659546  -122.074633912
12.75745  -0.555757354369  -111.897843285  -14.9989447815  -28.0945730709  -14.4747845103  -28.8627556057
       -14.9989447815  -28.0945730709  -0.946704410208  -123.191176  -35.3421822395  50.551009812
       -14.4747845103  -28.8627556057  -35.3421822395  50.551009812  -0.815143470713  -124.40039594
13.0074  -0.600605768701  -112.12575132  -15.0307888827  -30.7552375488  -14.2726864137  -30.2115097715
       -15.0307888827  -30.7552375488  -0.85489507384  -128.115050085  -35.2671064592  52.2361765294
       -14.2726864137  -30.2115097715  -35.2671064592  52.2361765294  -0.865820739226  -126.321728792
13.25735  -0.664931089466  -116.237729092  -14.8654901949  -32.468461849  -14.1111519861  -33.5647139119
       -14.8654901949  -32.468461849  -0.82340064992  -126.979904919  -34.9283919839  44.4878283859
       -14.1111519861  -33.5647139119  -34.9283919839  44.4878283859  -0.917428622356  -129.370111903
13.5073  -0.609064565488  -118.730145426  -14.5600161565  -34.4104698809  -14.1294218799  -35.8779391453
       -14.5600161565  -34.4104698809  -0.989383831744  -128.735395275  -34.4884088271  38.7535847485
       -14.1294218799  -35.8779391453  -34.4884088271  38.7535847485  -0.901339073924  -131.70952718
13.75725  -0.654951457203  -118.783431029  -14.6692548531  -37.110233425  -14.0416571316  -36.9130642382
       -14.6692548531  -37.110233425  -0.996693620133  -134.055831611  -34.8062529941  41.7923448794
       -14.0416571316  -36.9130642382  -34.8062529941  41.7923448794  -0.970419635889  -133.251951351
14.0072  -0.767479510789  -122.013185385  -14.6194793251  -38.7970097006  -13.8363220889  -39.6494172603
       -14.6194793251  -38.7970097006  -0.902664004956  -133.843065996  -34.4385634169  37.3813242754
       -13.8363220889  -39.6494172603  -34.4385634169  37.3813242754  -1.03371897135  -136.02222922
14.25715  -0.734818890707  -125.123382618  -14.2611834555  -40.0654695323  -13.8327042832  -41.8656178503
       -14.2611834555  -40.0654695323  -1.01828732635  -134.054489041  -33.7963767149  30.2069268264
       -13.8327042832  -41.8656178503  -33.7963767149  30.2069268264  -0.993131959584  -138.293274652
14.5071  -0.756003921997  -125.091346392  -14.2719523002  -42.5744631727  -13.7643531133  -42.8114773443
       -14.2719523002  -42.5744631727  -1.07617146892  -139.26572324  -34.2318563707  31.6076820754
       -13.7643531133  -42.8114773443  -34.2318563707  31.6076820754  -1.01082439731  -139.772265576
14.75705  -0.843841650262  -127.531998046  -14.2874674221  -44.7585799112  -13.466543037  -45.4743996333
       -14.2874674221  -44.7585799112  -0.960603201816  -140.45699131  -34.1629723952  31.0536884248
       -13.466543037  -45.4743996333  -34.1629723952  31.0536884248  -1.03672963842  -142.575004456
15.007  -0.844474372859  -130.966756308  -13.9628821967  -45.5225377837  -13.4577652451  -47.8786036662
       -13.9628821967  -45.5225377837  -1.03280992825  -139.568883208  -33.2563553005  24.8857610805
       -13.4577652451  -47.8786036662  -33.2563553005  24.8857610805  -1.02507147312  -145.110211042
15.25695  -0.80436278513  -131.199727518  -13.8206277278  -47.9700844665  -13.4343101596  -49.1124136745
       -13.8206277278  -47.9700844665  -1.09401466836  -144.291599845  -33.3685287053  22.6561834226
       -13.4343101596  -49.1124136745  -33.3685287053  22.6561834226  -1.02378388545  -146.744151219
15.5069  -0.876474714791  -132.775399175  -13.8438304849  -50.2696849737  -13.0962534862  -50.7780127753
