! Device:      ADRF5025					
! Description: Silicon SPDT Switch, Reflective			
! Frequency:   9kHz -  44.00 GHz						
! Ports:       										
!        RFC = Port 1
!        RF1 = Port 2
!        RF2 = Port 3
!						
! VDD   =  +3.30 Volts
! VSS   =  -3.30 Volts
! CTRL  =  +3.30 Volts
!				
	
! Data:  Data was collected using an calibrated 4 port network analyzer 						
!	      using G-S-G Probes on Probe Matrix Board. 
!             The reference plane is the package pins of ADRF5025 switch.
! Notes: Analog Devices supplies this data as a sample of measured data						
!             for this product.  Your particular data for this product may vary.						
!             Data was taken at 85 degrees C.						
!             Analog Devices reserves the right to change this data at anytime.	
!
# GHz S  dB   R 50
0.26 -23.427 -2.083 -0.550 -2.644 -72.608 59.130  
-0.562 -2.673 -27.618 -9.808 -78.861 36.064   
-71.582 54.576 -80.613 17.535 -1.178 177.902   
0.51 -22.942 -7.413 -0.566 -4.993 -67.478 69.316  
-0.581 -5.070 -27.615 -19.240 -76.025 55.319   
-67.187 69.201 -76.549 54.466 -1.251 176.213   
0.76 -23.188 -13.051 -0.591 -7.463 -63.990 73.957  
-0.626 -7.469 -27.611 -27.613 -73.150 62.344   
-64.034 75.010 -72.735 61.740 -1.263 174.278   
1.01 -23.307 -17.619 -0.610 -9.617 -61.547 74.353  
-0.635 -9.581 -27.462 -36.376 -70.096 64.795   
-61.742 73.422 -69.899 66.812 -1.253 172.524   
1.26 -23.297 -22.031 -0.612 -11.859 -59.621 74.398  
-0.628 -11.937 -27.299 -44.019 -68.564 68.461   
-59.800 74.437 -68.223 68.806 -1.258 170.675   
1.51 -23.550 -26.820 -0.629 -14.283 -58.093 74.641  
-0.641 -14.199 -27.010 -51.018 -66.872 68.225   
-58.187 73.762 -67.011 69.796 -1.275 168.969   
1.76 -23.695 -31.076 -0.639 -16.568 -56.820 74.099  
-0.637 -16.509 -26.659 -57.909 -65.488 68.247   
-56.847 72.755 -65.572 67.618 -1.284 167.212   
2.01 -23.732 -34.456 -0.655 -18.811 -55.726 72.128  
-0.635 -18.781 -26.300 -64.639 -64.441 68.044   
-55.649 71.766 -64.452 66.754 -1.288 165.437   
2.26 -23.786 -39.722 -0.656 -21.246 -54.791 70.490  
-0.645 -21.225 -25.866 -71.042 -63.697 65.572   
-54.779 70.246 -63.586 66.657 -1.297 163.759   
2.51 -23.719 -45.237 -0.663 -23.401 -53.830 68.958  
-0.676 -23.415 -25.418 -76.886 -62.674 64.711   
-53.814 69.379 -62.547 64.998 -1.304 162.020   
2.76 -23.805 -50.112 -0.665 -25.803 -53.037 67.303  
-0.672 -25.736 -24.921 -82.400 -61.750 64.639   
-53.079 67.850 -61.971 63.918 -1.302 160.269   
3.01 -23.804 -54.948 -0.690 -28.040 -52.368 65.888  
-0.707 -28.071 -24.491 -87.430 -60.843 62.588   
-52.360 66.009 -61.082 62.564 -1.303 158.574   
3.26 -23.895 -60.738 -0.701 -30.321 -51.703 64.390  
-0.700 -30.276 -23.999 -92.164 -60.477 60.020   
-51.635 64.546 -60.300 61.113 -1.309 156.905   
3.51 -23.790 -64.855 -0.720 -32.553 -51.011 62.765  
-0.733 -32.535 -23.592 -96.777 -59.742 60.118   
-51.069 63.019 -59.771 59.557 -1.311 155.157   
3.76 -23.932 -69.695 -0.701 -34.735 -50.515 61.160  
-0.706 -34.795 -23.211 -100.869 -59.235 58.455   
-50.526 61.106 -59.320 58.440 -1.315 153.428   
4.01 -23.872 -74.251 -0.716 -37.077 -50.025 59.554  
-0.718 -37.121 -22.849 -104.720 -58.581 57.798   
-50.055 59.726 -58.762 57.815 -1.319 151.694   
4.26 -23.685 -78.224 -0.706 -39.459 -49.520 58.215  
-0.734 -39.493 -22.522 -108.420 -58.350 55.031   
-49.572 57.996 -58.485 55.342 -1.326 149.958   
4.51 -23.728 -84.884 -0.734 -41.612 -49.152 56.440  
-0.745 -41.495 -22.257 -111.766 -57.872 54.732   
-49.141 56.744 -57.897 54.541 -1.329 148.206   
4.76 -23.766 -88.187 -0.749 -44.142 -48.666 55.222  
-0.739 -44.024 -21.973 -115.314 -57.404 52.668   
-48.677 55.144 -57.528 53.733 -1.335 146.430   
5.01 -23.797 -92.486 -0.768 -46.410 -48.290 53.567  
-0.761 -46.312 -21.748 -118.227 -56.908 51.173   
-48.214 53.664 -56.906 51.857 -1.339 144.636   
5.26 -23.603 -96.413 -0.770 -48.394 -47.799 51.864  
-0.775 -48.350 -21.579 -121.350 -56.498 47.557   
-47.789 52.129 -56.584 48.034 -1.350 142.833   
5.51 -23.535 -100.258 -0.772 -50.858 -47.406 50.018  
-0.778 -50.760 -21.363 -124.221 -56.266 45.645   
-47.467 50.364 -56.280 45.524 -1.357 141.035   
5.76 -23.554 -105.344 -0.767 -53.095 -47.131 47.928  
-0.757 -52.969 -21.159 -127.050 -55.931 45.300   
-47.072 48.369 -55.917 45.030 -1.367 139.227   
6.01 -24.006 -106.494 -0.796 -55.314 -46.808 46.349  
-0.771 -55.495 -21.046 -129.715 -55.544 42.458   
-46.779 45.932 -55.700 42.671 -1.376 137.391   
6.26 -23.312 -108.958 -0.782 -57.487 -46.528 44.162  
-0.791 -57.518 -20.899 -132.451 -55.536 40.653   
-46.535 44.435 -55.567 41.565 -1.381 135.535   
6.51 -23.378 -115.717 -0.795 -59.906 -46.257 42.731  
-0.788 -59.920 -20.783 -135.314 -55.316 40.611   
-46.272 42.837 -55.211 41.350 -1.390 133.672   
6.76 -23.228 -117.596 -0.809 -62.060 -45.953 41.259  
-0.816 -62.089 -20.671 -137.829 -54.849 39.849   
-45.974 41.434 -54.801 39.564 -1.404 131.798   
7.01 -23.183 -122.009 -0.797 -64.369 -45.655 39.644  
-0.802 -64.359 -20.548 -140.427 -54.526 37.946   
-45.651 39.436 -54.554 37.662 -1.415 129.944   
7.26 -23.142 -125.357 -0.830 -66.700 -45.431 37.633  
-0.834 -66.690 -20.462 -142.795 -54.065 35.607   
-45.490 37.801 -54.075 36.016 -1.427 128.074   
7.51 -23.122 -130.169 -0.842 -68.845 -45.236 35.659  
-0.833 -68.854 -20.367 -145.299 -53.793 32.065   
-45.201 35.722 -53.812 32.989 -1.435 126.216   
7.76 -23.133 -134.299 -0.829 -71.150 -45.042 33.786  
-0.816 -71.261 -20.258 -147.685 -53.843 30.190   
-45.058 33.999 -53.767 29.880 -1.448 124.346   
8.01 -23.020 -138.177 -0.845 -73.415 -44.843 32.101  
-0.829 -73.498 -20.168 -150.017 -53.643 28.470   
-44.807 32.276 -53.632 28.842 -1.459 122.507   
8.26 -22.615 -140.842 -0.860 -75.726 -44.681 30.163  
-0.856 -75.674 -20.070 -152.327 -53.413 26.823   
-44.666 30.351 -53.457 26.047 -1.464 120.652   
8.51 -22.685 -145.540 -0.846 -77.948 -44.510 28.356  
-0.835 -77.995 -19.983 -154.604 -53.315 23.869   
-44.445 28.516 -53.457 24.302 -1.474 118.780   
8.76 -22.745 -149.928 -0.869 -80.240 -44.357 26.608  
-0.854 -80.341 -19.928 -156.695 -53.345 22.234   
-44.278 26.508 -53.390 22.148 -1.481 116.928   
9.01 -22.551 -153.506 -0.878 -82.437 -44.183 24.713  
-0.866 -82.532 -19.887 -158.703 -53.222 20.895   
-44.180 24.369 -53.282 20.285 -1.488 115.049   
9.26 -22.752 -154.515 -0.876 -84.676 -44.077 22.670  
-0.888 -84.834 -19.792 -160.835 -53.232 18.497   
-44.109 22.361 -53.343 18.718 -1.499 113.210   
9.51 -22.577 -157.713 -0.897 -86.970 -44.091 20.400  
-0.908 -87.081 -19.770 -162.943 -53.432 17.468   
-44.110 20.533 -53.457 18.228 -1.504 111.390   
9.76 -22.231 -164.234 -0.908 -89.350 -44.113 19.579  
-0.894 -89.480 -19.732 -164.585 -53.261 18.041   
-44.107 19.340 -53.291 18.262 -1.512 109.552   
10.01 -22.446 -167.555 -0.898 -91.465 -43.928 18.623  
-0.893 -91.692 -19.670 -166.808 -52.870 16.269   
-43.941 18.198 -53.006 17.003 -1.520 107.711   
10.26 -22.122 -167.780 -0.898 -93.805 -43.792 17.770  
-0.904 -93.889 -19.658 -168.562 -52.807 16.703   
-43.838 17.322 -52.796 16.628 -1.531 105.896   
10.51 -21.809 -172.499 -0.910 -96.205 -43.683 15.769  
-0.902 -96.315 -19.640 -170.147 -52.708 14.353   
-43.707 15.565 -52.660 14.453 -1.542 104.083   
10.76 -21.882 -176.295 -0.919 -98.206 -43.583 14.398  
-0.910 -98.392 -19.585 -171.656 -52.622 13.102   
-43.567 14.145 -52.527 13.627 -1.550 102.290   
11.01 -21.738 -177.726 -0.908 -100.549 -43.530 12.821  
-0.901 -100.719 -19.683 -173.336 -52.589 12.431   
-43.504 12.542 -52.523 12.610 -1.565 100.437   
11.26 -21.800 177.664 -0.929 -102.946 -43.451 11.950  
-0.920 -103.227 -19.635 -174.723 -52.430 11.930   
-43.436 11.697 -52.451 12.165 -1.579 98.604   
11.51 -21.879 177.242 -0.944 -105.017 -43.307 10.807  
-0.946 -105.208 -19.678 -176.278 -52.211 11.463   
-43.305 10.864 -52.199 11.584 -1.588 96.730   
11.76 -21.646 173.803 -0.925 -107.447 -43.136 9.238  
-0.917 -107.635 -19.735 -177.745 -51.906 10.385   
-43.146 9.090 -51.898 10.365 -1.601 94.841   
12.01 -22.022 170.885 -0.955 -109.864 -43.060 7.893  
-0.967 -110.046 -19.668 -178.738 -51.641 9.204   
-43.088 7.822 -51.657 8.862 -1.615 92.982   
12.26 -21.665 170.456 -0.961 -111.912 -42.943 6.617  
-0.966 -112.052 -19.730 179.391 -51.409 8.126   
-42.939 6.308 -51.427 7.889 -1.626 91.105   
12.51 -21.636 163.574 -0.949 -114.198 -42.797 4.921  
-0.953 -114.588 -19.707 178.275 -51.074 6.018   
-42.824 4.548 -51.099 5.932 -1.631 89.181   
12.76 -21.698 164.388 -0.950 -116.681 -42.729 3.693  
-0.969 -116.827 -19.657 176.942 -50.715 3.853   
-42.754 3.664 -50.774 4.072 -1.647 87.255   
13.01 -21.485 160.822 -0.963 -118.787 -42.552 2.523  
-0.983 -119.060 -19.643 175.549 -50.802 1.849   
-42.566 2.262 -50.796 1.801 -1.658 85.372   
13.26 -21.633 157.421 -0.961 -121.078 -42.413 -0.334  
-0.988 -121.379 -19.624 173.675 -50.854 -1.796   
-42.428 -0.593 -50.808 -1.471 -1.673 83.494   
13.51 -21.369 156.825 -0.973 -123.559 -42.469 -1.268  
-0.986 -123.699 -19.548 172.561 -50.507 -0.512   
-42.462 -1.643 -50.570 -0.937 -1.685 81.596   
13.76 -21.154 153.899 -0.996 -125.704 -42.372 -2.607  
-1.011 -125.933 -19.517 170.555 -50.571 -2.269   
-42.389 -3.041 -50.592 -2.249 -1.698 79.707   
14.01 -21.449 151.498 -0.983 -127.980 -42.302 -3.850  
-1.023 -128.134 -19.496 169.294 -50.203 -1.609   
-42.326 -4.049 -50.130 -1.620 -1.706 77.843   
14.26 -20.980 150.679 -0.987 -130.352 -42.095 -5.079  
-0.999 -130.468 -19.412 167.928 -49.548 -3.871   
-42.098 -5.429 -49.546 -3.840 -1.715 75.972   
14.51 -20.963 147.316 -1.019 -132.525 -42.005 -7.078  
-1.039 -132.733 -19.399 166.429 -49.465 -6.036   
-42.030 -7.257 -49.484 -6.176 -1.727 74.106   
14.76 -21.171 145.869 -1.003 -134.731 -41.865 -8.227  
-1.030 -134.826 -19.329 165.306 -48.969 -8.259   
-41.896 -8.325 -49.002 -8.198 -1.731 72.242   
15.01 -20.991 143.356 -1.007 -137.152 -41.643 -10.553  
-1.025 -137.333 -19.278 164.158 -48.688 -12.686   
-41.672 -10.941 -48.660 -13.245 -1.739 70.351   
15.26 -21.091 141.004 -1.035 -139.404 -41.647 -12.520  
-1.061 -139.554 -19.280 162.222 -48.785 -15.465   
-41.674 -12.675 -48.841 -15.185 -1.749 68.477   
15.51 -21.191 140.416 -1.025 -141.585 -41.550 -13.321  
-1.046 -141.630 -19.287 161.229 -48.494 -15.707   
-41.570 -13.452 -48.565 -15.761 -1.761 66.621   
15.76 -21.156 137.938 -1.016 -143.946 -41.282 -15.543  
-1.045 -144.102 -19.264 160.337 -48.070 -19.129   
-41.335 -15.786 -48.108 -19.067 -1.767 64.772   
16.01 -21.232 136.002 -1.050 -146.216 -41.258 -17.860  
-1.084 -146.297 -19.271 158.946 -48.075 -21.846   
-41.267 -17.752 -48.080 -21.735 -1.775 62.941   
16.26 -21.214 135.275 -1.037 -148.413 -41.056 -20.096  
-1.062 -148.528 -19.236 157.802 -47.688 -24.176   
-41.102 -20.552 -47.688 -24.225 -1.782 61.086   
16.51 -21.282 132.948 -1.042 -150.863 -41.036 -22.620  
-1.076 -150.944 -19.206 156.461 -47.465 -27.589   
-41.093 -22.710 -47.481 -27.472 -1.792 59.264   
16.76 -21.397 131.710 -1.061 -153.124 -41.008 -24.573  
-1.084 -153.048 -19.243 155.087 -47.350 -30.072   
-41.035 -24.547 -47.330 -30.091 -1.797 57.440   
17.01 -21.458 129.962 -1.066 -155.232 -40.958 -26.654  
-1.082 -155.336 -19.220 153.693 -47.018 -32.709   
-40.995 -26.766 -47.010 -32.924 -1.810 55.626   
17.26 -21.626 128.811 -1.048 -157.619 -40.841 -28.509  
-1.071 -157.651 -19.243 152.313 -46.606 -36.417   
-40.861 -28.540 -46.597 -36.293 -1.818 53.792   
17.51 -21.765 127.254 -1.073 -159.998 -40.717 -30.632  
-1.091 -160.000 -19.274 151.397 -46.487 -40.330   
-40.745 -30.702 -46.496 -40.643 -1.825 51.973   
17.76 -21.941 126.485 -1.082 -162.175 -40.568 -33.539  
-1.093 -162.237 -19.383 149.775 -46.155 -44.317   
-40.614 -33.767 -46.174 -44.415 -1.833 50.171   
18.01 -21.949 125.131 -1.064 -164.600 -40.623 -36.335  
-1.070 -164.603 -19.313 147.809 -46.074 -48.712   
-40.642 -36.426 -46.130 -48.825 -1.844 48.251   
18.26 -22.158 123.550 -1.095 -166.907 -40.571 -38.217  
-1.105 -167.053 -19.331 146.210 -45.910 -52.082   
-40.631 -38.587 -45.987 -51.911 -1.855 46.353   
18.51 -22.208 123.167 -1.103 -169.071 -40.522 -40.990  
-1.125 -169.166 -19.420 145.133 -45.648 -56.853   
-40.562 -40.891 -45.679 -56.603 -1.864 44.467   
18.76 -22.178 121.053 -1.083 -171.435 -40.491 -43.199  
-1.086 -171.421 -19.424 144.054 -45.538 -61.344   
-40.509 -43.404 -45.584 -61.220 -1.871 42.532   
19.01 -22.467 119.119 -1.117 -173.909 -40.443 -46.129  
-1.130 -173.996 -19.459 141.515 -45.500 -66.003   
-40.500 -46.194 -45.482 -65.861 -1.884 40.703   
19.26 -22.479 118.473 -1.128 -175.980 -40.544 -49.059  
-1.146 -175.883 -19.376 140.278 -45.473 -70.410   
-40.584 -48.949 -45.482 -70.426 -1.897 38.755   
19.51 -22.725 116.324 -1.120 -178.281 -40.582 -50.686  
-1.117 -178.371 -19.513 138.049 -45.456 -74.377   
-40.639 -50.865 -45.511 -74.501 -1.917 36.924   
19.76 -22.925 116.700 -1.134 179.248 -40.569 -53.060  
-1.152 179.195 -19.473 136.153 -45.461 -78.978   
-40.629 -52.995 -45.505 -79.013 -1.926 35.101   
20.01 -22.961 113.085 -1.167 177.133 -40.589 -55.220  
-1.157 177.137 -19.548 135.016 -45.345 -83.642   
-40.606 -55.270 -45.408 -83.584 -1.928 33.307   
20.26 -23.458 112.526 -1.145 174.872 -40.527 -57.954  
-1.139 174.666 -19.661 133.194 -45.350 -89.628   
-40.576 -58.060 -45.419 -89.370 -1.931 31.453   
20.51 -23.516 114.434 -1.159 172.355 -40.564 -60.699  
-1.172 172.278 -19.711 130.761 -45.667 -93.473   
-40.601 -60.438 -45.694 -93.181 -1.933 29.551   
20.76 -23.660 111.404 -1.180 170.199 -40.629 -63.111  
-1.169 170.040 -19.820 129.450 -46.040 -97.655   
-40.648 -63.473 -46.012 -97.860 -1.951 27.773   
21.01 -23.975 113.437 -1.157 168.035 -40.710 -65.935  
-1.168 167.850 -19.816 128.333 -46.369 -98.076   
-40.726 -66.046 -46.380 -98.234 -1.953 25.938   
21.26 -23.662 113.203 -1.158 165.574 -41.031 -67.211  
-1.157 165.536 -19.910 127.091 -46.226 -99.450   
-41.045 -67.023 -46.232 -99.565 -1.956 24.150   
21.51 -24.401 111.057 -1.191 163.335 -40.962 -68.127  
-1.197 163.134 -19.988 124.862 -45.863 -103.058   
-40.984 -68.426 -45.945 -103.213 -1.966 22.383   
21.76 -24.600 113.632 -1.180 161.184 -40.926 -69.828  
-1.193 161.065 -20.128 123.545 -45.774 -107.108   
-40.934 -69.930 -45.756 -107.388 -1.973 20.594   
22.01 -24.434 110.576 -1.179 158.715 -40.819 -70.717  
-1.174 158.614 -20.226 121.647 -45.759 -111.023   
-40.842 -70.936 -45.787 -111.193 -1.976 18.791   
22.26 -25.831 111.855 -1.213 156.440 -40.496 -73.402  
-1.229 156.137 -20.434 119.811 -45.705 -115.333   
-40.556 -73.651 -45.744 -115.459 -1.981 17.032   
22.51 -25.430 114.607 -1.206 154.268 -40.560 -77.870  
-1.213 154.125 -20.582 118.905 -45.478 -120.005   
-40.598 -77.913 -45.485 -120.229 -1.983 15.284   
22.76 -25.661 109.892 -1.214 151.929 -40.712 -79.330  
-1.203 151.581 -20.705 117.229 -45.954 -125.115   
-40.757 -79.864 -45.993 -125.151 -1.993 13.474   
23.01 -26.032 113.378 -1.221 149.573 -40.476 -82.122  
-1.233 149.209 -20.921 116.252 -45.999 -129.023   
-40.592 -82.264 -46.035 -128.443 -2.008 11.778   
23.26 -25.924 116.121 -1.222 147.362 -40.723 -84.778  
-1.235 147.108 -20.948 114.328 -46.356 -130.251   
-40.802 -85.086 -46.357 -129.989 -2.021 9.978   
23.51 -26.288 114.678 -1.227 145.001 -40.719 -86.688  
-1.245 144.670 -20.997 112.646 -46.221 -130.116   
-40.825 -86.846 -46.214 -129.912 -2.041 8.324   
23.76 -25.977 120.568 -1.231 142.558 -40.755 -88.740  
-1.265 142.372 -21.219 110.493 -45.495 -133.510   
-40.824 -88.779 -45.534 -133.358 -2.057 6.584   
24.01 -25.631 119.500 -1.266 140.421 -40.817 -89.875  
-1.289 140.256 -21.243 109.080 -45.516 -138.007   
-40.874 -89.842 -45.512 -137.961 -2.084 4.859   
24.26 -27.287 123.362 -1.254 138.144 -40.518 -91.491  
-1.301 137.834 -21.457 107.089 -45.402 -140.609   
-40.586 -91.558 -45.427 -140.369 -2.113 3.171   
24.51 -26.373 128.686 -1.257 135.645 -40.551 -94.526  
-1.307 135.513 -21.635 105.326 -44.912 -143.913   
-40.597 -94.354 -44.931 -143.517 -2.135 1.466   
24.76 -26.272 125.945 -1.293 133.439 -40.496 -94.715  
-1.330 133.256 -21.876 102.926 -44.521 -149.295   
-40.578 -94.554 -44.496 -148.980 -2.158 -0.236   
25.01 -26.560 132.521 -1.272 131.180 -40.006 -97.013  
-1.325 131.019 -22.328 101.425 -44.505 -155.607   
-40.077 -96.847 -44.470 -154.943 -2.163 -1.945   
25.26 -25.945 128.730 -1.280 128.861 -39.792 -101.241  
-1.316 128.717 -22.557 100.145 -44.649 -159.477   
-39.815 -101.070 -44.675 -159.244 -2.174 -3.841   
25.51 -25.945 130.376 -1.313 126.684 -39.808 -106.159  
-1.346 126.562 -22.790 98.544 -45.102 -161.277   
-39.856 -105.961 -45.120 -161.014 -2.192 -5.710   
25.76 -25.098 132.214 -1.288 124.437 -39.752 -109.699  
-1.319 124.340 -23.004 98.185 -44.344 -161.224   
-39.832 -109.529 -44.375 -160.738 -2.195 -7.626   
26.01 -25.542 125.908 -1.293 122.168 -40.101 -111.645  
-1.322 121.935 -23.316 95.870 -43.537 -170.993   
-40.144 -111.925 -43.598 -170.595 -2.215 -9.457   
26.26 -26.107 127.141 -1.311 119.912 -39.782 -113.673  
-1.344 119.693 -23.608 93.467 -44.395 -179.134   
-39.823 -113.739 -44.470 -178.662 -2.223 -11.459   
26.51 -24.758 130.506 -1.289 117.557 -39.576 -118.622  
-1.313 117.472 -23.798 91.274 -44.977 -178.314   
-39.721 -119.005 -44.993 -177.824 -2.237 -13.274   
26.76 -26.145 132.737 -1.282 115.274 -40.078 -121.234  
-1.329 115.029 -24.300 88.981 -44.222 -178.439   
-40.302 -121.764 -44.327 -177.984 -2.238 -15.171   
27.01 -26.485 134.540 -1.312 112.876 -40.549 -122.615  
-1.364 112.748 -24.678 87.126 -43.738 174.160   
-40.620 -123.002 -43.651 174.317 -2.251 -16.993   
27.26 -25.648 132.452 -1.293 110.590 -40.377 -120.309  
-1.348 110.470 -25.122 85.091 -43.856 167.121   
-40.422 -120.063 -43.859 166.405 -2.265 -18.775   
27.51 -26.689 132.954 -1.279 108.443 -39.485 -123.879  
-1.355 108.171 -25.611 85.010 -45.104 162.427   
-39.557 -123.623 -45.253 163.179 -2.274 -20.580   
27.76 -26.367 139.990 -1.292 105.947 -40.243 -127.987  
-1.367 105.919 -25.710 84.735 -44.651 173.435   
-40.268 -127.207 -44.640 173.582 -2.261 -22.265   
28.01 -25.534 134.039 -1.292 103.627 -39.760 -127.558  
-1.352 103.528 -25.956 82.081 -43.187 163.667   
-39.713 -126.687 -43.365 163.155 -2.270 -24.076   
28.26 -24.676 135.964 -1.301 101.354 -39.665 -131.298  
-1.347 101.295 -26.188 83.026 -43.891 158.813   
-39.757 -129.987 -43.709 158.598 -2.296 -25.918   
28.51 -23.445 142.247 -1.331 98.704 -39.429 -133.257  
-1.368 99.021 -26.701 80.119 -43.450 153.428   
-39.491 -131.664 -43.433 154.238 -2.320 -27.589   
28.76 -23.201 137.635 -1.333 96.389 -39.176 -135.271  
-1.356 96.684 -26.810 77.309 -43.590 146.737   
-39.203 -134.987 -43.778 147.713 -2.343 -29.239   
29.01 -22.596 137.255 -1.332 93.902 -39.214 -139.630  
-1.348 94.310 -27.315 80.457 -44.270 145.720   
-39.238 -138.440 -44.378 146.853 -2.372 -30.874   
29.26 -21.759 139.426 -1.369 91.169 -39.216 -139.611  
-1.357 91.876 -27.999 80.083 -44.092 144.101   
-39.155 -139.197 -43.864 144.687 -2.385 -32.431   
29.51 -22.277 137.270 -1.342 89.049 -38.984 -143.696  
-1.353 89.496 -28.114 78.740 -43.642 141.580   
-38.961 -142.482 -43.535 142.874 -2.399 -34.096   
29.76 -22.561 133.192 -1.358 87.087 -38.849 -145.918  
-1.366 87.266 -28.413 82.114 -43.658 140.507   
-38.863 -144.929 -43.781 141.401 -2.398 -35.752   
30.01 -21.633 126.073 -1.383 84.460 -38.870 -147.529  
-1.356 84.719 -28.881 82.577 -43.055 134.825   
-38.838 -146.886 -43.191 134.964 -2.408 -37.415   
30.26 -22.735 127.132 -1.387 82.332 -38.796 -150.177  
-1.385 82.449 -28.963 86.450 -43.224 130.730   
-38.777 -149.145 -43.469 131.754 -2.422 -39.381   
30.51 -22.476 122.366 -1.413 80.192 -38.658 -151.047  
-1.404 80.171 -28.933 88.175 -43.637 126.485   
-38.604 -150.734 -43.634 126.709 -2.451 -41.313   
30.76 -21.848 115.978 -1.442 77.685 -38.438 -154.511  
