! Device:      ADRF5025					
! Description: Silicon SPDT Switch, Reflective			
! Frequency:   9kHz -  44.00 GHz						
! Ports:       										
!        RFC = Port 1
!        RF1 = Port 2
!        RF2 = Port 3
!						
! VDD   =  +3.30 Volts
! VSS   =  -3.30 Volts
! CTRL  =  +0.00 Volts
!				
	
! Data:  Data was collected using an calibrated 4 port network analyzer 						
!	      using G-S-G Probes on Probe Matrix Board. 
!             The reference plane is the package pins of ADRF5025 switch.
! Notes: Analog Devices supplies this data as a sample of measured data						
!             for this product.  Your particular data for this product may vary.						
!             Data was taken at 85 degrees C.						
!             Analog Devices reserves the right to change this data at anytime.	
!
# GHz S  dB   R 50
0.26 -26.849 -4.976 -72.692 60.615 -0.569 -2.648  
-72.600 59.585 -1.116 177.830 -77.339 42.650   
-0.587 -2.607 -79.443 41.197 -23.602 -3.672   
0.51 -26.919 -10.320 -67.460 70.978 -0.600 -4.927  
-67.710 70.009 -1.192 176.082 -76.965 58.253   
-0.620 -4.941 -74.850 54.105 -23.202 -9.733   
0.76 -27.102 -15.498 -64.287 75.663 -0.612 -7.253  
-64.291 73.316 -1.198 174.341 -73.558 58.823   
-0.631 -7.248 -73.145 58.580 -23.330 -14.330   
1.01 -27.257 -20.257 -62.072 74.908 -0.627 -9.492  
-62.281 75.444 -1.188 172.361 -70.645 66.682   
-0.638 -9.467 -70.316 66.926 -23.389 -21.247   
1.26 -27.420 -24.514 -60.033 75.186 -0.631 -11.775  
-60.057 75.548 -1.204 170.524 -68.705 69.307   
-0.648 -11.744 -68.406 66.874 -23.457 -26.534   
1.51 -27.577 -29.318 -58.463 74.311 -0.637 -14.050  
-58.548 73.596 -1.210 168.758 -67.150 69.305   
-0.653 -14.015 -67.083 68.803 -23.490 -31.356   
1.76 -27.634 -34.016 -57.105 72.730 -0.633 -16.329  
-57.140 72.965 -1.206 166.938 -65.629 67.615   
-0.647 -16.367 -65.498 69.253 -23.452 -36.567   
2.01 -27.742 -38.973 -56.020 72.135 -0.662 -18.576  
-56.105 72.590 -1.213 165.093 -64.837 66.817   
-0.682 -18.526 -64.588 65.940 -23.366 -41.473   
2.26 -27.798 -44.203 -54.944 70.682 -0.673 -20.917  
-55.044 70.152 -1.213 163.288 -63.453 67.937   
-0.686 -20.928 -63.574 64.893 -23.357 -46.952   
2.51 -27.808 -49.461 -54.159 69.261 -0.670 -23.168  
-54.096 69.235 -1.214 161.536 -62.684 66.359   
-0.683 -23.211 -62.802 64.230 -23.128 -52.304   
2.76 -27.830 -54.722 -53.300 67.758 -0.685 -25.494  
-53.385 67.492 -1.216 159.731 -61.864 64.274   
-0.706 -25.436 -62.123 63.945 -23.184 -57.647   
3.01 -27.773 -60.528 -52.613 66.018 -0.710 -27.690  
-52.635 66.005 -1.225 157.949 -61.097 62.315   
-0.704 -27.605 -61.336 61.759 -23.028 -62.339   
3.26 -27.731 -66.180 -51.975 64.376 -0.712 -29.905  
-51.927 64.479 -1.221 156.199 -60.506 61.868   
-0.721 -29.823 -60.423 60.885 -22.855 -66.994   
3.51 -27.634 -71.669 -51.356 63.042 -0.705 -32.249  
-51.401 62.882 -1.230 154.397 -59.841 59.653   
-0.717 -32.184 -59.851 59.755 -22.676 -71.353   
3.76 -27.552 -77.022 -50.774 61.637 -0.723 -34.438  
-50.811 61.778 -1.231 152.583 -59.404 57.600   
-0.737 -34.388 -59.435 58.032 -22.451 -77.987   
4.01 -27.387 -82.499 -50.346 59.816 -0.704 -36.815  
-50.336 59.738 -1.238 150.782 -58.858 57.548   
-0.738 -36.835 -58.924 57.143 -22.343 -82.060   
4.26 -27.304 -87.251 -49.790 58.333 -0.734 -39.000  
-49.824 58.137 -1.246 148.969 -58.442 55.456   
-0.744 -38.977 -58.407 55.850 -22.440 -86.807   
4.51 -27.199 -91.969 -49.367 56.980 -0.737 -41.151  
-49.390 56.542 -1.252 147.177 -57.947 54.444   
-0.738 -41.222 -57.891 55.043 -22.089 -90.188   
4.76 -27.133 -96.311 -48.900 54.992 -0.750 -43.586  
-48.939 55.079 -1.260 145.326 -57.499 52.798   
-0.759 -43.440 -57.522 53.288 -22.322 -92.602   
5.01 -27.053 -100.002 -48.539 53.599 -0.767 -45.724  
-48.519 54.077 -1.267 143.511 -56.915 51.100   
-0.758 -45.586 -56.841 51.316 -22.188 -95.615   
5.26 -26.972 -104.154 -48.091 52.201 -0.768 -47.898  
-48.036 52.033 -1.280 141.645 -56.584 47.730   
-0.751 -47.878 -56.426 47.883 -21.763 -100.268   
5.51 -26.915 -108.098 -47.730 49.627 -0.772 -50.156  
-47.658 50.313 -1.286 139.769 -56.225 46.652   
-0.760 -50.144 -56.349 47.236 -21.982 -102.916   
5.76 -26.795 -111.418 -47.328 48.402 -0.791 -52.444  
-47.346 48.267 -1.294 137.953 -56.124 46.083   
-0.768 -52.275 -56.026 45.388 -21.931 -106.636   
6.01 -26.787 -115.504 -47.056 46.643 -0.776 -54.730  
-47.066 46.713 -1.303 136.065 -55.715 42.589   
-0.790 -54.611 -55.601 42.721 -21.686 -108.840   
6.26 -26.723 -118.667 -46.727 44.652 -0.806 -57.006  
-46.786 45.056 -1.309 134.203 -55.592 40.621   
-0.795 -56.740 -55.676 40.933 -21.657 -113.795   
6.51 -26.637 -122.573 -46.477 43.168 -0.793 -59.189  
-46.486 42.976 -1.321 132.315 -55.402 41.016   
-0.806 -59.135 -55.427 41.175 -21.837 -115.422   
6.76 -26.569 -126.247 -46.199 41.701 -0.792 -61.542  
-46.274 41.626 -1.333 130.470 -54.894 39.014   
-0.822 -61.383 -54.872 39.700 -21.639 -118.831   
7.01 -26.459 -129.256 -45.863 39.865 -0.824 -63.666  
-45.908 39.796 -1.343 128.585 -54.547 37.648   
-0.807 -63.588 -54.603 38.063 -21.905 -122.341   
7.26 -26.370 -132.318 -45.680 37.922 -0.813 -65.966  
-45.701 38.002 -1.357 126.727 -54.089 35.831   
-0.823 -65.855 -54.079 36.395 -21.751 -123.168   
7.51 -26.301 -135.137 -45.494 36.200 -0.840 -68.298  
-45.472 36.486 -1.368 124.861 -53.896 32.515   
-0.825 -68.002 -53.906 32.197 -21.526 -127.021   
7.76 -26.072 -138.266 -45.246 34.218 -0.845 -70.389  
-45.228 34.170 -1.381 123.017 -53.750 30.223   
-0.818 -70.324 -53.855 29.853 -21.816 -130.159   
8.01 -25.965 -141.876 -45.030 32.737 -0.838 -72.680  
-45.082 32.503 -1.392 121.176 -53.573 28.291   
-0.842 -72.597 -53.623 28.811 -21.715 -132.690   
8.26 -25.722 -144.593 -44.814 30.486 -0.866 -74.921  
-44.825 30.493 -1.405 119.356 -53.481 26.868   
-0.820 -74.850 -53.507 26.184 -21.695 -134.710   
8.51 -25.608 -147.529 -44.691 28.620 -0.861 -77.117  
-44.640 28.755 -1.415 117.503 -53.398 23.959   
-0.831 -77.069 -53.264 24.493 -21.926 -138.886   
8.76 -25.455 -150.630 -44.517 26.914 -0.867 -79.391  
-44.485 26.884 -1.427 115.668 -53.277 21.627   
-0.841 -79.371 -53.227 22.250 -21.748 -141.046   
9.01 -25.286 -153.519 -44.391 24.920 -0.867 -81.546  
-44.374 24.782 -1.441 113.795 -53.280 19.873   
-0.845 -81.714 -53.252 20.678 -21.719 -144.948   
9.26 -25.088 -156.305 -44.244 22.909 -0.861 -83.780  
-44.233 22.873 -1.453 111.978 -53.197 18.775   
-0.860 -83.980 -53.212 18.081 -21.835 -148.223   
9.51 -24.886 -158.692 -44.278 20.907 -0.878 -86.147  
-44.276 21.002 -1.466 110.114 -53.371 17.791   
-0.859 -86.079 -53.359 17.856 -21.684 -150.689   
9.76 -24.703 -161.350 -44.227 19.732 -0.875 -88.261  
-44.245 19.466 -1.479 108.263 -53.051 17.634   
-0.875 -88.453 -53.119 17.088 -21.613 -151.799   
10.01 -24.449 -163.563 -44.059 18.878 -0.879 -90.561  
-44.032 18.831 -1.489 106.416 -52.845 16.318   
-0.885 -90.614 -52.864 16.669 -21.786 -156.752   
10.26 -24.174 -166.209 -43.932 17.493 -0.898 -92.750  
-43.905 17.578 -1.507 104.544 -52.764 17.279   
-0.884 -92.971 -52.725 16.656 -21.866 -158.587   
10.51 -24.013 -168.360 -43.777 15.769 -0.887 -95.030  
-43.825 15.829 -1.520 102.716 -52.538 13.808   
-0.898 -95.169 -52.616 14.199 -21.699 -159.355   
10.76 -23.853 -170.679 -43.657 14.724 -0.920 -97.377  
-43.623 14.672 -1.537 100.879 -52.509 12.429   
-0.884 -97.373 -52.377 13.053 -21.705 -164.868   
11.01 -23.685 -173.331 -43.560 12.689 -0.916 -99.411  
-43.550 12.321 -1.555 98.912 -52.337 12.214   
-0.899 -99.799 -52.256 11.639 -21.891 -165.451   
11.26 -23.520 -174.949 -43.474 11.702 -0.913 -101.809  
-43.510 11.536 -1.565 97.073 -52.199 11.120   
-0.906 -101.871 -52.233 11.594 -21.563 -166.654   
11.51 -23.351 -177.106 -43.354 10.439 -0.942 -103.983  
-43.327 10.221 -1.584 95.147 -51.993 9.840   
-0.900 -104.278 -51.961 10.478 -21.605 -171.388   
11.76 -23.316 -179.315 -43.202 8.852 -0.922 -106.218  
-43.244 8.586 -1.598 93.218 -51.634 8.643   
-0.928 -106.480 -51.685 8.902 -21.750 -170.738   
12.01 -23.103 179.094 -43.120 7.166 -0.934 -108.597  
-43.138 7.073 -1.616 91.307 -51.445 7.225   
-0.915 -108.677 -51.435 7.068 -21.433 -172.281   
12.26 -23.002 176.000 -43.011 6.123 -0.946 -110.662  
-43.036 5.872 -1.631 89.401 -51.305 6.179   
-0.938 -111.093 -51.253 6.111 -21.539 -176.452   
12.51 -22.861 174.488 -42.852 4.745 -0.932 -113.023  
-42.850 4.363 -1.649 87.537 -50.952 3.670   
-0.941 -113.258 -50.984 3.743 -21.716 -178.159   
12.76 -22.704 172.646 -42.740 3.314 -0.942 -115.317  
-42.752 3.065 -1.666 85.647 -50.650 2.044   
-0.942 -115.492 -50.658 2.391 -21.586 -178.168   
13.01 -22.562 170.482 -42.579 1.910 -0.948 -117.458  
-42.593 1.757 -1.686 83.760 -50.684 0.180   
-0.961 -117.838 -50.679 0.396 -21.640 177.936   
13.26 -22.330 168.759 -42.340 -0.928 -0.955 -119.836  
-42.357 -1.093 -1.696 81.866 -50.648 -2.833   
-0.949 -120.020 -50.598 -2.899 -21.668 175.892   
13.51 -22.195 166.450 -42.352 -2.127 -0.967 -121.952  
-42.384 -2.388 -1.716 80.008 -50.183 -1.478   
-0.972 -122.352 -50.136 -1.714 -21.358 174.605   
13.76 -21.953 165.348 -42.271 -4.223 -0.954 -124.253  
-42.319 -4.355 -1.728 78.150 -50.097 -5.088   
-0.979 -124.526 -50.114 -4.929 -21.365 170.538   
14.01 -21.723 163.168 -42.267 -5.231 -0.979 -126.581  
-42.286 -5.511 -1.744 76.259 -49.936 -5.146   
-0.975 -126.884 -49.965 -5.032 -21.427 168.942   
14.26 -21.598 161.245 -42.095 -6.279 -0.975 -128.770  
-42.102 -6.497 -1.762 74.453 -49.399 -6.404   
-0.995 -129.070 -49.394 -6.889 -21.263 166.498   
14.51 -21.354 159.754 -41.950 -8.295 -0.974 -131.149  
-41.978 -8.369 -1.779 72.587 -49.211 -9.222   
-0.991 -131.272 -49.227 -8.945 -21.283 162.679   
14.76 -21.261 157.918 -41.787 -9.767 -0.991 -133.309  
-41.785 -9.985 -1.796 70.725 -48.769 -11.835   
-1.009 -133.598 -48.732 -11.830 -21.335 161.168   
15.01 -21.095 156.588 -41.618 -12.142 -0.986 -135.557  
-41.673 -12.304 -1.815 68.844 -48.627 -16.072   
-1.022 -135.813 -48.612 -15.985 -21.155 158.234   
15.26 -20.903 155.259 -41.471 -14.138 -1.002 -137.946  
-41.497 -14.380 -1.826 66.977 -48.372 -18.387   
-1.008 -138.153 -48.371 -18.116 -21.106 154.891   
15.51 -20.800 153.387 -41.407 -15.999 -1.000 -140.034  
-41.472 -16.205 -1.845 65.049 -48.216 -20.471   
-1.041 -140.353 -48.162 -20.713 -21.145 153.243   
15.76 -20.562 152.214 -41.251 -18.178 -0.991 -142.417  
-41.271 -18.175 -1.863 63.125 -48.030 -23.101   
-1.027 -142.583 -48.044 -23.114 -20.980 150.742   
16.01 -20.426 150.215 -41.140 -20.436 -1.021 -144.645  
-41.177 -20.686 -1.879 61.192 -47.783 -25.549   
-1.042 -144.911 -47.781 -25.570 -20.895 147.708   
16.26 -20.287 149.262 -40.997 -22.737 -0.998 -146.850  
-41.033 -22.843 -1.902 59.258 -47.542 -28.717   
-1.047 -147.039 -47.598 -28.741 -20.850 145.503   
16.51 -20.117 147.115 -40.945 -25.153 -1.018 -149.250  
-40.973 -25.174 -1.921 57.356 -47.389 -30.810   
-1.047 -149.375 -47.418 -31.058 -20.679 143.126   
16.76 -20.026 145.505 -40.825 -27.660 -1.020 -151.452  
-40.844 -27.870 -1.933 55.389 -46.919 -34.309   
-1.058 -151.644 -46.951 -34.201 -20.556 140.858   
17.01 -19.915 143.901 -40.856 -29.961 -1.014 -153.755  
-40.867 -29.854 -1.949 53.474 -46.837 -37.807   
-1.057 -153.818 -46.876 -37.462 -20.435 138.700   
17.26 -19.849 141.833 -40.709 -32.178 -1.039 -156.063  
-40.727 -32.258 -1.960 51.477 -46.502 -41.039   
-1.067 -156.221 -46.523 -41.117 -20.277 136.499   
17.51 -19.831 140.509 -40.610 -34.734 -1.025 -158.229  
-40.635 -34.733 -1.986 49.460 -46.203 -45.006   
-1.077 -158.352 -46.260 -45.311 -20.197 134.591   
17.76 -19.719 138.340 -40.547 -37.294 -1.038 -160.657  
-40.590 -37.372 -1.996 47.426 -46.067 -49.348   
-1.071 -160.754 -46.101 -49.295 -19.996 132.190   
18.01 -19.735 136.323 -40.538 -40.272 -1.061 -162.840  
-40.593 -40.268 -2.012 45.513 -45.978 -53.106   
-1.097 -163.029 -46.016 -53.302 -20.047 129.522   
18.26 -19.663 135.265 -40.505 -42.698 -1.034 -165.109  
-40.539 -42.495 -2.034 43.560 -45.740 -56.224   
-1.086 -165.174 -45.730 -56.411 -19.941 128.513   
18.51 -19.607 132.922 -40.500 -45.153 -1.069 -167.534  
-40.514 -45.487 -2.052 41.520 -45.480 -61.416   
-1.098 -167.640 -45.530 -61.416 -19.820 125.491   
18.76 -19.595 131.341 -40.369 -47.987 -1.070 -169.647  
-40.400 -47.912 -2.071 39.547 -45.256 -65.813   
-1.111 -169.783 -45.266 -66.178 -19.898 122.711   
19.01 -19.482 128.971 -40.464 -51.224 -1.060 -172.051  
-40.451 -51.323 -2.082 37.545 -45.384 -71.402   
-1.100 -172.081 -45.436 -71.505 -19.691 122.520   
19.26 -19.556 127.112 -40.520 -53.362 -1.095 -174.249  
-40.525 -53.497 -2.105 35.633 -45.412 -74.650   
-1.130 -174.368 -45.409 -74.966 -19.582 118.408   
19.51 -19.503 125.940 -40.462 -55.998 -1.081 -176.407  
-40.459 -55.915 -2.116 33.605 -45.246 -78.493   
-1.122 -176.530 -45.304 -78.944 -19.645 116.321   
19.76 -19.453 123.156 -40.497 -58.593 -1.095 -178.978  
-40.497 -58.951 -2.132 31.707 -45.069 -83.770   
-1.129 -179.042 -45.153 -83.400 -19.410 114.859   
20.01 -19.487 121.736 -40.570 -61.303 -1.121 178.974  
-40.560 -61.210 -2.156 29.668 -45.189 -88.979   
-1.151 178.874 -45.206 -89.124 -19.149 111.583   
20.26 -19.358 119.726 -40.588 -63.780 -1.109 176.512  
-40.596 -63.771 -2.171 27.595 -45.453 -94.106   
-1.144 176.455 -45.465 -93.774 -19.206 108.227   
20.51 -19.413 117.881 -40.635 -66.915 -1.140 174.107  
-40.677 -67.270 -2.190 25.629 -45.653 -98.582   
-1.173 174.088 -45.640 -98.512 -19.116 106.519   
20.76 -19.365 117.216 -40.777 -68.622 -1.137 172.086  
-40.802 -68.738 -2.217 23.649 -46.094 -99.909   
-1.170 172.037 -46.117 -99.833 -18.859 104.321   
21.01 -19.328 114.946 -40.639 -69.948 -1.143 169.706  
-40.628 -70.016 -2.238 21.754 -45.805 -98.878   
-1.184 169.645 -45.826 -98.871 -19.030 100.136   
21.26 -19.387 113.300 -40.652 -73.070 -1.178 167.544  
-40.688 -73.069 -2.248 19.710 -45.389 -103.284   
-1.207 167.489 -45.398 -103.358 -18.955 99.169   
21.51 -19.278 111.445 -40.744 -75.754 -1.159 165.273  
-40.722 -75.891 -2.262 17.709 -45.182 -108.725   
-1.196 165.165 -45.238 -108.534 -18.502 96.021   
21.76 -19.366 109.260 -40.644 -77.229 -1.186 162.983  
-40.645 -77.569 -2.278 15.642 -45.119 -112.603   
-1.221 162.889 -45.139 -112.414 -18.635 92.357   
22.01 -19.419 107.877 -40.591 -79.845 -1.193 160.939  
-40.612 -79.784 -2.290 13.573 -45.071 -117.188   
-1.216 160.765 -45.061 -117.848 -18.698 91.677   
22.26 -19.369 105.401 -40.402 -82.812 -1.175 158.421  
-40.417 -83.149 -2.315 11.518 -45.091 -122.891   
-1.226 158.275 -45.130 -122.824 -18.174 89.349   
22.51 -19.506 103.268 -40.546 -86.974 -1.214 156.211  
-40.570 -87.197 -2.329 9.465 -45.373 -126.308   
-1.249 156.123 -45.387 -126.568 -18.326 86.528   
22.76 -19.453 101.881 -40.590 -89.229 -1.182 154.093  
-40.584 -89.534 -2.350 7.396 -45.277 -128.630   
-1.222 153.828 -45.301 -128.418 -18.155 86.799   
23.01 -19.472 97.997 -40.748 -92.321 -1.199 151.355  
-40.756 -92.726 -2.372 5.305 -45.129 -133.338   
-1.272 151.335 -45.254 -133.446 -17.631 84.179   
23.26 -19.604 96.304 -40.835 -94.389 -1.223 149.334  
-40.883 -94.526 -2.388 3.279 -45.282 -136.578   
-1.265 149.157 -45.294 -136.877 -17.798 81.106   
23.51 -19.544 93.482 -40.634 -96.419 -1.199 146.931  
-40.650 -96.756 -2.422 1.266 -45.497 -138.064   
-1.277 146.710 -45.506 -138.344 -17.487 80.527   
23.76 -19.807 90.697 -40.800 -99.966 -1.237 144.460  
-40.847 -100.114 -2.434 -0.702 -44.896 -141.143   
-1.321 144.460 -44.960 -141.038 -17.155 79.479   
24.01 -19.873 88.675 -40.760 -101.824 -1.266 142.376  
-40.795 -102.133 -2.458 -2.683 -44.688 -145.065   
-1.319 142.285 -44.655 -144.673 -17.093 74.946   
24.26 -20.122 85.948 -40.835 -104.547 -1.273 140.003  
-40.862 -104.602 -2.467 -4.722 -44.530 -150.246   
-1.339 140.059 -44.538 -149.831 -17.052 74.750   
24.51 -20.416 83.876 -40.930 -107.643 -1.308 137.667  
-40.985 -107.716 -2.484 -6.807 -44.273 -154.661   
-1.356 137.875 -44.292 -154.362 -16.662 73.869   
24.76 -20.605 81.976 -41.143 -106.870 -1.310 135.477  
-41.193 -106.787 -2.500 -8.885 -44.106 -160.388   
-1.361 135.603 -44.162 -160.114 -16.694 70.228   
25.01 -20.952 80.306 -40.581 -108.523 -1.323 133.012  
-40.597 -108.754 -2.515 -10.962 -44.300 -166.019   
-1.394 133.453 -44.326 -165.651 -16.681 70.591   
25.26 -21.131 77.884 -40.588 -112.711 -1.333 130.876  
-40.622 -112.829 -2.544 -13.022 -45.175 -169.065   
-1.385 131.176 -45.169 -168.674 -16.628 69.311   
25.51 -21.383 75.604 -40.212 -115.453 -1.349 128.706  
-40.264 -115.840 -2.554 -14.958 -44.992 -166.303   
-1.384 128.933 -45.023 -166.012 -16.883 65.184   
25.76 -21.682 73.389 -40.539 -120.484 -1.332 126.508  
-40.557 -120.373 -2.576 -17.020 -44.174 -168.665   
-1.388 126.696 -44.166 -168.243 -16.968 66.084   
26.01 -21.858 71.260 -40.471 -120.920 -1.339 124.293  
-40.514 -120.983 -2.582 -19.060 -43.955 -175.589   
-1.386 124.368 -43.994 -175.337 -16.798 64.977   
26.26 -22.080 68.190 -40.047 -122.560 -1.336 121.993  
-40.136 -122.606 -2.567 -21.002 -44.004 179.906   
-1.386 122.166 -43.993 -179.814 -16.983 60.595   
26.51 -22.388 65.511 -39.912 -129.406 -1.339 119.789  
-39.970 -129.937 -2.563 -23.047 -44.102 178.694   
-1.383 119.852 -44.102 178.865 -16.898 61.085   
26.76 -22.698 63.444 -40.387 -131.409 -1.326 117.514  
-40.415 -131.847 -2.557 -25.239 -43.106 174.773   
-1.391 117.521 -43.145 174.713 -16.664 59.441   
27.01 -23.001 61.177 -40.763 -134.396 -1.358 114.983  
-40.822 -134.106 -2.583 -27.381 -43.190 167.437   
-1.415 115.484 -43.190 167.686 -16.703 54.532   
27.26 -23.255 57.804 -40.600 -131.472 -1.356 112.803  
-40.659 -131.767 -2.600 -29.330 -42.962 162.328   
-1.413 113.079 -42.920 162.543 -16.461 55.128   
27.51 -23.619 53.685 -39.934 -135.408 -1.323 110.383  
-39.982 -135.730 -2.619 -31.405 -43.942 154.661   
-1.455 110.813 -44.070 155.433 -16.327 54.026   
27.76 -24.070 51.666 -40.416 -140.089 -1.369 108.001  
-40.429 -139.837 -2.625 -33.388 -43.903 160.316   
-1.450 108.769 -43.936 160.619 -16.379 48.685   
28.01 -24.323 48.408 -40.159 -138.460 -1.372 105.815  
-40.176 -138.585 -2.639 -35.340 -43.140 155.319   
-1.458 106.386 -43.207 156.833 -16.278 47.977   
28.26 -24.540 45.704 -39.935 -141.837 -1.372 103.630  
-40.083 -142.708 -2.663 -37.538 -43.223 153.424   
-1.450 104.108 -43.089 153.256 -16.497 47.288   
28.51 -24.820 43.396 -39.729 -144.331 -1.432 101.295  
-39.820 -144.144 -2.665 -39.474 -42.846 147.981   
-1.435 102.002 -42.795 147.602 -16.428 42.049   
28.76 -25.058 37.995 -39.469 -147.888 -1.423 99.063  
-39.531 -147.680 -2.662 -41.221 -42.857 141.542   
-1.445 99.604 -42.747 142.657 -16.374 41.130   
29.01 -25.384 33.718 -39.305 -151.446 -1.437 96.641  
-39.419 -151.288 -2.692 -43.584 -43.159 138.164   
-1.437 97.418 -43.069 137.398 -16.150 40.151   
29.26 -25.831 28.335 -39.377 -155.119 -1.502 94.514  
-39.405 -155.372 -2.691 -45.690 -43.277 135.601   
-1.422 95.088 -43.452 135.706 -15.972 35.855   
29.51 -26.546 21.919 -39.220 -157.917 -1.467 92.125  
-39.241 -158.465 -2.709 -47.644 -43.021 132.757   
-1.454 92.829 -42.993 133.637 -15.881 36.197   
29.76 -27.165 16.933 -39.573 -161.192 -1.474 89.949  
-39.651 -161.408 -2.739 -49.926 -43.052 131.101   
-1.452 90.589 -43.037 131.544 -16.163 37.520   
30.01 -27.654 10.802 -39.655 -161.774 -1.485 87.588  
-39.610 -160.874 -2.747 -51.988 -42.732 125.866   
-1.447 88.439 -42.751 127.133 -15.870 33.725   
30.26 -28.263 5.089 -39.508 -162.888 -1.475 85.304  
-39.529 -162.363 -2.785 -54.199 -43.146 122.101   
-1.444 86.005 -43.191 123.432 -16.266 33.264   
30.51 -28.826 -1.003 -39.291 -163.587 -1.501 83.204  
-39.218 -163.426 -2.812 -56.248 -43.581 119.021   
-1.429 83.520 -43.578 120.161 -16.644 34.806   
30.76 -29.503 -8.088 -38.868 -166.883 -1.521 80.745  
-38.848 -166.406 -2.815 -58.117 -43.608 116.584   
