! Device:      ADRF5025					
! Description: Silicon SPDT Switch, Reflective			
! Frequency:   9kHz -  44.00 GHz						
! Ports:       										
!        RFC = Port 1
!        RF1 = Port 2
!        RF2 = Port 3
!						
! VDD   =  +3.30 Volts
! VSS   =  -3.30 Volts
! CTRL  =  +3.30 Volts
!				
	
! Data:  Data was collected using an calibrated 4 port network analyzer 						
!	      using G-S-G Probes on Probe Matrix Board. 
!             The reference plane is the package pins of ADRF5025 switch.
! Notes: Analog Devices supplies this data as a sample of measured data						
!             for this product.  Your particular data for this product may vary.						
!             Data was taken at 105 degrees C.						
!             Analog Devices reserves the right to change this data at anytime.	
!
# GHz S  dB   R 50
0.26 -23.169 -2.166 -0.571 -2.646 -71.775 60.783  
-0.583 -2.677 -27.217 -9.574 -76.987 38.558   
-72.573 61.702 -79.376 24.671 -1.233 177.944   
0.51 -22.697 -7.420 -0.589 -4.992 -66.979 71.464  
-0.603 -5.069 -27.245 -18.701 -75.038 53.803   
-66.837 69.396 -75.145 59.500 -1.307 176.305   
0.76 -22.937 -13.010 -0.613 -7.458 -63.785 73.945  
-0.648 -7.463 -27.264 -26.951 -72.290 61.983   
-63.597 73.682 -72.004 61.798 -1.321 174.418   
1.01 -23.044 -17.531 -0.634 -9.608 -61.519 74.242  
-0.658 -9.572 -27.151 -35.576 -69.710 67.273   
-61.386 74.182 -69.836 66.079 -1.310 172.715   
1.26 -23.023 -21.922 -0.636 -11.846 -59.500 75.096  
-0.652 -11.923 -27.018 -43.129 -68.118 66.600   
-59.481 74.422 -67.897 69.552 -1.316 170.918   
1.51 -23.252 -26.701 -0.653 -14.267 -57.956 74.522  
-0.665 -14.180 -26.758 -50.208 -66.119 68.345   
-57.922 74.328 -66.409 66.965 -1.334 169.265   
1.76 -23.377 -30.974 -0.664 -16.546 -56.673 73.762  
-0.663 -16.484 -26.429 -57.202 -64.905 68.088   
-56.582 73.806 -65.008 67.470 -1.343 167.560   
2.01 -23.396 -34.426 -0.681 -18.781 -55.457 72.447  
-0.660 -18.751 -26.082 -64.087 -64.072 67.848   
-55.439 72.295 -63.778 67.999 -1.348 165.833   
2.26 -23.423 -39.692 -0.682 -21.209 -54.510 71.091  
-0.672 -21.186 -25.655 -70.662 -62.909 66.976   
-54.512 70.854 -62.700 66.998 -1.357 164.209   
2.51 -23.335 -45.179 -0.690 -23.359 -53.568 69.724  
-0.704 -23.368 -25.206 -76.733 -61.924 64.845   
-53.501 68.973 -61.878 64.885 -1.365 162.526   
2.76 -23.382 -50.063 -0.693 -25.756 -52.785 67.598  
-0.700 -25.682 -24.701 -82.424 -61.167 63.131   
-52.721 67.805 -61.262 64.968 -1.364 160.829   
3.01 -23.355 -54.953 -0.719 -27.985 -52.107 66.377  
-0.737 -28.008 -24.261 -87.592 -60.433 61.761   
-52.051 66.361 -60.212 62.641 -1.367 159.188   
3.26 -23.414 -60.663 -0.731 -30.258 -51.448 64.755  
-0.731 -30.203 -23.759 -92.411 -59.784 60.434   
-51.421 64.745 -59.763 60.847 -1.374 157.570   
3.51 -23.290 -64.796 -0.751 -32.481 -50.762 62.901  
-0.765 -32.453 -23.334 -97.101 -59.182 59.104   
-50.772 63.038 -59.170 59.508 -1.378 155.875   
3.76 -23.395 -69.575 -0.733 -34.655 -50.209 61.532  
-0.738 -34.704 -22.946 -101.217 -58.561 56.604   
-50.195 61.703 -58.668 57.810 -1.383 154.199   
4.01 -23.312 -74.013 -0.748 -36.988 -49.768 59.514  
-0.751 -37.016 -22.580 -105.098 -58.129 56.943   
-49.775 59.894 -58.071 56.976 -1.388 152.513   
4.26 -23.121 -77.862 -0.740 -39.354 -49.286 58.388  
-0.768 -39.377 -22.251 -108.785 -57.644 55.332   
-49.255 58.451 -57.665 54.651 -1.397 150.820   
4.51 -23.149 -84.160 -0.769 -41.499 -48.909 57.058  
-0.779 -41.368 -21.987 -112.128 -57.163 54.104   
-48.835 57.161 -57.294 53.911 -1.401 149.107   
4.76 -23.176 -87.247 -0.784 -44.012 -48.362 55.220  
-0.774 -43.882 -21.715 -115.649 -56.865 51.866   
-48.336 55.494 -56.789 52.124 -1.409 147.361   
5.01 -23.207 -91.259 -0.803 -46.267 -47.921 53.809  
-0.796 -46.158 -21.508 -118.526 -56.253 50.359   
-47.883 54.103 -56.190 50.568 -1.415 145.590   
5.26 -23.026 -94.928 -0.806 -48.239 -47.497 52.267  
-0.811 -48.183 -21.361 -121.604 -55.890 47.774   
-47.497 52.205 -55.923 47.544 -1.427 143.806   
5.51 -22.972 -98.388 -0.809 -50.688 -47.139 50.567  
-0.815 -50.578 -21.167 -124.470 -55.596 45.820   
-47.132 50.251 -55.487 45.652 -1.436 142.018   
5.76 -23.014 -103.006 -0.804 -52.912 -46.811 48.364  
-0.793 -52.774 -20.998 -127.293 -55.340 44.572   
-46.764 48.884 -55.342 44.429 -1.448 140.207   
6.01 -23.442 -103.839 -0.833 -55.119 -46.476 46.950  
-0.808 -55.283 -20.915 -129.965 -54.923 41.849   
-46.447 46.352 -54.927 42.416 -1.459 138.367   
6.26 -22.812 -106.120 -0.820 -57.278 -46.189 44.696  
-0.828 -57.297 -20.798 -132.620 -54.870 39.815   
-46.174 44.966 -54.773 40.960 -1.466 136.499   
6.51 -22.940 -112.240 -0.832 -59.682 -45.935 43.042  
-0.825 -59.684 -20.721 -135.476 -54.665 39.773   
-45.938 42.990 -54.626 39.911 -1.477 134.617   
6.76 -22.828 -113.852 -0.846 -61.824 -45.614 41.548  
-0.853 -61.842 -20.649 -137.892 -54.180 38.566   
-45.657 41.746 -54.200 38.309 -1.492 132.726   
7.01 -22.834 -117.812 -0.835 -64.120 -45.336 39.925  
-0.839 -64.095 -20.565 -140.466 -53.954 35.883   
-45.335 39.725 -53.936 36.821 -1.506 130.843   
7.26 -22.837 -120.791 -0.867 -66.440 -45.136 37.785  
-0.872 -66.414 -20.516 -142.803 -53.406 34.575   
-45.130 37.927 -53.489 34.842 -1.519 128.941   
7.51 -22.880 -125.134 -0.880 -68.567 -44.914 35.907  
-0.870 -68.565 -20.462 -145.232 -53.180 31.320   
-44.888 35.993 -53.185 31.380 -1.528 127.054   
7.76 -22.962 -128.942 -0.868 -70.864 -44.700 34.096  
-0.853 -70.958 -20.381 -147.561 -53.107 30.121   
-44.687 34.337 -53.176 29.023 -1.542 125.147   
8.01 -22.914 -132.491 -0.883 -73.113 -44.456 32.494  
-0.867 -73.184 -20.333 -149.850 -52.939 28.031   
-44.439 32.390 -52.890 28.171 -1.554 123.267   
8.26 -22.572 -135.167 -0.898 -75.414 -44.315 30.358  
-0.893 -75.347 -20.274 -152.109 -52.804 25.481   
-44.310 30.475 -52.682 25.423 -1.560 121.375   
8.51 -22.719 -139.597 -0.884 -77.623 -44.148 28.723  
-0.872 -77.654 -20.216 -154.332 -52.644 23.750   
-44.141 28.693 -52.592 23.883 -1.570 119.461   
8.76 -22.854 -143.793 -0.906 -79.899 -43.968 26.891  
-0.892 -79.984 -20.189 -156.365 -52.558 21.877   
-43.983 26.602 -52.585 22.026 -1.578 117.568   
9.01 -22.724 -147.419 -0.916 -82.085 -43.840 24.685  
-0.903 -82.166 -20.168 -158.316 -52.520 20.065   
-43.810 24.494 -52.614 19.975 -1.584 115.655   
9.26 -22.984 -148.179 -0.914 -84.316 -43.727 22.920  
-0.925 -84.456 -20.112 -160.302 -52.471 17.999   
-43.763 22.836 -52.465 18.202 -1.594 113.777   
9.51 -22.871 -151.487 -0.934 -86.594 -43.687 20.965  
-0.944 -86.687 -20.109 -162.255 -52.626 17.087   
-43.730 20.746 -52.624 17.482 -1.599 111.915   
9.76 -22.644 -158.243 -0.945 -88.961 -43.697 19.718  
-0.930 -89.073 -20.099 -163.768 -52.446 16.769   
-43.666 19.701 -52.541 16.798 -1.606 110.036   
10.01 -22.956 -161.440 -0.935 -91.063 -43.547 18.603  
-0.929 -91.273 -20.068 -165.698 -52.142 15.329   
-43.532 18.405 -52.159 15.570 -1.613 108.163   
10.26 -22.658 -161.823 -0.935 -93.387 -43.418 17.521  
-0.940 -93.459 -20.079 -167.215 -52.026 15.322   
-43.380 17.607 -51.926 15.162 -1.624 106.308   
10.51 -22.433 -166.865 -0.947 -95.776 -43.277 15.774  
-0.937 -95.867 -20.096 -168.591 -51.975 12.586   
-43.257 15.716 -51.965 12.510 -1.634 104.448   
10.76 -22.585 -170.652 -0.956 -97.770 -43.175 14.130  
-0.946 -97.937 -20.072 -169.917 -51.798 11.094   
-43.161 14.320 -51.757 11.357 -1.642 102.607   
11.01 -22.485 -172.254 -0.945 -100.104 -43.115 12.747  
-0.936 -100.252 -20.179 -171.352 -51.798 10.529   
-43.082 12.490 -51.771 10.494 -1.656 100.710   
11.26 -22.700 -177.049 -0.964 -102.492 -43.063 11.645  
-0.955 -102.751 -20.183 -172.312 -51.636 9.843   
-43.035 11.474 -51.661 9.999 -1.670 98.836   
11.51 -22.815 -177.460 -0.980 -104.552 -42.921 10.448  
-0.981 -104.721 -20.234 -173.585 -51.479 8.723   
-42.898 10.392 -51.499 9.063 -1.678 96.925   
11.76 -22.639 178.911 -0.960 -106.965 -42.746 8.924  
-0.951 -107.133 -20.327 -174.766 -51.110 7.964   
-42.728 8.703 -51.183 8.194 -1.689 94.991   
12.01 -23.133 175.894 -0.990 -109.376 -42.661 7.607  
-1.001 -109.539 -20.272 -175.475 -50.857 6.781   
-42.662 7.366 -50.943 6.587 -1.703 93.083   
12.26 -22.759 175.376 -0.996 -111.413 -42.557 6.332  
-1.000 -111.536 -20.346 -177.018 -50.733 5.389   
-42.540 6.103 -50.705 5.245 -1.712 91.165   
12.51 -22.806 167.780 -0.984 -113.696 -42.398 4.576  
-0.987 -114.061 -20.327 -178.009 -50.373 3.084   
-42.437 4.214 -50.378 3.200 -1.716 89.219   
12.76 -22.877 168.838 -0.985 -116.166 -42.385 3.202  
-1.003 -116.293 -20.275 -179.165 -50.084 1.610   
-42.360 3.097 -50.118 1.175 -1.728 87.272   
13.01 -22.651 164.793 -0.999 -118.272 -42.193 1.977  
-1.017 -118.519 -20.240 179.482 -50.122 -0.528   
-42.172 1.647 -50.087 -0.385 -1.737 85.358   
13.26 -22.828 160.885 -0.998 -120.553 -42.035 -0.881  
-1.021 -120.831 -20.191 177.742 -50.115 -3.988   
-42.059 -1.019 -50.176 -4.191 -1.749 83.472   
13.51 -22.516 160.161 -1.009 -123.026 -42.101 -2.005  
-1.020 -123.146 -20.085 176.686 -49.860 -3.632   
-42.112 -2.176 -49.845 -3.891 -1.758 81.567   
13.76 -22.274 156.724 -1.032 -125.164 -41.986 -3.527  
-1.045 -125.372 -20.014 174.789 -49.893 -5.186   
-42.020 -3.728 -49.859 -5.357 -1.768 79.676   
14.01 -22.589 153.988 -1.020 -127.429 -41.935 -4.463  
-1.058 -127.567 -19.951 173.567 -49.567 -4.637   
-41.993 -4.493 -49.594 -4.605 -1.774 77.817   
14.26 -22.050 153.017 -1.025 -129.789 -41.766 -5.816  
-1.034 -129.887 -19.838 172.302 -49.007 -6.944   
-41.769 -6.011 -48.987 -6.973 -1.779 75.957   
14.51 -22.017 149.111 -1.056 -131.957 -41.693 -7.685  
-1.074 -132.148 -19.781 170.853 -48.887 -8.986   
-41.721 -7.940 -48.899 -8.886 -1.787 74.101   
14.76 -22.225 147.353 -1.041 -134.154 -41.574 -8.633  
-1.066 -134.233 -19.654 169.760 -48.499 -11.121   
-41.596 -8.831 -48.501 -11.060 -1.787 72.261   
15.01 -21.995 144.433 -1.045 -136.560 -41.342 -11.082  
-1.061 -136.728 -19.554 168.649 -48.158 -15.288   
-41.384 -11.358 -48.136 -15.304 -1.792 70.393   
15.26 -22.088 141.523 -1.074 -138.803 -41.363 -12.929  
-1.097 -138.941 -19.514 166.849 -48.229 -17.857   
-41.386 -13.051 -48.269 -18.299 -1.797 68.552   
15.51 -22.185 140.828 -1.064 -140.970 -41.236 -13.877  
-1.083 -141.003 -19.474 165.909 -47.963 -18.313   
-41.269 -14.129 -47.986 -18.448 -1.804 66.735   
15.76 -22.122 137.937 -1.056 -143.322 -41.022 -16.067  
-1.083 -143.467 -19.401 165.008 -47.590 -21.264   
-41.088 -16.136 -47.642 -21.284 -1.806 64.936   
16.01 -22.165 135.764 -1.090 -145.584 -40.985 -18.206  
-1.122 -145.653 -19.359 163.604 -47.586 -24.061   
-41.050 -18.237 -47.601 -24.012 -1.808 63.164   
16.26 -22.120 134.719 -1.078 -147.772 -40.809 -20.444  
-1.100 -147.872 -19.273 162.398 -47.172 -26.419   
-40.852 -20.661 -47.176 -26.630 -1.811 61.387   
16.51 -22.151 132.088 -1.084 -150.210 -40.779 -22.796  
-1.115 -150.280 -19.206 160.995 -47.010 -29.542   
-40.840 -22.977 -46.988 -29.746 -1.816 59.646   
16.76 -22.256 130.542 -1.102 -152.460 -40.755 -24.776  
-1.124 -152.377 -19.196 159.580 -46.873 -32.183   
-40.787 -24.746 -46.892 -32.239 -1.816 57.906   
17.01 -22.263 128.538 -1.108 -154.559 -40.708 -26.768  
-1.122 -154.647 -19.139 158.013 -46.576 -34.635   
-40.752 -26.905 -46.592 -34.867 -1.824 56.179   
17.26 -22.404 127.160 -1.090 -156.936 -40.620 -28.515  
-1.111 -156.951 -19.123 156.527 -46.172 -38.341   
-40.639 -28.583 -46.231 -38.310 -1.829 54.453   
17.51 -22.460 125.405 -1.116 -159.307 -40.482 -30.505  
-1.133 -159.288 -19.109 155.294 -46.012 -41.983   
-40.529 -30.801 -46.034 -42.160 -1.831 52.738   
17.76 -22.578 124.072 -1.125 -161.476 -40.367 -33.359  
-1.135 -161.521 -19.137 153.584 -45.759 -45.596   
-40.384 -33.534 -45.765 -45.437 -1.834 51.028   
18.01 -22.559 122.574 -1.108 -163.890 -40.412 -36.085  
-1.112 -163.871 -19.062 151.584 -45.661 -49.875   
-40.421 -36.192 -45.679 -50.082 -1.840 49.233   
18.26 -22.723 120.890 -1.139 -166.183 -40.381 -38.019  
-1.147 -166.305 -19.048 149.715 -45.494 -52.862   
-40.411 -38.207 -45.527 -52.840 -1.848 47.459   
18.51 -22.669 120.106 -1.148 -168.343 -40.289 -40.443  
-1.168 -168.420 -19.059 148.195 -45.222 -57.086   
-40.340 -40.337 -45.245 -57.288 -1.854 45.712   
18.76 -22.490 117.861 -1.129 -170.703 -40.247 -42.668  
-1.131 -170.661 -19.017 146.580 -45.076 -61.280   
-40.279 -42.829 -45.116 -61.235 -1.858 43.920   
19.01 -22.709 115.512 -1.164 -173.163 -40.196 -45.451  
-1.175 -173.236 -18.996 143.791 -44.965 -65.755   
-40.261 -45.389 -45.024 -65.680 -1.868 42.212   
19.26 -22.629 114.759 -1.175 -175.221 -40.296 -48.128  
-1.192 -175.112 -18.909 142.025 -44.918 -69.954   
-40.328 -48.297 -44.951 -70.298 -1.875 40.421   
19.51 -22.717 111.925 -1.168 -177.517 -40.344 -49.889  
-1.165 -177.587 -18.974 139.520 -44.906 -73.880   
-40.361 -50.027 -44.964 -74.072 -1.890 38.737   
19.76 -22.824 112.043 -1.183 -179.977 -40.297 -52.359  
-1.200 179.987 -18.919 137.222 -44.817 -78.310   
-40.351 -52.368 -44.913 -78.226 -1.897 37.075   
20.01 -22.712 108.190 -1.218 177.914 -40.331 -54.393  
-1.207 177.944 -18.944 135.501 -44.764 -82.599   
-40.337 -54.468 -44.824 -83.019 -1.893 35.425   
20.26 -23.115 106.952 -1.196 175.662 -40.316 -56.892  
-1.188 175.483 -18.986 133.395 -44.770 -88.365   
-40.333 -57.042 -44.811 -88.101 -1.893 33.734   
20.51 -23.180 108.472 -1.210 173.159 -40.327 -59.590  
-1.222 173.106 -18.998 130.854 -44.980 -91.969   
-40.330 -59.261 -44.990 -91.954 -1.891 32.001   
20.76 -23.127 105.112 -1.233 171.017 -40.376 -61.916  
-1.220 170.883 -19.052 129.005 -45.286 -95.943   
-40.386 -62.048 -45.257 -95.952 -1.902 30.394   
21.01 -23.375 106.446 -1.209 168.870 -40.403 -64.622  
-1.220 168.706 -19.047 127.385 -45.508 -97.421   
-40.446 -64.547 -45.545 -96.839 -1.900 28.753   
21.26 -22.991 106.126 -1.211 166.419 -40.718 -65.883  
-1.211 166.405 -19.089 125.612 -45.484 -98.425   
-40.714 -65.846 -45.486 -98.677 -1.898 27.136   
21.51 -23.545 103.188 -1.246 164.198 -40.666 -67.250  
-1.250 164.018 -19.133 123.068 -45.157 -102.314   
-40.697 -67.296 -45.189 -102.119 -1.904 25.562   
21.76 -23.670 104.863 -1.235 162.058 -40.605 -68.794  
-1.247 161.965 -19.236 121.124 -45.075 -106.051   
-40.656 -68.739 -45.116 -105.847 -1.907 23.979   
22.01 -23.345 101.791 -1.235 159.602 -40.575 -69.701  
-1.228 159.530 -19.288 118.845 -45.044 -109.308   
-40.575 -69.954 -45.059 -109.392 -1.907 22.416   
22.26 -24.456 100.972 -1.270 157.328 -40.245 -72.130  
-1.284 157.064 -19.454 116.352 -44.939 -113.341   
-40.332 -72.372 -44.975 -113.262 -1.909 20.878   
22.51 -24.056 103.630 -1.264 155.168 -40.317 -76.290  
-1.269 155.062 -19.597 114.704 -44.716 -117.822   
-40.312 -76.309 -44.722 -117.683 -1.909 19.369   
22.76 -24.017 99.100 -1.272 152.834 -40.458 -77.975  
-1.259 152.532 -19.683 112.593 -45.040 -123.117   
-40.528 -78.313 -45.095 -123.188 -1.916 17.801   
23.01 -24.344 100.987 -1.282 150.487 -40.270 -80.246  
-1.290 150.169 -19.862 110.845 -45.148 -126.614   
-40.332 -80.253 -45.194 -126.310 -1.929 16.323   
23.26 -24.285 103.034 -1.282 148.298 -40.443 -82.817  
-1.292 148.081 -19.892 108.759 -45.502 -128.045   
-40.492 -82.974 -45.519 -128.068 -1.942 14.780   
23.51 -24.450 101.349 -1.288 145.942 -40.435 -84.579  
-1.302 145.658 -19.950 106.568 -45.317 -128.397   
-40.530 -84.748 -45.329 -128.053 -1.963 13.340   
23.76 -24.344 106.154 -1.292 143.509 -40.437 -86.781  
-1.324 143.366 -20.137 104.117 -44.716 -131.606   
-40.505 -86.548 -44.734 -131.448 -1.980 11.820   
24.01 -24.009 105.596 -1.329 141.398 -40.498 -88.178  
-1.348 141.274 -20.199 102.270 -44.692 -135.984   
-40.557 -88.045 -44.752 -135.442 -2.009 10.317   
24.26 -25.376 105.722 -1.317 139.136 -40.243 -89.546  
-1.360 138.858 -20.402 99.894 -44.612 -138.566   
-40.321 -89.487 -44.632 -137.984 -2.039 8.857   
24.51 -24.821 110.826 -1.321 136.650 -40.273 -92.400  
-1.367 136.561 -20.584 97.585 -44.210 -141.509   
-40.302 -92.055 -44.204 -141.417 -2.063 7.380   
24.76 -24.646 108.454 -1.356 134.463 -40.231 -92.685  
-1.389 134.321 -20.818 94.792 -43.863 -146.387   
-40.263 -92.534 -43.848 -146.261 -2.087 5.900   
25.01 -25.116 112.144 -1.335 132.220 -39.801 -94.856  
-1.384 132.092 -21.238 92.354 -43.783 -152.038   
-39.843 -94.651 -43.762 -151.502 -2.095 4.372   
25.26 -24.427 110.038 -1.344 129.907 -39.600 -98.792  
-1.375 129.810 -21.498 90.387 -43.845 -156.124   
-39.636 -98.550 -43.843 -155.672 -2.108 2.701   
25.51 -24.480 111.103 -1.377 127.761 -39.553 -103.290  
-1.405 127.670 -21.757 88.161 -44.248 -158.391   
-39.587 -103.067 -44.281 -157.739 -2.127 1.019   
25.76 -23.811 113.662 -1.352 125.521 -39.516 -106.477  
-1.380 125.461 -21.996 86.655 -43.638 -158.434   
-39.561 -106.184 -43.656 -158.374 -2.137 -0.695   
26.01 -23.875 107.457 -1.358 123.249 -39.760 -108.394  
-1.384 123.071 -22.245 83.562 -42.993 -166.948   
-39.785 -108.587 -42.977 -166.739 -2.157 -2.348   
26.26 -24.292 107.329 -1.378 121.015 -39.497 -110.451  
-1.406 120.841 -22.540 80.602 -43.643 -174.032   
-39.546 -110.373 -43.643 -173.718 -2.172 -4.143   
26.51 -23.414 112.203 -1.354 118.666 -39.349 -114.966  
-1.378 118.626 -22.736 77.921 -44.089 -174.431   
-39.391 -114.905 -44.080 -173.779 -2.189 -5.767   
26.76 -24.619 111.023 -1.349 116.389 -39.767 -117.773  
-1.394 116.190 -23.176 75.171 -43.611 -175.447   
-39.847 -117.550 -43.577 -174.278 -2.197 -7.502   
27.01 -25.011 111.816 -1.381 114.009 -40.068 -118.896  
-1.429 113.920 -23.559 72.845 -43.027 178.929   
-40.172 -118.733 -43.124 179.062 -2.214 -9.198   
27.26 -24.251 112.614 -1.362 111.716 -39.984 -117.313  
-1.413 111.653 -24.005 70.653 -43.039 171.519   
-40.052 -117.321 -43.112 171.879 -2.227 -10.852   
27.51 -25.052 111.372 -1.347 109.587 -39.238 -120.476  
-1.421 109.369 -24.563 69.797 -44.108 168.295   
-39.342 -120.049 -44.122 167.786 -2.244 -12.540   
27.76 -25.097 117.927 -1.364 107.113 -39.843 -124.447  
-1.436 107.121 -24.830 69.896 -43.827 176.332   
-39.839 -123.688 -43.854 176.497 -2.240 -14.142   
28.01 -24.128 115.766 -1.364 104.777 -39.363 -124.265  
-1.421 104.737 -25.100 68.024 -42.488 167.918   
-39.375 -123.703 -42.632 168.181 -2.256 -15.869   
28.26 -23.481 118.974 -1.372 102.544 -39.238 -127.383  
-1.417 102.531 -25.503 68.415 -43.156 163.093   
-39.292 -126.945 -43.036 163.642 -2.291 -17.577   
28.51 -22.689 126.716 -1.406 99.898 -38.995 -129.214  
-1.437 100.254 -26.002 65.991 -42.632 158.791   
-39.084 -128.632 -42.721 159.933 -2.323 -19.129   
28.76 -22.254 123.280 -1.407 97.589 -38.780 -131.689  
-1.428 97.928 -26.317 64.118 -42.781 152.754   
-38.848 -131.842 -43.008 153.374 -2.355 -20.693   
29.01 -21.714 123.892 -1.404 95.139 -38.810 -135.581  
-1.419 95.598 -27.057 65.662 -43.496 150.095   
-38.893 -134.460 -43.411 151.658 -2.389 -22.192   
29.26 -21.069 127.488 -1.442 92.419 -38.747 -136.429  
-1.429 93.183 -27.877 65.324 -43.211 148.877   
-38.786 -134.712 -43.022 149.787 -2.409 -23.635   
29.51 -21.343 124.967 -1.416 90.297 -38.501 -139.350  
-1.426 90.810 -28.309 65.030 -42.801 146.501   
-38.446 -138.260 -42.734 146.794 -2.436 -25.219   
29.76 -21.444 121.222 -1.431 88.378 -38.537 -142.090  
-1.437 88.600 -28.872 68.930 -42.918 145.381   
-38.519 -140.840 -42.766 145.555 -2.448 -26.813   
30.01 -20.420 116.946 -1.457 85.737 -38.436 -143.810  
-1.428 86.055 -29.609 70.968 -42.481 139.856   
-38.367 -143.251 -42.381 141.408 -2.468 -28.453   
30.26 -21.342 116.937 -1.463 83.643 -38.401 -145.386  
-1.458 83.807 -29.900 76.058 -42.481 136.349   
-38.350 -145.250 -42.616 136.707 -2.499 -30.332   
30.51 -21.021 113.318 -1.491 81.537 -38.197 -147.774  
-1.476 81.565 -30.019 79.761 -42.776 132.472   
-38.102 -147.374 -42.806 133.223 -2.540 -32.177   
30.76 -20.363 109.275 -1.519 79.013 -38.037 -150.502  
