! Device:      ADRF5025					
! Description: Silicon SPDT Switch, Reflective			
! Frequency:   9kHz -  44.00 GHz						
! Ports:       										
!        RFC = Port 1
!        RF1 = Port 2
!        RF2 = Port 3
!						
! VDD   =  +3.30 Volts
! VSS   =  -3.30 Volts
! CTRL  =  +0.00 Volts
!				
	
! Data:  Data was collected using an calibrated 4 port network analyzer 						
!	      using G-S-G Probes on Probe Matrix Board. 
!             The reference plane is the package pins of ADRF5025 switch.
! Notes: Analog Devices supplies this data as a sample of measured data						
!             for this product.  Your particular data for this product may vary.						
!             Data was taken at 105 degrees C.						
!             Analog Devices reserves the right to change this data at anytime.	
!
# GHz S  dB   R 50
0.26 -26.455 -5.161 -71.240 59.356 -0.591 -2.634  
-72.679 57.990 -1.168 177.820 -78.054 28.763   
-0.609 -2.593 -79.876 40.424 -23.347 -3.836   
0.51 -26.515 -10.602 -67.290 68.976 -0.624 -4.896  
-67.568 70.372 -1.242 176.066 -75.154 54.150   
-0.642 -4.911 -75.378 60.459 -22.959 -9.930   
0.76 -26.684 -15.977 -63.657 72.784 -0.636 -7.204  
-64.076 74.538 -1.248 174.321 -72.047 61.081   
-0.654 -7.193 -72.587 62.884 -23.069 -14.642   
1.01 -26.839 -20.892 -61.773 73.162 -0.651 -9.426  
-61.786 74.004 -1.240 172.337 -69.436 68.007   
-0.661 -9.395 -70.069 67.536 -23.116 -21.552   
1.26 -26.990 -25.414 -59.878 74.718 -0.656 -11.688  
-59.738 74.483 -1.256 170.494 -67.901 66.120   
-0.672 -11.654 -68.026 68.907 -23.166 -26.897   
1.51 -27.132 -30.373 -58.230 73.366 -0.662 -13.945  
-58.283 74.183 -1.262 168.729 -66.222 68.848   
-0.678 -13.903 -66.800 67.453 -23.176 -31.814   
1.76 -27.173 -35.284 -56.873 73.176 -0.660 -16.204  
-56.965 72.850 -1.259 166.914 -65.087 68.754   
-0.673 -16.231 -64.992 67.555 -23.119 -37.058   
2.01 -27.267 -40.442 -55.776 72.262 -0.689 -18.426  
-55.796 72.326 -1.266 165.081 -64.102 67.827   
-0.708 -18.369 -64.199 67.473 -23.010 -41.954   
2.26 -27.299 -45.863 -54.773 69.899 -0.701 -20.746  
-54.763 70.357 -1.267 163.287 -62.831 67.391   
-0.713 -20.748 -62.971 65.516 -22.968 -47.421   
2.51 -27.276 -51.306 -53.879 69.658 -0.698 -22.978  
-53.935 69.081 -1.268 161.548 -61.942 65.014   
-0.711 -23.007 -62.192 66.299 -22.719 -52.730   
2.76 -27.266 -56.723 -53.074 67.649 -0.714 -25.283  
-53.030 67.926 -1.271 159.761 -61.317 64.465   
-0.734 -25.210 -61.282 63.956 -22.734 -58.018   
3.01 -27.179 -62.601 -52.453 65.984 -0.740 -27.454  
-52.409 66.103 -1.280 158.003 -60.599 63.292   
-0.733 -27.357 -60.681 63.321 -22.555 -62.643   
3.26 -27.111 -68.278 -51.678 64.402 -0.744 -29.647  
-51.740 64.853 -1.277 156.275 -60.154 61.526   
-0.752 -29.555 -59.976 60.691 -22.360 -67.207   
3.51 -26.990 -73.834 -51.104 62.940 -0.737 -31.964  
-51.133 63.062 -1.287 154.496 -59.533 59.254   
-0.747 -31.888 -59.381 59.430 -22.161 -71.425   
3.76 -26.881 -79.088 -50.552 61.676 -0.757 -34.127  
-50.574 61.519 -1.288 152.702 -58.811 57.256   
-0.769 -34.067 -58.747 57.298 -21.920 -77.744   
4.01 -26.711 -84.502 -50.042 59.569 -0.738 -36.477  
-50.064 59.598 -1.295 150.919 -58.243 56.580   
-0.770 -36.485 -58.247 56.859 -21.793 -81.630   
4.26 -26.627 -89.071 -49.554 58.194 -0.770 -38.632  
-49.541 58.245 -1.305 149.123 -57.908 54.969   
-0.777 -38.603 -57.839 55.117 -21.872 -86.081   
4.51 -26.530 -93.616 -49.122 56.772 -0.773 -40.758  
-49.124 56.973 -1.311 147.345 -57.368 54.379   
-0.773 -40.817 -57.286 54.527 -21.534 -89.197   
4.76 -26.491 -97.739 -48.686 55.033 -0.787 -43.166  
-48.661 55.298 -1.320 145.505 -56.984 53.197   
-0.794 -43.009 -56.975 52.352 -21.752 -91.384   
5.01 -26.458 -101.260 -48.210 53.555 -0.804 -45.274  
-48.247 53.899 -1.329 143.696 -56.353 49.969   
-0.794 -45.125 -56.314 50.662 -21.629 -94.033   
5.26 -26.420 -105.076 -47.829 52.343 -0.806 -47.421  
-47.780 52.084 -1.342 141.834 -56.048 47.560   
-0.787 -47.386 -56.046 47.399 -21.250 -98.290   
5.51 -26.423 -108.667 -47.431 50.218 -0.810 -49.649  
-47.402 49.932 -1.348 139.962 -55.644 46.713   
-0.797 -49.624 -55.802 46.181 -21.483 -100.601   
5.76 -26.393 -111.612 -47.078 48.097 -0.829 -51.906  
-47.102 48.421 -1.357 138.139 -55.480 43.916   
-0.804 -51.725 -55.450 44.590 -21.471 -103.870   
6.01 -26.479 -115.249 -46.776 46.470 -0.814 -54.164  
-46.788 46.527 -1.366 136.251 -55.116 42.286   
-0.828 -54.036 -55.119 42.572 -21.285 -105.741   
6.26 -26.527 -117.925 -46.471 45.159 -0.845 -56.414  
-46.480 44.981 -1.374 134.386 -55.055 40.511   
-0.833 -56.134 -54.986 40.456 -21.319 -110.117   
6.51 -26.576 -121.369 -46.199 42.981 -0.832 -58.567  
-46.217 43.038 -1.385 132.489 -54.761 40.436   
-0.843 -58.498 -54.716 40.236 -21.544 -111.296   
6.76 -26.645 -124.508 -45.947 41.564 -0.830 -60.889  
-45.999 41.610 -1.398 130.635 -54.256 38.463   
-0.860 -60.719 -54.295 38.859 -21.429 -114.269   
7.01 -26.662 -126.917 -45.594 39.778 -0.862 -62.981  
-45.632 39.888 -1.410 128.740 -54.059 36.706   
-0.844 -62.893 -54.125 36.208 -21.765 -117.177   
7.26 -26.720 -129.457 -45.394 37.790 -0.851 -65.252  
-45.407 37.792 -1.424 126.874 -53.501 34.608   
-0.860 -65.134 -53.629 35.406 -21.678 -117.647   
7.51 -26.788 -131.680 -45.178 36.318 -0.878 -67.554  
-45.182 36.481 -1.436 125.001 -53.349 31.531   
-0.863 -67.248 -53.270 32.087 -21.560 -121.175   
7.76 -26.716 -134.290 -44.940 34.196 -0.882 -69.620  
-44.962 34.479 -1.448 123.153 -53.171 29.525   
-0.855 -69.536 -53.205 29.861 -21.943 -123.712   
8.01 -26.760 -137.302 -44.750 32.618 -0.876 -71.885  
-44.752 32.762 -1.460 121.302 -53.039 27.569   
-0.879 -71.787 -53.001 28.091 -21.944 -125.922   
8.26 -26.653 -139.545 -44.546 30.726 -0.903 -74.094  
-44.539 30.893 -1.474 119.477 -52.835 26.301   
-0.857 -74.007 -52.790 25.910 -22.018 -127.575   
8.51 -26.683 -141.975 -44.369 28.945 -0.897 -76.263  
-44.345 28.809 -1.484 117.620 -52.790 23.882   
-0.868 -76.199 -52.713 23.622 -22.385 -131.292   
8.76 -26.665 -144.638 -44.230 26.894 -0.903 -78.508  
-44.226 26.824 -1.495 115.784 -52.590 21.720   
-0.877 -78.473 -52.562 21.892 -22.306 -133.287   
9.01 -26.622 -147.134 -44.068 25.114 -0.902 -80.637  
-44.050 25.136 -1.509 113.922 -52.646 19.739   
-0.879 -80.781 -52.469 19.691 -22.399 -136.999   
9.26 -26.560 -149.461 -43.920 23.076 -0.896 -82.844  
-43.921 22.858 -1.521 112.094 -52.522 17.967   
-0.894 -83.018 -52.577 17.829 -22.651 -140.028   
9.51 -26.462 -151.508 -43.927 21.190 -0.912 -85.183  
-43.889 21.216 -1.535 110.234 -52.550 17.632   
-0.894 -85.088 -52.593 17.411 -22.593 -142.341   
9.76 -26.383 -153.615 -43.924 19.800 -0.909 -87.267  
-43.890 19.719 -1.547 108.382 -52.477 16.786   
-0.909 -87.432 -52.420 16.145 -22.613 -143.239   
10.01 -26.209 -155.470 -43.681 18.806 -0.912 -89.542  
-43.648 18.725 -1.559 106.526 -52.098 15.713   
-0.918 -89.564 -52.144 15.565 -22.955 -148.131   
10.26 -26.025 -157.791 -43.549 17.660 -0.931 -91.705  
-43.547 17.548 -1.578 104.655 -51.946 15.197   
-0.915 -91.890 -51.912 15.358 -23.142 -149.573   
10.51 -25.939 -159.474 -43.405 15.710 -0.919 -93.957  
-43.443 15.637 -1.591 102.806 -51.742 12.362   
-0.929 -94.061 -51.814 13.314 -23.040 -150.057   
10.76 -25.847 -161.319 -43.264 14.585 -0.951 -96.283  
-43.264 14.469 -1.608 100.942 -51.743 11.307   
-0.914 -96.236 -51.657 11.485 -23.227 -155.918   
11.01 -25.748 -163.662 -43.148 12.509 -0.947 -98.291  
-43.163 12.195 -1.627 98.987 -51.583 10.765   
-0.927 -98.638 -51.544 10.190 -23.514 -155.917   
11.26 -25.673 -164.671 -43.105 11.419 -0.943 -100.663  
-43.095 11.240 -1.638 97.109 -51.409 9.628   
-0.934 -100.686 -51.414 9.390 -23.233 -157.069   
11.51 -25.535 -166.668 -42.940 10.084 -0.971 -102.816  
-42.960 9.893 -1.657 95.163 -51.213 8.743   
-0.927 -103.066 -51.174 8.496 -23.411 -162.082   
11.76 -25.555 -168.136 -42.825 8.445 -0.951 -105.023  
-42.835 8.247 -1.673 93.208 -50.932 6.974   
-0.955 -105.247 -50.926 6.910 -23.634 -160.684   
12.01 -25.366 -169.513 -42.733 6.871 -0.963 -107.377  
-42.733 6.736 -1.692 91.267 -50.717 5.337   
-0.940 -107.417 -50.689 5.685 -23.333 -162.259   
12.26 -25.279 -172.366 -42.620 5.700 -0.973 -109.423  
-42.641 5.538 -1.708 89.342 -50.480 4.376   
-0.962 -109.812 -50.483 4.176 -23.596 -166.902   
12.51 -25.110 -173.598 -42.450 4.116 -0.959 -111.757  
-42.471 3.872 -1.725 87.451 -50.204 2.054   
-0.965 -111.956 -50.216 1.954 -23.874 -168.360   
12.76 -24.904 -175.257 -42.332 2.792 -0.969 -114.029  
-42.369 2.627 -1.744 85.540 -49.971 0.083   
-0.965 -114.167 -49.920 0.322 -23.725 -168.215   
13.01 -24.715 -177.321 -42.174 1.398 -0.974 -116.152  
-42.205 1.206 -1.761 83.655 -49.925 -2.009   
-0.983 -116.496 -49.914 -2.008 -23.902 -172.786   
13.26 -24.404 -179.083 -41.970 -1.522 -0.980 -118.508  
-41.965 -1.643 -1.771 81.773 -49.829 -4.952   
-0.970 -118.652 -49.828 -5.174 -23.974 -175.134   
13.51 -24.198 178.511 -41.999 -2.717 -0.992 -120.597  
-41.987 -2.966 -1.791 79.909 -49.446 -3.834   
-0.993 -120.973 -49.509 -4.069 -23.598 -176.889   
13.76 -23.845 177.357 -41.898 -4.859 -0.979 -122.880  
-41.903 -5.125 -1.803 78.066 -49.353 -7.173   
-1.000 -123.121 -49.377 -7.046 -23.668 178.098   
14.01 -23.513 174.983 -41.882 -6.166 -1.004 -125.185  
-41.871 -6.340 -1.818 76.187 -49.267 -7.631   
-0.994 -125.455 -49.227 -7.720 -23.750 176.178   
14.26 -23.294 173.003 -41.706 -7.156 -0.999 -127.350  
-41.732 -7.395 -1.838 74.379 -48.741 -9.289   
-1.014 -127.626 -48.758 -9.236 -23.564 172.965   
14.51 -22.928 171.297 -41.563 -9.188 -0.998 -129.709  
-41.590 -9.202 -1.853 72.525 -48.554 -11.642   
-1.010 -129.804 -48.552 -11.676 -23.594 168.117   
14.76 -22.728 169.273 -41.389 -10.695 -1.015 -131.848  
-41.388 -10.824 -1.870 70.683 -48.107 -13.904   
-1.028 -132.117 -48.109 -13.844 -23.632 166.020   
15.01 -22.439 167.779 -41.237 -13.160 -1.010 -134.069  
-41.260 -13.080 -1.889 68.814 -47.978 -17.822   
-1.040 -134.310 -47.961 -17.984 -23.386 162.187   
15.26 -22.116 166.131 -41.100 -14.973 -1.025 -136.440  
-41.123 -15.269 -1.900 66.949 -47.726 -20.419   
-1.026 -136.627 -47.698 -20.091 -23.268 157.873   
15.51 -21.907 164.097 -41.036 -16.872 -1.024 -138.509  
-41.065 -16.934 -1.920 65.036 -47.548 -22.655   
-1.060 -138.817 -47.494 -22.473 -23.272 155.374   
15.76 -21.537 162.624 -40.853 -19.048 -1.014 -140.873  
-40.870 -19.090 -1.937 63.125 -47.381 -25.084   
-1.046 -141.022 -47.383 -25.179 -23.001 152.118   
16.01 -21.261 160.263 -40.757 -21.358 -1.044 -143.086  
-40.785 -21.664 -1.954 61.196 -47.194 -27.476   
-1.061 -143.335 -47.137 -27.634 -22.785 148.019   
16.26 -21.002 158.829 -40.603 -23.596 -1.021 -145.269  
-40.652 -23.618 -1.976 59.268 -46.935 -30.592   
-1.067 -145.443 -46.908 -30.483 -22.626 145.176   
16.51 -20.714 156.204 -40.569 -25.932 -1.041 -147.655  
-40.596 -26.029 -1.995 57.364 -46.717 -32.805   
-1.066 -147.761 -46.723 -32.920 -22.291 142.170   
16.76 -20.513 154.163 -40.438 -28.473 -1.044 -149.839  
-40.455 -28.573 -2.007 55.398 -46.323 -36.036   
-1.078 -150.019 -46.352 -36.062 -22.019 139.335   
17.01 -20.275 152.060 -40.467 -30.558 -1.038 -152.124  
-40.472 -30.771 -2.023 53.472 -46.230 -39.265   
-1.079 -152.172 -46.234 -39.408 -21.751 136.512   
17.26 -20.095 149.491 -40.316 -32.951 -1.064 -154.414  
-40.331 -33.074 -2.034 51.478 -45.868 -42.740   
-1.090 -154.561 -45.892 -42.858 -21.427 133.904   
17.51 -19.947 147.681 -40.203 -35.623 -1.051 -156.564  
-40.244 -35.663 -2.059 49.471 -45.617 -46.437   
-1.101 -156.675 -45.615 -46.714 -21.199 131.508   
17.76 -19.719 144.921 -40.148 -38.261 -1.065 -158.977  
-40.183 -38.212 -2.070 47.467 -45.464 -50.721   
-1.096 -159.056 -45.494 -50.750 -20.840 128.666   
18.01 -19.631 142.398 -40.117 -41.070 -1.089 -161.141  
-40.150 -41.048 -2.087 45.524 -45.339 -54.148   
-1.123 -161.318 -45.324 -54.600 -20.730 125.430   
18.26 -19.445 140.907 -40.088 -43.313 -1.063 -163.390  
-40.136 -43.463 -2.110 43.575 -45.076 -57.592   
-1.114 -163.439 -45.075 -57.472 -20.503 124.150   
18.51 -19.275 137.874 -40.059 -46.118 -1.099 -165.796  
-40.088 -46.271 -2.126 41.571 -44.890 -62.281   
-1.126 -165.884 -44.902 -62.186 -20.191 120.934   
18.76 -19.131 135.717 -39.940 -48.879 -1.102 -167.894  
-39.966 -48.875 -2.144 39.632 -44.660 -66.833   
-1.142 -168.011 -44.658 -66.996 -20.094 117.658   
19.01 -18.926 132.975 -40.023 -52.313 -1.093 -170.271  
-40.036 -52.214 -2.155 37.666 -44.708 -71.940   
-1.134 -170.271 -44.743 -71.997 -19.810 117.220   
19.26 -18.867 130.536 -40.067 -54.423 -1.129 -172.453  
-40.082 -54.439 -2.176 35.766 -44.707 -75.274   
-1.165 -172.544 -44.727 -75.328 -19.497 112.861   
19.51 -18.679 128.601 -40.003 -57.067 -1.118 -174.595  
-40.033 -56.977 -2.188 33.777 -44.546 -79.083   
-1.161 -174.682 -44.569 -79.098 -19.401 110.208   
19.76 -18.506 125.343 -40.070 -59.967 -1.133 -177.151  
-40.060 -60.181 -2.202 31.893 -44.406 -83.876   
-1.168 -177.168 -44.436 -84.064 -19.054 108.773   
20.01 -18.430 123.309 -40.103 -62.530 -1.163 -179.178  
-40.111 -62.517 -2.224 29.897 -44.457 -88.972   
-1.194 -179.239 -44.483 -89.113 -18.642 105.406   
20.26 -18.220 120.849 -40.165 -65.122 -1.153 178.391  
-40.157 -65.147 -2.241 27.886 -44.632 -93.712   
-1.187 178.380 -44.661 -93.547 -18.540 101.890   
20.51 -18.181 118.502 -40.195 -68.351 -1.185 176.007  
-40.207 -68.515 -2.261 25.935 -44.808 -97.979   
-1.218 176.029 -44.822 -98.230 -18.342 100.116   
20.76 -18.005 117.111 -40.322 -70.018 -1.185 174.012  
-40.364 -70.050 -2.287 23.996 -45.251 -99.976   
-1.220 174.015 -45.232 -99.844 -17.962 97.799   
21.01 -17.860 114.301 -40.194 -71.390 -1.195 171.657  
-40.207 -71.450 -2.308 22.114 -45.007 -99.386   
-1.235 171.643 -44.975 -99.479 -17.908 93.491   
21.26 -17.801 112.064 -40.210 -74.403 -1.231 169.519  
-40.238 -74.688 -2.318 20.127 -44.604 -103.541   
-1.262 169.508 -44.605 -103.670 -17.747 92.219   
21.51 -17.619 109.702 -40.296 -77.291 -1.216 167.264  
-40.296 -77.330 -2.333 18.149 -44.367 -108.449   
-1.254 167.226 -44.432 -108.472 -17.201 89.557   
21.76 -17.574 106.954 -40.218 -79.156 -1.247 165.012  
-40.242 -79.040 -2.349 16.125 -44.357 -112.262   
-1.281 164.971 -44.357 -112.280 -17.135 85.865   
22.01 -17.513 104.738 -40.231 -81.430 -1.257 162.989  
-40.231 -81.317 -2.362 14.096 -44.252 -116.811   
-1.283 162.874 -44.276 -116.880 -17.062 84.914   
22.26 -17.369 101.886 -40.015 -84.510 -1.243 160.484  
-40.005 -84.494 -2.386 12.081 -44.231 -121.947   
-1.294 160.415 -44.303 -121.735 -16.503 83.161   
22.51 -17.369 99.354 -40.169 -88.530 -1.286 158.312  
-40.211 -88.494 -2.401 10.071 -44.499 -125.884   
-1.321 158.286 -44.466 -125.729 -16.491 80.276   
22.76 -17.244 97.304 -40.217 -90.735 -1.257 156.215  
-40.220 -90.884 -2.422 8.049 -44.372 -128.171   
-1.297 156.044 -44.424 -128.279 -16.283 80.297   
23.01 -17.177 93.416 -40.388 -93.587 -1.279 153.502  
-40.413 -93.879 -2.445 6.011 -44.321 -133.140   
-1.348 153.561 -44.325 -132.726 -15.755 78.384   
23.26 -17.204 91.135 -40.463 -95.683 -1.307 151.529  
-40.479 -95.778 -2.465 4.016 -44.401 -136.133   
-1.346 151.430 -44.426 -136.102 -15.759 75.541   
23.51 -17.101 88.244 -40.303 -97.917 -1.284 149.144  
-40.343 -97.947 -2.499 2.044 -44.629 -138.071   
-1.359 149.020 -44.613 -137.884 -15.477 75.159   
23.76 -17.245 85.104 -40.457 -101.226 -1.327 146.697  
-40.470 -101.315 -2.515 0.109 -44.111 -140.679   
-1.404 146.797 -44.162 -140.483 -15.162 74.423   
24.01 -17.276 82.679 -40.426 -103.178 -1.360 144.676  
-40.458 -103.372 -2.539 -1.845 -43.859 -144.322   
-1.405 144.664 -43.922 -144.000 -15.009 70.771   
24.26 -17.418 79.721 -40.503 -105.678 -1.370 142.339  
-40.531 -106.041 -2.550 -3.853 -43.760 -149.261   
-1.429 142.482 -43.778 -149.004 -14.947 70.441   
24.51 -17.590 77.113 -40.588 -108.982 -1.410 140.033  
-40.640 -108.932 -2.566 -5.907 -43.531 -153.571   
-1.449 140.337 -43.519 -153.357 -14.600 69.872   
24.76 -17.722 74.636 -40.856 -108.488 -1.414 137.908  
-40.865 -108.493 -2.583 -7.953 -43.378 -159.299   
-1.454 138.115 -43.385 -158.731 -14.548 66.865   
25.01 -17.956 72.185 -40.308 -109.752 -1.427 135.474  
-40.368 -109.692 -2.599 -10.003 -43.511 -164.173   
-1.489 135.991 -43.502 -163.794 -14.538 66.983   
25.26 -18.063 69.517 -40.344 -113.616 -1.438 133.374  
-40.339 -113.534 -2.627 -12.034 -44.254 -167.432   
-1.482 133.763 -44.247 -167.429 -14.462 65.852   
25.51 -18.241 66.920 -39.982 -116.190 -1.456 131.281  
-40.003 -116.284 -2.637 -13.939 -44.151 -165.612   
-1.482 131.573 -44.180 -165.096 -14.606 62.316   
25.76 -18.443 64.409 -40.249 -120.873 -1.438 129.107  
-40.313 -120.983 -2.658 -15.928 -43.408 -167.997   
-1.486 129.370 -43.438 -167.879 -14.682 62.880   
26.01 -18.581 62.096 -40.263 -121.493 -1.446 126.931  
-40.322 -121.441 -2.665 -17.875 -43.242 -174.191   
-1.484 127.094 -43.253 -173.639 -14.558 61.923   
26.26 -18.725 59.312 -39.873 -122.912 -1.445 124.690  
-39.924 -123.101 -2.651 -19.768 -43.250 -178.550   
-1.486 124.924 -43.289 -178.042 -14.649 58.384   
26.51 -18.959 56.423 -39.736 -129.508 -1.449 122.520  
-39.804 -129.928 -2.647 -21.767 -43.339 -179.776   
-1.483 122.646 -43.331 -179.857 -14.608 58.677   
26.76 -19.217 54.053 -40.192 -131.990 -1.436 120.266  
-40.210 -132.099 -2.646 -23.900 -42.553 176.656   
-1.492 120.349 -42.556 176.494 -14.450 57.522   
27.01 -19.533 51.731 -40.501 -134.642 -1.472 117.799  
-40.512 -134.458 -2.675 -25.994 -42.656 169.583   
-1.519 118.340 -42.701 169.982 -14.464 53.839   
27.26 -19.757 48.713 -40.393 -132.102 -1.467 115.644  
-40.414 -132.075 -2.698 -27.945 -42.352 164.769   
-1.514 115.977 -42.348 164.529 -14.322 54.174   
27.51 -20.113 45.450 -39.744 -135.648 -1.433 113.255  
-39.800 -135.208 -2.720 -29.982 -43.086 157.484   
-1.556 113.733 -43.335 157.989 -14.263 53.440   
27.76 -20.532 43.337 -40.182 -140.220 -1.480 110.928  
-40.197 -139.875 -2.733 -31.967 -43.269 162.142   
-1.555 111.712 -43.214 162.028 -14.311 49.401   
28.01 -20.831 40.690 -39.869 -138.819 -1.483 108.779  
-39.960 -138.887 -2.754 -33.929 -42.733 158.065   
-1.561 109.384 -42.657 158.637 -14.290 48.985   
28.26 -21.089 38.169 -39.747 -141.242 -1.480 106.648  
-39.846 -141.946 -2.779 -36.049 -42.620 155.507   
-1.553 107.154 -42.557 155.568 -14.489 48.454   
28.51 -21.393 36.224 -39.615 -144.219 -1.542 104.364  
-39.648 -143.513 -2.792 -38.030 -42.226 150.405   
-1.539 105.097 -42.287 151.768 -14.436 44.572   
28.76 -21.663 31.950 -39.325 -147.032 -1.533 102.174  
-39.253 -147.473 -2.792 -39.856 -42.232 145.092   
-1.549 102.728 -42.205 145.296 -14.433 44.022   
29.01 -22.060 28.323 -39.212 -150.465 -1.548 99.789  
-39.090 -150.394 -2.818 -42.144 -42.498 140.890   
-1.543 100.594 -42.553 141.233 -14.276 43.489   
29.26 -22.522 23.978 -39.240 -153.406 -1.614 97.719  
-39.086 -153.661 -2.824 -44.250 -42.698 138.221   
-1.527 98.342 -42.574 138.545 -14.151 40.233   
29.51 -23.244 19.243 -39.072 -156.890 -1.577 95.348  
-39.051 -156.398 -2.843 -46.261 -42.453 135.474   
-1.558 96.087 -42.482 136.894 -14.143 40.853   
29.76 -23.934 15.092 -39.330 -160.006 -1.581 93.203  
-39.299 -160.054 -2.874 -48.492 -42.492 134.204   
-1.557 93.881 -42.542 135.074 -14.422 42.241   
30.01 -24.653 10.178 -39.375 -160.343 -1.592 90.862  
-39.316 -159.930 -2.887 -50.564 -42.307 129.312   
-1.552 91.754 -42.340 130.193 -14.247 39.615   
30.26 -25.471 5.159 -39.212 -161.729 -1.579 88.622  
-39.285 -160.935 -2.923 -52.722 -42.531 126.410   
-1.550 89.365 -42.584 126.251 -14.604 39.721   
30.51 -26.248 -0.285 -39.048 -161.391 -1.604 86.574  
-39.013 -162.210 -2.953 -54.757 -42.843 123.713   
-1.530 86.938 -42.772 123.202 -14.951 41.403   
30.76 -27.271 -7.054 -38.621 -164.881 -1.621 84.142  
