!Hittite Microwave Corporation								
!2 Elizabeth Drive								
!Chelmsford, MA 01824								
!Tel: 978-250-3343								
!Fax: 978-250-3373								
!Device: HMC1082LP4, GaAs pHEMT MMIC Medium Power Amplifier, 5.5 - 18 GHz								
!Misc: Vdd1=Vdd2=Vdd3=5 V, Idd=220 mA, data includes evaluation board with coaxial connectors, room temperature							
# GHZ S DB R 50								
0.1	-0.317	-6.358	-66.638	-59.168	-70.752	-57.787	-0.347	-6.794
0.2	-0.336	-32.426	-74.511	-82.103	-86.757	-35.137	-0.349	-33.824
0.4	-0.374	-58.577	-81.174	143.180	-92.493	-69.976	-0.395	-61.215
0.6	-0.430	-84.887	-80.671	-115.620	-80.177	117.718	-0.463	-89.131
0.8	-0.512	-111.562	-55.329	-151.288	-73.520	53.765	-0.697	-117.825
1.0	-0.611	-138.550	-36.807	92.846	-73.334	-48.572	-1.206	-146.648
1.2	-0.722	-165.807	-33.355	-62.514	-83.804	-71.563	-2.167	-171.894
1.4	-0.831	166.742	-42.252	-154.267	-84.255	-172.915	-1.971	167.380
1.6	-0.933	139.291	-51.652	174.675	-83.910	42.168	-1.506	140.213
1.8	-1.030	111.819	-59.085	176.768	-81.535	-42.904	-1.341	111.899
2.0	-1.115	84.126	-66.380	-143.871	-79.878	-68.473	-1.284	83.618
2.2	-1.202	56.390	-65.474	-23.720	-87.060	-82.836	-1.299	55.362
2.4	-1.310	28.496	-49.587	2.169	-79.434	-87.241	-1.372	27.193
2.6	-1.440	0.354	-37.219	-5.488	-74.285	-88.413	-1.511	-1.367
2.8	-1.612	-28.044	-26.691	-30.868	-72.265	-111.498	-1.774	-30.028
3.0	-1.852	-56.916	-17.732	-66.433	-67.860	-147.510	-2.141	-58.905
3.2	-2.179	-86.229	-9.916	-107.912	-64.769	-173.799	-2.680	-88.099
3.4	-2.622	-116.374	-3.182	-154.047	-62.883	147.933	-3.348	-117.185
3.6	-3.197	-147.173	2.564	157.147	-63.887	117.495	-4.194	-146.320
3.8	-3.917	-178.526	7.419	106.651	-62.613	97.820	-5.206	-175.087
4.0	-4.812	149.886	11.558	55.763	-61.051	58.693	-6.429	156.187
4.2	-5.906	118.157	15.111	4.525	-61.497	37.306	-7.987	128.234
4.4	-7.231	86.920	18.145	-47.156	-61.415	11.012	-10.071	102.174
4.6	-8.960	55.619	20.663	-99.208	-60.925	-9.604	-12.772	82.094
4.8	-11.255	24.280	22.643	-151.865	-61.167	-35.574	-15.457	76.211
5.0	-14.438	-6.263	23.964	155.700	-60.357	-60.365	-15.124	80.685
5.2	-19.645	-36.056	24.638	104.630	-59.665	-79.955	-12.765	70.207
5.4	-31.621	-48.908	24.790	56.307	-59.624	-108.480	-10.792	48.456
5.6	-27.163	64.375	24.609	10.940	-59.321	-130.212	-9.911	22.141
5.8	-20.288	44.317	24.275	-31.446	-59.740	-155.118	-9.615	-2.745
6.0	-17.336	20.256	23.889	-71.335	-59.859	-173.911	-9.722	-28.412
6.2	-15.706	-5.412	23.512	-109.437	-58.507	163.871	-10.212	-51.589
6.4	-15.033	-32.720	23.178	-145.747	-58.861	137.281	-10.610	-76.203
6.6	-14.913	-61.154	22.878	178.939	-59.089	111.644	-11.730	-99.156
6.8	-15.141	-90.268	22.684	144.681	-58.254	94.969	-12.046	-121.533
7.0	-15.287	-122.015	22.489	110.858	-58.152	73.727	-13.579	-146.485
7.2	-15.334	-155.906	22.369	77.368	-57.981	48.617	-13.587	-166.701
7.4	-15.124	168.440	22.242	44.554	-57.422	27.246	-15.038	164.852
7.6	-14.532	134.645	22.127	11.887	-57.902	3.841	-14.837	147.583
7.8	-13.877	102.293	22.090	-20.046	-58.830	-19.264	-15.845	117.091
8.0	-13.021	72.812	22.068	-51.866	-58.846	-21.515	-15.477	104.184
8.2	-11.945	45.481	22.080	-83.864	-55.955	-42.260	-14.923	75.292
8.4	-10.952	18.855	22.030	-115.299	-54.138	-70.263	-14.424	59.519
8.6	-10.159	-6.662	22.005	-146.622	-53.817	-99.226	-13.303	32.738
8.8	-9.622	-30.245	22.027	-177.315	-53.450	-122.780	-13.199	15.712
9.0	-9.247	-53.002	22.054	151.772	-53.003	-149.086	-12.007	-6.329
9.2	-9.012	-75.630	22.140	121.115	-52.125	-175.053	-12.049	-24.587
9.4	-8.968	-98.022	22.208	90.377	-51.914	155.560	-10.923	-42.063
9.6	-9.129	-120.829	22.360	59.369	-51.867	122.195	-10.596	-62.685
9.8	-9.451	-142.951	22.395	28.300	-53.760	101.128	-9.718	-82.692
10.0	-9.685	-165.895	22.467	-2.619	-52.440	86.852	-9.816	-106.689
10.2	-10.177	170.770	22.573	-33.350	-51.394	59.646	-9.540	-124.571
10.4	-10.814	148.237	22.604	-64.521	-51.021	28.963	-9.285	-149.960
10.6	-11.465	125.947	22.665	-95.603	-51.303	-1.725	-9.557	-171.182
10.8	-11.993	103.327	22.623	-126.080	-52.521	-28.391	-9.516	163.548
11.0	-12.564	78.079	22.670	-157.501	-52.332	-55.097	-10.393	139.990
11.2	-13.098	52.877	22.641	171.884	-53.650	-78.810	-10.542	117.950
11.4	-13.550	26.168	22.661	140.618	-54.589	-106.137	-11.643	93.568
11.6	-13.862	-1.198	22.675	109.099	-55.147	-127.761	-11.893	73.107
11.8	-14.050	-28.987	22.669	77.831	-56.501	-160.340	-12.615	47.859
12.0	-14.104	-56.646	22.625	44.402	-60.389	179.170	-12.879	24.337
12.2	-13.879	-83.614	22.449	13.896	-67.786	-175.478	-14.173	-1.691
12.4	-13.252	-110.335	22.311	-15.478	-61.533	-127.181	-14.522	-21.598
12.6	-12.603	-137.987	22.205	-44.330	-55.628	-156.632	-15.003	-48.564
12.8	-12.042	-165.322	22.156	-72.726	-52.786	169.181	-15.490	-70.469
13.0	-11.615	169.249	22.160	-102.082	-51.542	136.829	-14.887	-96.956
13.2	-11.335	145.301	22.121	-131.867	-51.441	107.221	-15.221	-128.765
13.4	-11.077	122.667	22.106	-160.776	-51.230	81.984	-15.254	-152.417
13.6	-10.870	101.687	22.054	168.763	-51.150	57.170	-14.963	179.389
13.8	-10.753	81.520	22.032	138.785	-50.786	32.673	-15.125	157.808
14.0	-10.535	62.103	21.961	108.662	-50.462	5.965	-14.200	132.409
14.2	-10.351	43.108	21.949	78.448	-50.442	-17.091	-14.588	106.980
14.4	-10.244	24.377	21.957	48.561	-50.251	-39.348	-14.049	87.347
14.6	-10.126	6.504	21.963	18.262	-49.661	-60.702	-14.045	62.036
14.8	-10.024	-10.466	21.983	-11.747	-49.599	-85.911	-13.991	43.769
15.0	-9.919	-27.225	21.995	-42.260	-49.500	-107.059	-13.780	18.242
15.2	-9.755	-44.915	22.023	-72.433	-48.829	-131.721	-14.266	-0.691
15.4	-9.527	-62.909	22.049	-102.748	-48.754	-155.603	-14.135	-23.761
15.6	-9.343	-80.682	22.150	-133.108	-48.292	-177.726	-15.411	-43.402
15.8	-9.079	-99.937	22.285	-163.415	-47.891	155.833	-15.688	-60.659
16.0	-8.895	-119.094	22.492	165.326	-47.510	132.390	-17.306	-80.156
16.2	-8.709	-138.547	22.679	133.544	-47.221	104.616	-18.278	-90.814
16.4	-8.484	-158.572	22.809	100.957	-47.118	77.215	-21.087	-110.240
16.6	-8.232	-178.847	22.840	68.018	-47.337	51.032	-22.926	-95.554
16.8	-7.929	160.333	22.815	35.096	-47.515	24.454	-24.147	-96.613
17.0	-7.667	138.837	22.757	1.948	-48.060	-1.515	-20.412	-81.400
17.2	-7.365	116.362	22.608	-31.330	-48.758	-27.685	-19.293	-101.107
17.4	-7.000	92.577	22.417	-64.518	-49.536	-50.468	-17.468	-104.909
17.6	-6.687	67.383	22.169	-97.318	-49.866	-69.303	-16.670	-129.740
17.8	-6.329	41.071	21.993	-130.589	-50.217	-90.027	-16.390	-133.822
18.0	-5.988	14.610	21.715	-164.054	-50.403	-111.291	-15.402	-157.283
18.2	-5.676	-12.794	21.434	162.093	-49.776	-130.100	-15.128	-162.778
18.4	-5.330	-40.029	21.017	128.585	-49.157	-157.083	-13.102	172.528
18.6	-5.026	-66.338	20.580	94.537	-49.653	175.707	-13.332	158.102
18.8	-4.723	-92.719	20.104	61.273	-49.710	150.374	-11.074	133.371
19.0	-4.404	-118.538	19.488	27.127	-50.459	124.671	-11.589	111.519
19.2	-4.122	-143.553	18.910	-6.102	-51.521	100.780	-9.629	89.090
19.4	-3.837	-168.167	18.134	-39.195	-52.314	83.374	-10.204	61.884
19.6	-3.532	168.156	17.530	-72.369	-52.144	65.688	-8.861	41.606
19.8	-3.256	145.003	16.803	-104.608	-52.027	42.175	-8.817	11.959
20.0	-3.050	122.250	16.095	-137.808	-52.418	28.473	-8.293	-7.973
20.2	-2.790	99.125	15.544	-170.268	-49.921	4.882	-7.675	-38.809
20.4	-2.701	74.946	14.803	155.280	-49.102	-31.768	-7.805	-60.694
20.6	-2.758	51.132	13.968	120.795	-49.404	-67.376	-6.519	-90.934
20.8	-2.839	27.981	12.900	87.281	-50.467	-100.010	-6.634	-119.654
21.0	-2.905	5.816	11.800	54.022	-51.555	-132.347	-5.601	-146.915
21.2	-3.001	-17.284	10.761	21.545	-52.895	-159.277	-5.373	-178.639
21.4	-3.049	-40.354	9.580	-11.488	-53.903	174.347	-4.857	157.579
21.6	-3.125	-63.931	8.439	-43.928	-55.112	146.939	-4.108	127.689
21.8	-3.288	-87.762	7.062	-76.156	-55.671	118.627	-4.110	105.011
22.0	-3.382	-112.163	5.778	-107.785	-56.025	80.484	-3.134	79.340
22.2	-3.458	-136.965	4.264	-138.204	-57.229	38.951	-3.470	57.068
22.4	-3.510	-161.977	2.910	-169.081	-58.021	-0.994	-2.628	35.269
22.6	-3.547	173.048	1.451	161.935	-58.921	-46.873	-2.902	13.306
22.8	-3.587	148.415	0.083	132.259	-60.283	-94.203	-2.497	-5.682
23.0	-3.642	123.124	-1.263	104.047	-62.151	-143.596	-2.555	-28.160
23.2	-3.660	97.733	-2.627	74.962	-65.405	-161.944	-2.572	-46.045
23.4	-3.651	72.582	-3.878	46.999	-65.897	-164.080	-2.323	-68.849
23.6	-3.595	47.668	-5.254	18.889	-60.536	167.553	-2.793	-87.502
23.8	-3.484	23.680	-6.437	-9.194	-57.711	135.285	-2.319	-110.385
24.0	-3.434	1.239	-7.746	-36.303	-55.764	98.960	-2.927	-131.869
24.2	-3.476	-21.050	-8.945	-64.344	-53.501	53.555	-2.504	-153.913
24.4	-3.537	-42.669	-10.063	-91.157	-53.955	7.580	-2.915	-179.037
24.6	-3.694	-64.022	-11.367	-118.890	-54.335	-20.152	-2.746	160.222
24.8	-3.930	-85.902	-12.334	-146.456	-53.923	-59.880	-2.686	131.539
25.0	-4.187	-108.517	-13.620	-173.628	-54.293	-116.194	-2.790	111.752
25.2	-4.442	-131.302	-14.736	158.006	-59.010	-172.847	-2.320	83.020
25.4	-4.618	-155.079	-15.884	131.511	-64.519	107.381	-2.644	62.285
25.6	-4.711	179.802	-17.147	102.788	-64.587	-15.694	-2.068	36.018
25.8	-4.771	153.829	-18.223	75.700	-61.628	-63.544	-2.404	13.591
26.0	-4.819	127.100	-19.619	47.899	-57.154	-93.650	-1.960	-8.748
26.2	-4.752	100.007	-20.846	20.218	-54.510	-138.768	-2.150	-33.116
26.4	-4.641	72.761	-22.323	-6.742	-53.226	-176.545	-2.001	-52.235
26.6	-4.429	45.335	-23.713	-33.277	-53.117	134.721	-1.940	-76.994
26.8	-4.136	19.397	-25.085	-59.181	-51.975	97.923	-2.116	-95.438
27.0	-3.899	-4.928	-26.575	-85.715	-53.975	65.044	-1.853	-119.443
27.2	-3.732	-28.523	-27.874	-109.820	-55.076	34.548	-2.236	-138.839
27.4	-3.582	-51.049	-29.372	-134.854	-54.931	7.807	-1.832	-161.072
27.6	-3.508	-72.586	-30.668	-159.587	-54.360	-20.889	-2.274	176.683
27.8	-3.524	-94.191	-31.927	177.691	-54.236	-64.532	-1.923	157.604
28.0	-3.515	-115.586	-32.826	155.399	-54.085	-103.663	-2.217	132.330
28.2	-3.530	-136.611	-33.573	130.751	-54.998	-169.993	-2.084	114.127
28.4	-3.550	-158.132	-34.058	103.653	-52.964	127.851	-2.068	87.663
28.6	-3.571	-179.617	-35.264	74.005	-54.694	70.064	-2.177	68.527
28.8	-3.616	158.564	-36.717	44.797	-53.798	7.760	-1.857	42.190
29.0	-3.617	136.795	-37.697	15.212	-52.732	-38.113	-2.242	20.611
29.2	-3.655	114.645	-39.683	-8.991	-52.167	-84.810	-1.669	-2.558
29.4	-3.697	92.389	-41.084	-38.022	-52.965	-121.222	-2.128	-27.857
29.6	-3.765	69.242	-42.194	-63.113	-53.219	-149.552	-1.543	-47.256
29.8	-3.793	45.634	-44.328	-100.400	-50.681	175.851	-1.954	-74.187
30.0	-3.796	22.154	-46.422	-128.154	-50.685	138.501	-1.531	-92.199
30.2	-3.783	-2.140	-48.868	-151.270	-49.462	102.583	-1.713	-118.253
30.4	-3.700	-26.418	-55.895	155.502	-49.590	63.841	-1.639	-135.360
30.6	-3.701	-50.334	-57.439	119.377	-49.281	27.109	-1.553	-159.923
30.8	-3.819	-75.259	-55.837	-6.404	-48.637	-7.725	-1.895	-178.392
31.0	-4.021	-101.348	-49.728	-65.432	-46.169	-52.443	-1.522	158.916
31.2	-4.144	-128.016	-45.114	-125.113	-44.795	-109.833	-2.107	138.892
31.4	-4.200	-155.025	-42.492	178.980	-44.834	-168.667	-1.589	117.225
31.6	-4.048	178.856	-43.513	136.143	-46.816	141.999	-2.149	95.360
31.8	-3.847	153.032	-44.456	98.706	-48.380	110.406	-1.760	75.229
32.0	-3.620	127.993	-44.138	67.326	-48.580	70.997	-2.005	51.727
32.2	-3.385	103.400	-44.655	41.637	-49.096	42.538	-1.924	32.316
32.4	-3.280	79.467	-43.945	16.106	-47.549	16.549	-1.960	10.141
32.6	-3.169	54.700	-43.170	-10.544	-46.446	-16.904	-2.002	-9.773
32.8	-3.020	30.756	-41.900	-38.003	-45.012	-46.519	-1.858	-33.114
33.0	-2.835	8.147	-41.317	-74.420	-43.443	-79.100	-2.260	-52.892
33.2	-2.637	-14.237	-41.162	-109.330	-42.189	-114.580	-2.096	-74.920
33.4	-2.408	-34.659	-39.857	-140.135	-41.585	-148.119	-2.678	-94.479
33.6	-2.218	-53.596	-39.026	-167.720	-40.180	-179.127	-2.603	-112.666
33.8	-2.134	-71.593	-37.599	152.894	-38.582	141.789	-2.836	-132.048
34.0	-2.080	-89.841	-37.275	108.889	-38.172	99.224	-2.778	-150.958
34.2	-2.135	-107.856	-38.137	68.241	-38.834	57.649	-2.904	-174.351
34.4	-2.242	-126.859	-39.875	40.559	-40.225	27.480	-3.200	164.669
34.6	-2.364	-146.151	-39.390	5.493	-40.561	-3.136	-3.476	138.084
34.8	-2.516	-166.052	-39.279	-26.514	-40.649	-32.563	-3.816	118.125
35.0	-2.661	172.511	-39.284	-58.876	-40.761	-61.510	-3.164	90.842
35.2	-2.764	150.464	-39.666	-93.011	-40.482	-95.895	-3.681	63.603
35.4	-2.889	128.125	-39.775	-129.797	-40.752	-128.142	-3.538	40.609
35.6	-3.112	105.312	-40.658	-163.869	-41.573	-166.372	-3.166	10.042
35.8	-3.392	80.729	-41.506	156.945	-41.981	156.376	-3.309	-18.903
36.0	-3.637	54.763	-42.111	120.632	-43.197	126.380	-3.311	-49.079
36.2	-3.809	27.351	-42.481	86.389	-43.633	93.455	-3.005	-68.591
36.4	-3.760	-0.635	-42.897	40.589	-43.305	53.918	-2.386	-98.963
36.6	-3.643	-27.001	-42.002	-2.890	-43.448	6.301	-2.806	-123.477
36.8	-3.553	-52.895	-42.845	-53.394	-43.475	-38.726	-2.561	-139.382
37.0	-3.440	-78.379	-41.405	-105.140	-42.986	-91.775	-2.353	-165.354
37.2	-3.404	-103.590	-41.248	-159.187	-42.538	-144.165	-2.230	177.754
37.4	-3.430	-127.715	-39.901	150.102	-41.756	162.974	-2.447	153.800
37.6	-3.688	-151.963	-38.931	107.585	-40.902	113.715	-2.156	140.087
37.8	-4.113	-174.743	-38.602	56.584	-40.229	65.794	-2.062	118.551
38.0	-4.506	164.282	-39.068	10.397	-40.739	16.990	-2.433	100.329
38.2	-4.278	147.185	-41.578	-32.903	-43.642	-26.691	-2.778	83.598
38.4	-3.668	129.436	-45.729	-40.106	-46.658	-30.438	-3.247	64.301
38.6	-3.130	109.024	-42.784	-44.192	-43.666	-41.039	-4.487	43.799
38.8	-2.836	87.391	-38.641	-75.207	-40.241	-72.577	-6.535	25.812
39.0	-2.692	65.513	-36.130	-115.492	-38.083	-114.655	-9.386	19.599
39.2	-2.666	45.376	-35.963	-163.987	-37.698	-162.256	-9.392	30.097
39.4	-2.668	25.835	-36.871	151.452	-38.797	151.930	-7.238	19.142
39.6	-2.759	6.950	-39.128	114.033	-41.322	116.743	-5.612	1.665
39.8	-2.998	-12.185	-39.856	93.018	-41.547	100.019	-4.977	-20.117
40.0	-2.914	-34.439	-39.001	58.877	-41.390	60.301	-4.642	-39.316
