! Created Wed Aug 30 10:33:10 2023
# ghz S ri R 50
! 4 Port Network Data from SP1.SP block
! freq  reS11  imS11  reS12  imS12  reS13  imS13  reS14  imS14  
!       reS21  imS21  reS22  imS22  reS23  imS23  reS24  imS24  
!       reS31  imS31  reS32  imS32  reS33  imS33  reS34  imS34  
!       reS41  imS41  reS42  imS42  reS43  imS43  reS44  imS44  
!     
                 5      -0.131411395        0.589590221       -0.079387765       -0.396860751       -0.394654491       -0.356927629       -0.246904061       -0.349546164
                     -0.079387765       -0.396860751       -0.131411395        0.589590221       -0.246904061       -0.349546164       -0.394654491       -0.356927629
                     -0.394654491       -0.356927629       -0.246904061       -0.349546164       -0.131411395        0.589590221       -0.079387765       -0.396860751
                     -0.246904061       -0.349546164       -0.394654491       -0.356927629       -0.079387765       -0.396860751       -0.131411395        0.589590221

              5.01      -0.129180722        0.589992319      -0.0804239958       -0.396548015       -0.396597195       -0.355217973       -0.248356631       -0.348305101
                    -0.0804239958       -0.396548015       -0.129180722        0.589992319       -0.248356631       -0.348305101       -0.396597195       -0.355217973
                     -0.396597195       -0.355217973       -0.248356631       -0.348305101       -0.129180722        0.589992319      -0.0804239958       -0.396548015
                     -0.248356631       -0.348305101       -0.396597195       -0.355217973      -0.0804239958       -0.396548015       -0.129180722        0.589992319

              5.02      -0.126945814        0.590383679      -0.0814578798       -0.396234835       -0.398534367       -0.353498185       -0.249803885       -0.347057306
                    -0.0814578798       -0.396234835       -0.126945814        0.590383679       -0.249803885       -0.347057306       -0.398534367       -0.353498185
                     -0.398534367       -0.353498185       -0.249803885       -0.347057306       -0.126945814        0.590383679      -0.0814578798       -0.396234835
                     -0.249803885       -0.347057306       -0.398534367       -0.353498185      -0.0814578798       -0.396234835       -0.126945814        0.590383679

              5.03      -0.124706723        0.590764253      -0.0824894367       -0.395921238       -0.400465964       -0.351768263       -0.251245793       -0.345802787
                    -0.0824894367       -0.395921238       -0.124706723        0.590764253       -0.251245793       -0.345802787       -0.400465964       -0.351768263
                     -0.400465964       -0.351768263       -0.251245793       -0.345802787       -0.124706723        0.590764253      -0.0824894367       -0.395921238
                     -0.251245793       -0.345802787       -0.400465964       -0.351768263      -0.0824894367       -0.395921238       -0.124706723        0.590764253

              5.04      -0.122463502        0.591133992      -0.0835186866       -0.395607252       -0.402391943       -0.350028207       -0.252682324       -0.344541555
                    -0.0835186866       -0.395607252       -0.122463502        0.591133992       -0.252682324       -0.344541555       -0.402391943       -0.350028207
                     -0.402391943       -0.350028207       -0.252682324       -0.344541555       -0.122463502        0.591133992      -0.0835186866       -0.395607252
                     -0.252682324       -0.344541555       -0.402391943       -0.350028207      -0.0835186866       -0.395607252       -0.122463502        0.591133992

              5.05      -0.120216206         0.59149285      -0.0845456498       -0.395292906        -0.40431226       -0.348278013       -0.254113447       -0.343273618
                    -0.0845456498       -0.395292906       -0.120216206         0.59149285       -0.254113447       -0.343273618        -0.40431226       -0.348278013
                      -0.40431226       -0.348278013       -0.254113447       -0.343273618       -0.120216206         0.59149285      -0.0845456498       -0.395292906
                     -0.254113447       -0.343273618        -0.40431226       -0.348278013      -0.0845456498       -0.395292906       -0.120216206         0.59149285

              5.06      -0.117964889        0.591840778       -0.085570347       -0.394978226       -0.406226872       -0.346517681       -0.255539132       -0.341998987
                     -0.085570347       -0.394978226       -0.117964889        0.591840778       -0.255539132       -0.341998987       -0.406226872       -0.346517681
                     -0.406226872       -0.346517681       -0.255539132       -0.341998987       -0.117964889        0.591840778       -0.085570347       -0.394978226
                     -0.255539132       -0.341998987       -0.406226872       -0.346517681       -0.085570347       -0.394978226       -0.117964889        0.591840778

              5.07      -0.115709605        0.592177728      -0.0865927991       -0.394663241       -0.408135734       -0.344747208       -0.256959348       -0.340717671
                    -0.0865927991       -0.394663241       -0.115709605        0.592177728       -0.256959348       -0.340717671       -0.408135734       -0.344747208
                     -0.408135734       -0.344747208       -0.256959348       -0.340717671       -0.115709605        0.592177728      -0.0865927991       -0.394663241
                     -0.256959348       -0.340717671       -0.408135734       -0.344747208      -0.0865927991       -0.394663241       -0.115709605        0.592177728

              5.08      -0.113450409        0.592503654      -0.0876130275       -0.394347977       -0.410038803       -0.342966593       -0.258374064       -0.339429679
                    -0.0876130275       -0.394347977       -0.113450409        0.592503654       -0.258374064       -0.339429679       -0.410038803       -0.342966593
                     -0.410038803       -0.342966593       -0.258374064       -0.339429679       -0.113450409        0.592503654      -0.0876130275       -0.394347977
                     -0.258374064       -0.339429679       -0.410038803       -0.342966593      -0.0876130275       -0.394347977       -0.113450409        0.592503654

              5.09      -0.111187358        0.592818507      -0.0886310537       -0.394032462       -0.411936034       -0.341175833       -0.259783248       -0.338135023
                    -0.0886310537       -0.394032462       -0.111187358        0.592818507       -0.259783248       -0.338135023       -0.411936034       -0.341175833
                     -0.411936034       -0.341175833       -0.259783248       -0.338135023       -0.111187358        0.592818507      -0.0886310537       -0.394032462
                     -0.259783248       -0.338135023       -0.411936034       -0.341175833      -0.0886310537       -0.394032462       -0.111187358        0.592818507

               5.1      -0.108920507         0.59312224      -0.0896468998       -0.393716724       -0.413827383       -0.339374928       -0.261186869        -0.33683371
                    -0.0896468998       -0.393716724       -0.108920507         0.59312224       -0.261186869        -0.33683371       -0.413827383       -0.339374928
                     -0.413827383       -0.339374928       -0.261186869        -0.33683371       -0.108920507         0.59312224      -0.0896468998       -0.393716724
                     -0.261186869        -0.33683371       -0.413827383       -0.339374928      -0.0896468998       -0.393716724       -0.108920507         0.59312224

              5.11      -0.106649912        0.593414807      -0.0906605879       -0.393400789       -0.415712803       -0.337563875       -0.262584895       -0.335525752
                    -0.0906605879       -0.393400789       -0.106649912        0.593414807       -0.262584895       -0.335525752       -0.415712803       -0.337563875
                     -0.415712803       -0.337563875       -0.262584895       -0.335525752       -0.106649912        0.593414807      -0.0906605879       -0.393400789
                     -0.262584895       -0.335525752       -0.415712803       -0.337563875      -0.0906605879       -0.393400789       -0.106649912        0.593414807

              5.12       -0.10437563        0.593696161      -0.0916721407       -0.393084684       -0.417592251       -0.335742673       -0.263977295       -0.334211158
                    -0.0916721407       -0.393084684        -0.10437563        0.593696161       -0.263977295       -0.334211158       -0.417592251       -0.335742673
                     -0.417592251       -0.335742673       -0.263977295       -0.334211158        -0.10437563        0.593696161      -0.0916721407       -0.393084684
                     -0.263977295       -0.334211158       -0.417592251       -0.335742673      -0.0916721407       -0.393084684        -0.10437563        0.593696161

              5.13       -0.10209772        0.593966255       -0.092681581       -0.392768436       -0.419465681       -0.333911321       -0.265364036       -0.332889939
                     -0.092681581       -0.392768436        -0.10209772        0.593966255       -0.265364036       -0.332889939       -0.419465681       -0.333911321
                     -0.419465681       -0.333911321       -0.265364036       -0.332889939        -0.10209772        0.593966255       -0.092681581       -0.392768436
                     -0.265364036       -0.332889939       -0.419465681       -0.333911321       -0.092681581       -0.392768436        -0.10209772        0.593966255

              5.14     -0.0998162382        0.594225043      -0.0936889321       -0.392452071       -0.421333046       -0.332069816       -0.266745086       -0.331562103
                    -0.0936889321       -0.392452071      -0.0998162382        0.594225043       -0.266745086       -0.331562103       -0.421333046       -0.332069816
                     -0.421333046       -0.332069816       -0.266745086       -0.331562103      -0.0998162382        0.594225043      -0.0936889321       -0.392452071
                     -0.266745086       -0.331562103       -0.421333046       -0.332069816      -0.0936889321       -0.392452071      -0.0998162382        0.594225043

              5.15     -0.0975312437        0.594472478      -0.0946942176       -0.392135616         -0.4231943       -0.330218158       -0.268120413       -0.330227662
                    -0.0946942176       -0.392135616      -0.0975312437        0.594472478       -0.268120413       -0.330227662         -0.4231943       -0.330218158
                       -0.4231943       -0.330218158       -0.268120413       -0.330227662      -0.0975312437        0.594472478      -0.0946942176       -0.392135616
                     -0.268120413       -0.330227662         -0.4231943       -0.330218158      -0.0946942176       -0.392135616      -0.0975312437        0.594472478

              5.16     -0.0952427951        0.594708515      -0.0956974614       -0.391819097       -0.425049398       -0.328356345       -0.269489985       -0.328886625
                    -0.0956974614       -0.391819097      -0.0952427951        0.594708515       -0.269489985       -0.328886625       -0.425049398       -0.328356345
                     -0.425049398       -0.328356345       -0.269489985       -0.328886625      -0.0952427951        0.594708515      -0.0956974614       -0.391819097
                     -0.269489985       -0.328886625       -0.425049398       -0.328356345      -0.0956974614       -0.391819097      -0.0952427951        0.594708515

              5.17     -0.0929509516        0.594933106      -0.0966986875       -0.391502541       -0.426898292       -0.326484375       -0.270853769       -0.327539002
                    -0.0966986875       -0.391502541      -0.0929509516        0.594933106       -0.270853769       -0.327539002       -0.426898292       -0.326484375
                     -0.426898292       -0.326484375       -0.270853769       -0.327539002      -0.0929509516        0.594933106      -0.0966986875       -0.391502541
                     -0.270853769       -0.327539002       -0.426898292       -0.326484375      -0.0966986875       -0.391502541      -0.0929509516        0.594933106

              5.18     -0.0906557731        0.595146208      -0.0976979207       -0.391185973       -0.428740936       -0.324602248       -0.272211731       -0.326184805
                    -0.0976979207       -0.391185973      -0.0906557731        0.595146208       -0.272211731       -0.326184805       -0.428740936       -0.324602248
                     -0.428740936       -0.324602248       -0.272211731       -0.326184805      -0.0906557731        0.595146208      -0.0976979207       -0.391185973
                     -0.272211731       -0.326184805       -0.428740936       -0.324602248      -0.0976979207       -0.391185973      -0.0906557731        0.595146208

              5.19     -0.0883573197        0.595347774      -0.0986951858       -0.390869419       -0.430577282       -0.322709961       -0.273563839       -0.324824042
                    -0.0986951858       -0.390869419      -0.0883573197        0.595347774       -0.273563839       -0.324824042       -0.430577282       -0.322709961
                     -0.430577282       -0.322709961       -0.273563839       -0.324824042      -0.0883573197        0.595347774      -0.0986951858       -0.390869419
                     -0.273563839       -0.324824042       -0.430577282       -0.322709961      -0.0986951858       -0.390869419      -0.0883573197        0.595347774

               5.2     -0.0860556521        0.595537758      -0.0996905079       -0.390552904       -0.432407283       -0.320807515        -0.27491006       -0.323456726
                    -0.0996905079       -0.390552904      -0.0860556521        0.595537758        -0.27491006       -0.323456726       -0.432407283       -0.320807515
                     -0.432407283       -0.320807515        -0.27491006       -0.323456726      -0.0860556521        0.595537758      -0.0996905079       -0.390552904
                      -0.27491006       -0.323456726       -0.432407283       -0.320807515      -0.0996905079       -0.390552904      -0.0860556521        0.595537758

              5.21     -0.0837508314        0.595716117       -0.100683913       -0.390236455       -0.434230891       -0.318894906        -0.27625036       -0.322082865
                     -0.100683913       -0.390236455      -0.0837508314        0.595716117        -0.27625036       -0.322082865       -0.434230891       -0.318894906
                     -0.434230891       -0.318894906        -0.27625036       -0.322082865      -0.0837508314        0.595716117       -0.100683913       -0.390236455
                      -0.27625036       -0.322082865       -0.434230891       -0.318894906       -0.100683913       -0.390236455      -0.0837508314        0.595716117

              5.22     -0.0814429193        0.595882804       -0.101675426       -0.389920097       -0.436048057       -0.316972136       -0.277584706       -0.320702472
                     -0.101675426       -0.389920097      -0.0814429193        0.595882804       -0.277584706       -0.320702472       -0.436048057       -0.316972136
                     -0.436048057       -0.316972136       -0.277584706       -0.320702472      -0.0814429193        0.595882804       -0.101675426       -0.389920097
                     -0.277584706       -0.320702472       -0.436048057       -0.316972136       -0.101675426       -0.389920097      -0.0814429193        0.595882804

              5.23     -0.0791319779        0.596037776       -0.102665074       -0.389603854       -0.437858734       -0.315039202       -0.278913063       -0.319315556
                     -0.102665074       -0.389603854      -0.0791319779        0.596037776       -0.278913063       -0.319315556       -0.437858734       -0.315039202
                     -0.437858734       -0.315039202       -0.278913063       -0.319315556      -0.0791319779        0.596037776       -0.102665074       -0.389603854
                     -0.278913063       -0.319315556       -0.437858734       -0.315039202       -0.102665074       -0.389603854      -0.0791319779        0.596037776

              5.24     -0.0768180697        0.596180987       -0.103652883       -0.389287752       -0.439662873       -0.313096103       -0.280235398       -0.317922128
                     -0.103652883       -0.389287752      -0.0768180697        0.596180987       -0.280235398       -0.317922128       -0.439662873       -0.313096103
                     -0.439662873       -0.313096103       -0.280235398       -0.317922128      -0.0768180697        0.596180987       -0.103652883       -0.389287752
                     -0.280235398       -0.317922128       -0.439662873       -0.313096103       -0.103652883       -0.389287752      -0.0768180697        0.596180987

              5.25     -0.0745012578        0.596312394        -0.10463888       -0.388971815       -0.441460424       -0.311142839       -0.281551676       -0.316522199
                      -0.10463888       -0.388971815      -0.0745012578        0.596312394       -0.281551676       -0.316522199       -0.441460424       -0.311142839
                     -0.441460424       -0.311142839       -0.281551676       -0.316522199      -0.0745012578        0.596312394        -0.10463888       -0.388971815
                     -0.281551676       -0.316522199       -0.441460424       -0.311142839        -0.10463888       -0.388971815      -0.0745012578        0.596312394

              5.26     -0.0721816058        0.596431952       -0.105623092       -0.388656068       -0.443251338        -0.30917941       -0.282861863        -0.31511578
                     -0.105623092       -0.388656068      -0.0721816058        0.596431952       -0.282861863        -0.31511578       -0.443251338        -0.30917941
                     -0.443251338        -0.30917941       -0.282861863        -0.31511578      -0.0721816058        0.596431952       -0.105623092       -0.388656068
                     -0.282861863        -0.31511578       -0.443251338        -0.30917941       -0.105623092       -0.388656068      -0.0721816058        0.596431952

              5.27     -0.0698591776        0.596539618       -0.106605547       -0.388340536       -0.445035566       -0.307205813       -0.284165925       -0.313702882
                     -0.106605547       -0.388340536      -0.0698591776        0.596539618       -0.284165925       -0.313702882       -0.445035566       -0.307205813
                     -0.445035566       -0.307205813       -0.284165925       -0.313702882      -0.0698591776        0.596539618       -0.106605547       -0.388340536
                     -0.284165925       -0.313702882       -0.445035566       -0.307205813       -0.106605547       -0.388340536      -0.0698591776        0.596539618

              5.28     -0.0675340378        0.596635348       -0.107586273       -0.388025243       -0.446813058        -0.30522205       -0.285463826       -0.312283517
                     -0.107586273       -0.388025243      -0.0675340378        0.596635348       -0.285463826       -0.312283517       -0.446813058        -0.30522205
                     -0.446813058        -0.30522205       -0.285463826       -0.312283517      -0.0675340378        0.596635348       -0.107586273       -0.388025243
                     -0.285463826       -0.312283517       -0.446813058        -0.30522205       -0.107586273       -0.388025243      -0.0675340378        0.596635348

