! Created Wed Aug 30 10:33:21 2023
! List of port names and net name(s): example Port n = <port_name> <net_name1> <net_name2> ...
! Port 1 = P1 P1 
! Port 2 = P2 P2 
! Port 3 = P3 P3 
! Port 4 = P4 P4 
# ghz S ri R 50
! 4 Port Network Data from data block
! freq  reS11  imS11  reS12  imS12  reS13  imS13  reS14  imS14  
!       reS21  imS21  reS22  imS22  reS23  imS23  reS24  imS24  
!       reS31  imS31  reS32  imS32  reS33  imS33  reS34  imS34  
!       reS41  imS41  reS42  imS42  reS43  imS43  reS44  imS44  
!     
                 5       -0.14168659        0.566862132       -0.131013775       -0.392779683       -0.367939069       -0.396447638       -0.104767994       -0.400635787
                     -0.131013775       -0.392779683       -0.129333735        0.569431961       -0.114281096       -0.398495899       -0.367762345       -0.396656179
                     -0.367939069       -0.396447638       -0.114281096       -0.398495899       -0.128440444        0.569898334       -0.131163351       -0.392406579
                     -0.104767994       -0.400635787       -0.367762345       -0.396656179       -0.131163351       -0.392406579       -0.141353769        0.567143128

              5.05       -0.13008953        0.568893646       -0.136852866       -0.389647605       -0.378563027       -0.388581496        -0.11200341       -0.397812992
                     -0.136852866       -0.389647605       -0.117527677        0.571251708       -0.121580285       -0.395454349       -0.378389687       -0.388797301
                     -0.378563027       -0.388581496       -0.121580285       -0.395454349       -0.116617038        0.571707055       -0.136992075       -0.389267286
                      -0.11200341       -0.397812992       -0.378389687       -0.388797301       -0.136992075       -0.389267286       -0.129746824        0.569172131

               5.1      -0.118364028        0.570639671       -0.142586242        -0.38645915       -0.389076376       -0.380429397       -0.119206861       -0.394854341
                     -0.142586242        -0.38645915       -0.105596536          0.5727768        -0.12884265       -0.392272154        -0.38890669       -0.380652464
                     -0.389076376       -0.380429397        -0.12884265       -0.392272154       -0.104668747        0.573220507       -0.142714716        -0.38607193
                     -0.119206861       -0.394854341        -0.38890669       -0.380652464       -0.142714716        -0.38607193       -0.118011381        0.570915303

              5.15      -0.106517198        0.572092788       -0.148213755       -0.383219076       -0.399472587       -0.371989499       -0.126377019       -0.391758003
                     -0.148213755       -0.383219076      -0.0935477971        0.573999757       -0.136066635       -0.388947511       -0.399306827       -0.372219814
                     -0.399472587       -0.371989499       -0.136066635       -0.388947511      -0.0926030846        0.574431208       -0.148331135       -0.382825291
                     -0.126377019       -0.391758003       -0.399306827       -0.372219814       -0.148331135       -0.382825291       -0.106154566        0.572365216

               5.2     -0.0945564759        0.573245612       -0.153735435       -0.379932251       -0.409744868       -0.363260022       -0.133512366       -0.388522053
                     -0.153735435       -0.379932251      -0.0813892758        0.574913145       -0.143250479       -0.385478537       -0.409583317       -0.363497557
                     -0.409744868       -0.363260022       -0.143250479       -0.385478537      -0.0804278941        0.575331725       -0.153841369       -0.379532254
                     -0.133512366       -0.388522053       -0.409583317       -0.363497557       -0.153841369       -0.379532254      -0.0941838135        0.573514481

              5.25      -0.082489658        0.574090852       -0.159151532       -0.376603619       -0.419886176       -0.354239217       -0.140611214       -0.385144443
                     -0.159151532       -0.376603619      -0.0691291772        0.575509633       -0.150392257       -0.381863228       -0.419729111       -0.354483945
                     -0.419886176       -0.354239217       -0.150392257       -0.381863228      -0.0681513864        0.575914734       -0.159245678       -0.376197778
                     -0.140611214       -0.385144443       -0.419729111       -0.354483945       -0.159245678       -0.376197778      -0.0821069432        0.574355796

               5.3     -0.0703249203        0.574621317       -0.164462525       -0.373238189       -0.429889205       -0.344925389       -0.147671692       -0.381623009
                     -0.164462525       -0.373238189      -0.0567760721        0.575782009       -0.157489843       -0.378099472       -0.429736911       -0.345177268
                     -0.429889205       -0.344925389       -0.157489843       -0.378099472      -0.0557821712        0.576173021        -0.16454455       -0.372826895
                     -0.147671692       -0.381623009       -0.429736911       -0.345177268        -0.16454455       -0.372826895      -0.0699321394        0.574881958

              5.35     -0.0580708273        0.574829939       -0.169669144       -0.369841025       -0.439746364       -0.335316909       -0.154691729       -0.377955461
                     -0.169669144       -0.369841025      -0.0443389573        0.575723194       -0.164540905       -0.374185053       -0.439599133       -0.335575879
                     -0.439746364       -0.335316909       -0.164540905       -0.374185053      -0.0433292754        0.576099508       -0.169738728       -0.369424689
                     -0.154691729       -0.377955461       -0.439599133       -0.335575879       -0.169738728       -0.369424689      -0.0576679715        0.575085895

               5.4     -0.0457363321         0.57470977        -0.17477236       -0.366417258       -0.449449788       -0.325412211       -0.161669043       -0.374139414
                      -0.17477236       -0.366417258      -0.0318272117        0.575326248       -0.171542896       -0.370117653       -0.449307909       -0.325678213
                     -0.449449788       -0.325412211       -0.171542896       -0.370117653      -0.0308020924        0.575687265       -0.174829195       -0.365996308
                     -0.161669043       -0.374139414       -0.449307909       -0.325678213       -0.174829195       -0.365996308      -0.0453234135        0.574960648

              5.45     -0.0333307923        0.574254017       -0.179773423       -0.362972055       -0.458991305       -0.315209827       -0.168601116       -0.370172378
                     -0.179773423       -0.362972055      -0.0192506358        0.574584404       -0.178493025       -0.365894869       -0.458855072       -0.315482785
                     -0.458991305       -0.315209827       -0.178493025       -0.365894869      -0.0182104577        0.574929523       -0.179817215       -0.362546942
                     -0.168601116       -0.370172378       -0.458855072       -0.315482785       -0.179817215       -0.362546942      -0.0329078395        0.574499414

               5.5      -0.020863981        0.573456046       -0.184673863       -0.359510626       -0.468362432       -0.304708392       -0.175485179       -0.366051773
                     -0.184673863       -0.359510626     -0.00661945479        0.573491066       -0.185388246        -0.36151422       -0.468232143       -0.304988218
                     -0.468362432       -0.304708392       -0.185388246        -0.36151422     -0.00556462344        0.573819696       -0.184704331       -0.359081818
                     -0.175485179       -0.366051773       -0.468232143       -0.304988218       -0.184704331       -0.359081818      -0.0204310337        0.573695552

              5.55    -0.00834609053        0.572309403       -0.189475504       -0.356038207       -0.477554367       -0.293906663       -0.182318203       -0.361774941
                     -0.189475504       -0.356038207      0.00605566781        0.572039842       -0.192225234       -0.356973161       -0.477430321       -0.294193256
                     -0.477554367       -0.293906663       -0.192225234       -0.356973161      0.00712472685        0.572351402       -0.189492385       -0.355606186
                     -0.182318203       -0.361774941       -0.477430321       -0.294193256       -0.189492385       -0.355606186     -0.00790319567        0.572542602

               5.6     0.00421225894        0.570807833       -0.194180483       -0.352560047       -0.486557975       -0.282803535       -0.189096867        -0.35733916
                     -0.194180483       -0.352560047       0.0187636323        0.570224556       -0.199000379       -0.352269095       -0.486440469       -0.283096788
                     -0.486557975       -0.282803535       -0.199000379       -0.352269095       0.0198464714        0.570518474       -0.194183527       -0.352125315
                     -0.189096867        -0.35733916       -0.486440469       -0.283096788       -0.194183527       -0.352125315      0.00466503329        0.571034303

              5.65      0.0168000127        0.568945308       -0.198791257       -0.349081389       -0.495363774       -0.271398069        -0.19581755       -0.352741658
                     -0.198791257       -0.349081389       0.0314929077        0.568039283       -0.205709761       -0.347399387       -0.495253111       -0.271697855
                     -0.495363774       -0.271398069       -0.205709761       -0.347399387       0.0325890271        0.568314986       -0.198780239       -0.348644478
                      -0.19581755       -0.352741658       -0.495253111       -0.271697855       -0.198780239       -0.348644478       0.0172625679        0.569164608

               5.7      0.0294056585        0.566716029       -0.203310628       -0.345607479       -0.503961933       -0.259689502       -0.202476318       -0.347979623
                     -0.203310628       -0.345607479         0.04423147        0.565478346       -0.212349133       -0.342361386       -0.503858411       -0.259995691
                     -0.503961933       -0.259689502       -0.212349133       -0.342361386       0.0453403748        0.565735287       -0.203285335       -0.345168923
                     -0.202476318       -0.347979623       -0.503858411       -0.259995691       -0.203285335       -0.345168923       0.0298778922        0.566927724

              5.75      0.0420172304         0.56411447       -0.207741752       -0.342143519       -0.512342251       -0.247677286       -0.209068898        -0.34305023
                     -0.207741752       -0.342143519       0.0569668624         0.56253637       -0.218913912       -0.337152438       -0.512246174       -0.247989722
                     -0.512342251       -0.247677286       -0.218913912       -0.337152438       0.0580880107        0.562774007       -0.207701994       -0.341703874
                     -0.209068898        -0.34305023       -0.512246174       -0.247989722       -0.207701994       -0.341703874       0.0424990286        0.564318115

               5.8      0.0546223178        0.561135397       -0.212088139        -0.33869466       -0.520494154       -0.235361089       -0.215590653       -0.337950653
                     -0.212088139        -0.33869466       0.0696861547        0.559208292       -0.225399144       -0.331769907       -0.520405821       -0.235679613
                     -0.520494154       -0.235361089       -0.225399144       -0.331769907       0.0708189777        0.559426094       -0.212033752       -0.338254505
                     -0.215590653       -0.337950653       -0.520405821       -0.235679613       -0.212033752       -0.338254505        0.055113526        0.561330536

              5.85      0.0672080207        0.557773891       -0.216353689        -0.33526599       -0.528406679       -0.222740853       -0.222036577       -0.332678093
                     -0.216353689        -0.33526599        0.082375924        0.555489394       -0.231799501       -0.326211206        -0.52832639       -0.223065286
                     -0.528406679       -0.222740853       -0.231799501       -0.326211206       0.0835198273        0.555686847       -0.216284528       -0.334825916
                     -0.222036577       -0.332678093        -0.52832639       -0.223065286       -0.216284528       -0.334825916       0.0677084748        0.557960065

               5.9      0.0797609858        0.554025368       -0.220542701       -0.331862504       -0.536068488       -0.209816778       -0.228401293        -0.32722979
                     -0.220542701       -0.331862504       0.0950222968        0.551375318       -0.238109279       -0.320473802       -0.535996541       -0.210146932
                     -0.536068488       -0.209816778       -0.238109279       -0.320473802       0.0961766687         0.55155193       -0.220458645       -0.331423112
                     -0.228401293        -0.32722979       -0.535996541       -0.210146932       -0.220458645       -0.331423112       0.0802705046        0.554202116

              5.95      0.0922673313        0.549885646       -0.224659867       -0.328489084       -0.543467793       -0.196589467       -0.234678974       -0.321603095
                     -0.224659867       -0.328489084        0.107610836        0.546862145       -0.244322315       -0.314555314       -0.543404483        -0.19692513
                     -0.543467793       -0.196589467       -0.244322315       -0.314555314         0.10877502        0.547017433       -0.224560827       -0.328050998
                     -0.234678974       -0.321603095       -0.543404483        -0.19692513       -0.224560827       -0.328050998        0.092785707          0.5500525

                 6       0.104712776        0.545350916       -0.228710327       -0.325150444       -0.550592508       -0.183059692       -0.240863452       -0.315795383
                     -0.228710327       -0.325150444        0.120126768        0.541946341       -0.250432128       -0.308453364       -0.550538129       -0.183400654
                     -0.550592508       -0.183059692       -0.250432128       -0.308453364        0.121300104        0.542079852       -0.228596229       -0.324714294
                     -0.240863452       -0.315795383       -0.550538129       -0.183400654       -0.228596229       -0.324714294        0.105239777        0.545507405

              6.05       0.117082496         0.54041785       -0.232699625       -0.321851131       -0.557430042       -0.169228788       -0.246948053       -0.309804228
                     -0.232699625       -0.321851131        0.132554666        0.536624916       -0.256431683       -0.302165865       -0.557384879       -0.169574801
                     -0.557430042       -0.169228788       -0.256431683       -0.302165865        0.133736421        0.536736199       -0.232570443       -0.321417573
                     -0.246948053       -0.309804228       -0.557384879       -0.169574801       -0.232570443       -0.321417573        0.117617857        0.540563497

               6.1       0.129361161        0.535083567        -0.23663376       -0.318595518       -0.563967426       -0.155098423       -0.252925689       -0.303627359
                      -0.23663376       -0.318595518        0.144878712        0.530895329       -0.262313587       -0.295690839       -0.563931766       -0.155449243
                     -0.563967426       -0.155098423       -0.262313587       -0.295690839        0.146068174        0.530983975        -0.23648948       -0.318165204
                     -0.252925689       -0.303627359       -0.563931766       -0.155449243        -0.23648948       -0.318165204         0.12990461          0.5352179

              6.15       0.141532997        0.529345724       -0.240519172       -0.315387707       -0.570191278       -0.140670746       -0.258788811       -0.297262698
                     -0.240519172       -0.315387707        0.157082571         0.52475563       -0.268069951       -0.289026567       -0.570165399       -0.141026114
                     -0.570191278       -0.140670746       -0.268069951       -0.289026567        0.158278979        0.524821243       -0.240359823       -0.314961311
                     -0.258788811       -0.297262698       -0.570165399       -0.141026114       -0.240359823       -0.314961311        0.142084205        0.529468264

               6.2       0.153581713        0.523202538       -0.244362774       -0.312231525       -0.576087805       -0.125948416       -0.264529396       -0.290708412
                     -0.244362774       -0.312231525        0.169149401        0.518204465       -0.273692418       -0.282171608       -0.576071979       -0.126308045
                     -0.576087805       -0.125948416       -0.273692418       -0.282171608        0.170351973        0.518246679        -0.24418841       -0.311809721
                     -0.264529396       -0.290708412       -0.576071979       -0.126308045        -0.24418841       -0.311809721        0.154140356        0.523312811

              6.25       0.165490553        0.516652823       -0.248171923       -0.309130494       -0.581642809       -0.110934616       -0.270138954       -0.283962952
                     -0.248171923       -0.309130494        0.181061932        0.511241104       -0.279172184       -0.275124806       -0.581637301       -0.111298213
                     -0.581642809       -0.110934616       -0.279172184       -0.275124806        0.182269853        0.511259578       -0.247982637       -0.308713971
                     -0.270138954       -0.283962952       -0.581637301       -0.111298213       -0.247982637       -0.308713971        0.166056255        0.516750353

               6.3       0.177242283        0.509696041       -0.251954453        -0.30608777       -0.586841689      -0.0956331323       -0.275608512       -0.277025093
                     -0.251954453        -0.30608777        0.192802391        0.503865516       -0.284499958       -0.267885382       -0.586846758      -0.0960003874
                     -0.586841689      -0.0956331323       -0.284499958       -0.267885382        0.194014832         0.50385994       -0.251750371       -0.305677218
                     -0.275608512       -0.277025093       -0.586846758      -0.0960003874       -0.251750371       -0.305677218        0.177814651        0.509780359

              6.35       0.188819208        0.502332356       -0.255718657       -0.303106105       -0.591669457      -0.0800483869       -0.280928617       -0.269893985
                     -0.255718657       -0.303106105        0.204352568        0.496078406       -0.289665979       -0.260452954       -0.591685351      -0.0804189722
                     -0.591669457      -0.0800483869       -0.289665979       -0.260452954        0.205568664        0.496048501       -0.255499941        -0.30270222
                     -0.280928617       -0.269893985       -0.591685351      -0.0804189722       -0.255499941        -0.30270222        0.189397813        0.502402996

               6.4       0.200203183        0.494562677       -0.259473291       -0.300187804       -0.596110744      -0.0641854881       -0.286089334       -0.262569199
                     -0.259473291       -0.300187804        0.215693801        0.487881267       -0.294660015       -0.252827596       -0.596137703      -0.0645590655
                     -0.596110744      -0.0641854881       -0.294660015       -0.252827596        0.216912676        0.487826786        -0.25924014       -0.299791282
