! Created Wed Aug 30 10:10:00 2023
# ghz S ri R 50
! 2 Port Network Data from SP1.SP block
! freq  reS11  imS11  reS21  imS21  reS12  imS12  reS22  imS22  
!     
                 5      -0.854662245       -0.507488132     0.000840320295     -0.00142751927     0.000840320295     -0.00142751927       -0.854662245       -0.507488132
              5.01      -0.857911856        -0.50195916     0.000840572194     -0.00144937918     0.000840572194     -0.00144937918       -0.857911856        -0.50195916
              5.02      -0.861130681       -0.496400698     0.000840690018     -0.00147153769     0.000840690018     -0.00147153769       -0.861130681       -0.496400698
              5.03      -0.864318446        -0.49081283     0.000840669815      -0.0014939987     0.000840669815      -0.0014939987       -0.864318446        -0.49081283
              5.04      -0.867474873       -0.485195645      0.00084050754     -0.00151676618      0.00084050754     -0.00151676618       -0.867474873       -0.485195645
              5.05      -0.870599688       -0.479549231     0.000840199048     -0.00153984415     0.000840199048     -0.00153984415       -0.870599688       -0.479549231
              5.06      -0.873692611        -0.47387368     0.000839740093     -0.00156323666     0.000839740093     -0.00156323666       -0.873692611        -0.47387368
              5.07      -0.876753365       -0.468169084     0.000839126329     -0.00158694783     0.000839126329     -0.00158694783       -0.876753365       -0.468169084
              5.08      -0.879781669       -0.462435537     0.000838353303      -0.0016109818     0.000838353303      -0.0016109818       -0.879781669       -0.462435537
              5.09      -0.882777242       -0.456673138     0.000837416456      -0.0016353428     0.000837416456      -0.0016353428       -0.882777242       -0.456673138
               5.1      -0.885739802       -0.450881984     0.000836311117     -0.00166003507     0.000836311117     -0.00166003507       -0.885739802       -0.450881984
              5.11      -0.888669066       -0.445062175     0.000835032506     -0.00168506293     0.000835032506     -0.00168506293       -0.888669066       -0.445062175
              5.12      -0.891564749       -0.439213814     0.000833575723     -0.00171043073     0.000833575723     -0.00171043073       -0.891564749       -0.439213814
              5.13      -0.894426566       -0.433337005     0.000831935754     -0.00173614287     0.000831935754     -0.00173614287       -0.894426566       -0.433337005
              5.14      -0.897254231       -0.427431855     0.000830107463     -0.00176220382     0.000830107463     -0.00176220382       -0.897254231       -0.427431855
              5.15      -0.900047455       -0.421498472     0.000828085589     -0.00178861809     0.000828085589     -0.00178861809       -0.900047455       -0.421498472
              5.16       -0.90280595       -0.415536965     0.000825864747     -0.00181539024     0.000825864747     -0.00181539024        -0.90280595       -0.415536965
              5.17      -0.905529425       -0.409547448     0.000823439419     -0.00184252489     0.000823439419     -0.00184252489       -0.905529425       -0.409547448
              5.18      -0.908217591       -0.403530035     0.000820803959      -0.0018700267     0.000820803959      -0.0018700267       -0.908217591       -0.403530035
              5.19      -0.910870154       -0.397484842      0.00081795258      -0.0018979004      0.00081795258      -0.0018979004       -0.910870154       -0.397484842
               5.2      -0.913486822       -0.391411988      0.00081487936     -0.00192615075      0.00081487936     -0.00192615075       -0.913486822       -0.391411988
              5.21        -0.9160673       -0.385311593     0.000811578234     -0.00195478258     0.000811578234     -0.00195478258         -0.9160673       -0.385311593
              5.22      -0.918611293       -0.379183781     0.000808042989     -0.00198380077     0.000808042989     -0.00198380077       -0.918611293       -0.379183781
              5.23      -0.921118503       -0.373028677     0.000804267265     -0.00201321026     0.000804267265     -0.00201321026       -0.921118503       -0.373028677
              5.24      -0.923588634       -0.366846407     0.000800244548     -0.00204301603     0.000800244548     -0.00204301603       -0.923588634       -0.366846407
              5.25      -0.926021385       -0.360637102      0.00079596817     -0.00207322313      0.00079596817     -0.00207322313       -0.926021385       -0.360637102
              5.26      -0.928416458       -0.354400893       0.0007914313     -0.00210383665       0.0007914313     -0.00210383665       -0.928416458       -0.354400893
              5.27      -0.930773551       -0.348137913     0.000786626944     -0.00213486173     0.000786626944     -0.00213486173       -0.930773551       -0.348137913
              5.28      -0.933092361         -0.3418483     0.000781547941      -0.0021663036     0.000781547941      -0.0021663036       -0.933092361         -0.3418483
              5.29      -0.935372585       -0.335532192     0.000776186957      -0.0021981675     0.000776186957      -0.0021981675       -0.935372585       -0.335532192
               5.3      -0.937613919       -0.329189729     0.000770536483     -0.00223045875     0.000770536483     -0.00223045875       -0.937613919       -0.329189729
              5.31      -0.939816057       -0.322821056     0.000764588829     -0.00226318272     0.000764588829     -0.00226318272       -0.939816057       -0.322821056
              5.32      -0.941978691       -0.316426317     0.000758336121     -0.00229634484     0.000758336121     -0.00229634484       -0.941978691       -0.316426317
              5.33      -0.944101514       -0.310005661     0.000751770296     -0.00232995058     0.000751770296     -0.00232995058       -0.944101514       -0.310005661
              5.34      -0.946184216       -0.303559238     0.000744883097     -0.00236400549     0.000744883097     -0.00236400549       -0.946184216       -0.303559238
              5.35      -0.948226488       -0.297087202      0.00073766607     -0.00239851514      0.00073766607     -0.00239851514       -0.948226488       -0.297087202
              5.36      -0.950228017       -0.290589708     0.000730110556     -0.00243348519     0.000730110556     -0.00243348519       -0.950228017       -0.290589708
              5.37       -0.95218849       -0.284066914      0.00072220769     -0.00246892134      0.00072220769     -0.00246892134        -0.95218849       -0.284066914
              5.38      -0.954107595       -0.277518981     0.000713948394     -0.00250482934     0.000713948394     -0.00250482934       -0.954107595       -0.277518981
              5.39      -0.955985015       -0.270946071     0.000705323372       -0.002541215     0.000705323372       -0.002541215       -0.955985015       -0.270946071
               5.4      -0.957820435       -0.264348351     0.000696323105     -0.00257808419     0.000696323105     -0.00257808419       -0.957820435       -0.264348351
              5.41      -0.959613538       -0.257725989     0.000686937844     -0.00261544281     0.000686937844     -0.00261544281       -0.959613538       -0.257725989
              5.42      -0.961364003       -0.251079155     0.000677157607     -0.00265329685     0.000677157607     -0.00265329685       -0.961364003       -0.251079155
              5.43      -0.963071513       -0.244408025     0.000666972172     -0.00269165233     0.000666972172     -0.00269165233       -0.963071513       -0.244408025
              5.44      -0.964735746       -0.237712774     0.000656371073     -0.00273051533     0.000656371073     -0.00273051533       -0.964735746       -0.237712774
              5.45       -0.96635638       -0.230993582     0.000645343589     -0.00276989198     0.000645343589     -0.00276989198        -0.96635638       -0.230993582
              5.46      -0.967933091       -0.224250631     0.000633878745     -0.00280978847     0.000633878745     -0.00280978847       -0.967933091       -0.224250631
              5.47      -0.969465555       -0.217484105       0.0006219653     -0.00285021102       0.0006219653     -0.00285021102       -0.969465555       -0.217484105
              5.48      -0.970953447       -0.210694192     0.000609591742     -0.00289116593     0.000609591742     -0.00289116593       -0.970953447       -0.210694192
              5.49       -0.97239644       -0.203881083     0.000596746285     -0.00293265954     0.000596746285     -0.00293265954        -0.97239644       -0.203881083
               5.5      -0.973794205       -0.197044971     0.000583416856     -0.00297469823     0.000583416856     -0.00297469823       -0.973794205       -0.197044971
              5.51      -0.975146414       -0.190186053     0.000569591094     -0.00301728844     0.000569591094     -0.00301728844       -0.975146414       -0.190186053
              5.52      -0.976452736       -0.183304529      0.00055525634     -0.00306043665      0.00055525634     -0.00306043665       -0.976452736       -0.183304529
              5.53      -0.977712839         -0.1764006     0.000540399628      -0.0031041494     0.000540399628      -0.0031041494       -0.977712839         -0.1764006
              5.54      -0.978926391       -0.169474472     0.000525007682     -0.00314843327     0.000525007682     -0.00314843327       -0.978926391       -0.169474472
              5.55      -0.980093057       -0.162526353     0.000509066904     -0.00319329487     0.000509066904     -0.00319329487       -0.980093057       -0.162526353
              5.56      -0.981212503       -0.155556456     0.000492563371     -0.00323874089     0.000492563371     -0.00323874089       -0.981212503       -0.155556456
              5.57      -0.982284391       -0.148564995     0.000475482821     -0.00328477803     0.000475482821     -0.00328477803       -0.982284391       -0.148564995
              5.58      -0.983308385       -0.141552188     0.000457810649     -0.00333141304     0.000457810649     -0.00333141304       -0.983308385       -0.141552188
              5.59      -0.984284146       -0.134518257     0.000439531898     -0.00337865273     0.000439531898     -0.00337865273       -0.984284146       -0.134518257
               5.6      -0.985211333       -0.127463425      0.00042063125     -0.00342650392      0.00042063125     -0.00342650392       -0.985211333       -0.127463425
              5.61      -0.986089605        -0.12038792     0.000401093015     -0.00347497349     0.000401093015     -0.00347497349       -0.986089605        -0.12038792
              5.62      -0.986918619       -0.113291975     0.000380901126     -0.00352406835     0.000380901126     -0.00352406835       -0.986918619       -0.113291975
              5.63      -0.987698033       -0.106175822     0.000360039124     -0.00357379542     0.000360039124     -0.00357379542       -0.987698033       -0.106175822
              5.64      -0.988427501      -0.0990397005     0.000338490156      -0.0036241617     0.000338490156      -0.0036241617       -0.988427501      -0.0990397005
              5.65      -0.989106677      -0.0918838512     0.000316236958     -0.00367517418     0.000316236958     -0.00367517418       -0.989106677      -0.0918838512
              5.66      -0.989735214      -0.0847085191     0.000293261849     -0.00372683989     0.000293261849     -0.00372683989       -0.989735214      -0.0847085191
              5.67      -0.990312762      -0.0775139524     0.000269546718     -0.00377916589     0.000269546718     -0.00377916589       -0.990312762      -0.0775139524
              5.68      -0.990838973      -0.0703004032     0.000245073017     -0.00383215926     0.000245073017     -0.00383215926       -0.990838973      -0.0703004032
              5.69      -0.991313495      -0.0630681269     0.000219821745      -0.0038858271     0.000219821745      -0.0038858271       -0.991313495      -0.0630681269
               5.7      -0.991735975      -0.0558173829     0.000193773444     -0.00394017654     0.000193773444     -0.00394017654       -0.991735975      -0.0558173829
              5.71      -0.992106061      -0.0485484338     0.000166908178      -0.0039952147     0.000166908178      -0.0039952147       -0.992106061      -0.0485484338
              5.72      -0.992423398      -0.0412615465     0.000139205531     -0.00405094874     0.000139205531     -0.00405094874       -0.992423398      -0.0412615465
              5.73      -0.992687629      -0.0339569914     0.000110644588     -0.00410738581     0.000110644588     -0.00410738581       -0.992687629      -0.0339569914
              5.74      -0.992898398      -0.0266350427     8.12039249e-05     -0.00416453307     8.12039249e-05     -0.00416453307       -0.992898398      -0.0266350427
              5.75      -0.993055345      -0.0192959786      5.0861597e-05     -0.00422239768      5.0861597e-05     -0.00422239768       -0.993055345      -0.0192959786
              5.76      -0.993158112      -0.0119400812     1.95951239e-05     -0.00428098682     1.95951239e-05     -0.00428098682       -0.993158112      -0.0119400812
              5.77      -0.993206337     -0.00456763652    -1.26185225e-05     -0.00434030763    -1.26185225e-05     -0.00434030763       -0.993206337     -0.00456763652
              5.78      -0.993199657      0.00282106529    -4.58029326e-05     -0.00440036726    -4.58029326e-05     -0.00440036726       -0.993199657      0.00282106529
              5.79       -0.99313771       0.0102257301    -7.99822726e-05     -0.00446117285    -7.99822726e-05     -0.00446117285        -0.99313771       0.0102257301
               5.8      -0.993020131       0.0176460595    -0.000115181299     -0.00452273152    -0.000115181299     -0.00452273152       -0.993020131       0.0176460595
              5.81      -0.992846554       0.0250817512    -0.000151425375     -0.00458505035    -0.000151425375     -0.00458505035       -0.992846554       0.0250817512
              5.82      -0.992616611       0.0325324983    -0.000188740482     -0.00464813642    -0.000188740482     -0.00464813642       -0.992616611       0.0325324983
              5.83      -0.992329934         0.03999799     -0.00022715324     -0.00471199674     -0.00022715324     -0.00471199674       -0.992329934         0.03999799
              5.84      -0.991986153       0.0474779109     -0.00026669092     -0.00477663832     -0.00026669092     -0.00477663832       -0.991986153       0.0474779109
              5.85      -0.991584897       0.0549719412    -0.000307381463     -0.00484206809    -0.000307381463     -0.00484206809       -0.991584897       0.0549719412
              5.86      -0.991125793       0.0624797568    -0.000349253494     -0.00490829295    -0.000349253494     -0.00490829295       -0.991125793       0.0624797568
              5.87      -0.990608469       0.0700010291    -0.000392336343     -0.00497531975    -0.000392336343     -0.00497531975       -0.990608469       0.0700010291
              5.88      -0.990032549       0.0775354248    -0.000436660059     -0.00504315525    -0.000436660059     -0.00504315525       -0.990032549       0.0775354248
              5.89      -0.989397657        0.085082606    -0.000482255433     -0.00511180615    -0.000482255433     -0.00511180615       -0.989397657        0.085082606
               5.9      -0.988703416       0.0926422303     -0.00052915401     -0.00518127908     -0.00052915401     -0.00518127908       -0.988703416       0.0926422303
              5.91      -0.987949446         0.10021395    -0.000577388116     -0.00525158057    -0.000577388116     -0.00525158057       -0.987949446         0.10021395
              5.92      -0.987135368        0.107797414    -0.000626990873     -0.00532271707    -0.000626990873     -0.00532271707       -0.987135368        0.107797414
              5.93        -0.9862608        0.115392265     -0.00067799622      -0.0053946949     -0.00067799622      -0.0053946949         -0.9862608        0.115392265
              5.94       -0.98532536         0.12299814    -0.000730438934     -0.00546752029    -0.000730438934     -0.00546752029        -0.98532536         0.12299814
              5.95      -0.984328664        0.130614674    -0.000784354653     -0.00554119936    -0.000784354653     -0.00554119936       -0.984328664        0.130614674
              5.96      -0.983270327        0.138241494    -0.000839779895     -0.00561573805    -0.000839779895     -0.00561573805       -0.983270327        0.138241494
              5.97      -0.982149961        0.145878222    -0.000896752084     -0.00569114221    -0.000896752084     -0.00569114221       -0.982149961        0.145878222
              5.98       -0.98096718        0.153524478    -0.000955309571      -0.0057674175    -0.000955309571      -0.0057674175        -0.98096718        0.153524478
              5.99      -0.979721594        0.161179873     -0.00101549166     -0.00584456944     -0.00101549166     -0.00584456944       -0.979721594        0.161179873
                 6      -0.978412812        0.168844014     -0.00107733862     -0.00592260335     -0.00107733862     -0.00592260335       -0.978412812        0.168844014
              6.01      -0.977040443        0.176516504     -0.00114089174     -0.00600152439     -0.00114089174     -0.00600152439       -0.977040443        0.176516504
              6.02      -0.975604093        0.184196938     -0.00120619332      -0.0060813375     -0.00120619332      -0.0060813375       -0.975604093        0.184196938
              6.03      -0.974103368        0.191884907     -0.00127328672     -0.00616204739     -0.00127328672     -0.00616204739       -0.974103368        0.191884907
              6.04      -0.972537873        0.199579996     -0.00134221639     -0.00624365857     -0.00134221639     -0.00624365857       -0.972537873        0.199579996
              6.05      -0.970907209        0.207281785     -0.00141302785     -0.00632617528     -0.00141302785     -0.00632617528       -0.970907209        0.207281785
              6.06      -0.969210979        0.214989846     -0.00148576781     -0.00640960152     -0.00148576781     -0.00640960152       -0.969210979        0.214989846
              6.07      -0.967448783        0.222703748     -0.00156048411       -0.006493941     -0.00156048411       -0.006493941       -0.967448783        0.222703748
              6.08      -0.965620219        0.230423052     -0.00163722579     -0.00657919715     -0.00163722579     -0.00657919715       -0.965620219        0.230423052
              6.09      -0.963724886        0.238147314     -0.00171604313     -0.00666537306     -0.00171604313     -0.00666537306       -0.963724886        0.238147314
               6.1      -0.961762378        0.245876083     -0.00179698767     -0.00675247151     -0.00179698767     -0.00675247151       -0.961762378        0.245876083
              6.11      -0.959732291        0.253608902     -0.00188011223     -0.00684049493     -0.00188011223     -0.00684049493       -0.959732291        0.253608902
              6.12      -0.957634217        0.261345309     -0.00196547097     -0.00692944538     -0.00196547097     -0.00692944538       -0.957634217        0.261345309
              6.13       -0.95546775        0.269084833     -0.00205311939     -0.00701932451     -0.00205311939     -0.00701932451        -0.95546775        0.269084833
              6.14       -0.95323248        0.276826998      -0.0021431144     -0.00711013357      -0.0021431144     -0.00711013357        -0.95323248        0.276826998
